!Keysight Technologies,N5242B,MY47200105,A.14.00.23
!Date: Friday, May 10, 2024 11:26:24
!Correction: S11(C  2-Port  ) 
!S21(C  2-Port  ) 
!S12(C  2-Port  ) 
!S22(C  2-Port  ) 
!S2P File: Measurement: :
# Hz S  RI   R 50
18000000000 0.14414304 -0.0214315 -4.6394307e-005 -0.00010845925 -0.00027499121 0.0036016852 0.88719553 -0.42727247
18021250000 0.065326124 -0.22654119 9.1925933e-005 2.1235381e-005 -0.00075105793 0.002065903 0.31363904 -0.19658346
18042500000 0.22876967 -0.088235579 4.7735753e-005 -0.00014199952 0.0053348616 0.0031437697 0.49833378 -0.053476129
18063750000 0.1492805 0.023485169 0.00011159596 4.2605825e-005 0.0016563587 -0.0029685004 0.40134686 -0.19461079
18085000000 0.21501186 -0.052991353 8.956244e-005 5.1731116e-005 0.0039375578 -0.00018821604 0.41992316 0.10156279
18106250000 0.35054669 -0.0033485913 -4.2253854e-005 6.309848e-005 -0.0015744077 -0.0089277178 0.48370877 -0.08868064
18127500000 0.20245993 -0.05056249 -3.4357254e-005 4.8441052e-005 -0.004515579 0.0055798716 0.56938267 -0.21007025
18148750000 0.19160503 -0.041900333 5.523736e-005 8.6309803e-005 0.0016149859 -0.0062938193 0.30533251 -0.37015635
18170000000 0.30985305 0.090422221 -4.4591412e-005 0.00013535522 -0.0050844112 0.0090558613 0.09233781 -0.1330175
18191250000 0.14961839 0.20319341 -2.3358443e-005 -2.1213928e-005 0.0080075152 -0.0062541338 0.26744518 -0.089536391
18212500000 0.25158945 0.068012595 6.5221444e-005 -8.6491054e-006 -0.0072302003 0.0035057224 0.092438176 -0.12409624
18233750000 0.15801097 0.15191256 -3.7570153e-005 0.00013715336 0.010294223 -0.0048770183 0.32927495 -0.14743172
18255000000 0.018715857 0.06075298 0.00012507885 -4.5822726e-005 -0.014362516 -0.0022489238 0.43970391 -0.55604273
18276250000 0.13890906 0.0061927224 0.00011805632 -1.2863495e-005 0.0079811877 0.0036401148 0.1463858 -0.47009397
18297500000 0.057413545 0.16367555 7.3484166e-006 -3.0767365e-005 -0.012174637 -0.0041272286 0.078147635 -0.46674731
18318750000 0.026811311 0.12221072 0.00010267809 2.3816379e-005 0.0068301214 0.013060668 0.11250053 -0.34894893
18340000000 0.07877446 0.080631763 -9.9550714e-005 -2.591731e-005 -0.0023674013 -0.0091827866 0.13770071 -0.24122572
18361250000 -0.13233916 0.10193897 0.00010302578 9.0246271e-005 0.0034621472 0.014249193 0.37055814 -0.47165415
18382500000 -0.085088633 -0.027701506 1.7878268e-005 -2.7124201e-005 0.0049186973 -0.015347973 0.40771899 -0.41467032
18403750000 0.0043855011 -0.021157058 -2.3360519e-005 8.1184502e-005 -0.0070655723 0.010437391 0.28670961 -0.68158782
18425000000 -0.035864837 0.023334498 2.700925e-005 -0.00013264708 0.007549624 -0.0080022328 0.06928464 -0.56364113
18446250000 -0.016478065 -0.13460892 3.4231919e-006 0.00015785461 -0.012422582 0.005603631 0.50735259 -0.41996974
18467500000 0.024122696 -0.0015824694 0.00011350132 4.6645986e-005 0.01374064 0.003506508 0.26146325 -0.54872847
18488750000 -0.19889846 -0.04133559 -5.7731002e-005 -6.6471817e-005 -0.0081532141 -0.0052377172 0.35689449 -0.37662181
18510000000 -0.087719314 -0.16779883 0.00013204155 -7.4011565e-005 0.01264914 0.0077547226 0.5204612 -0.54292619
18531250000 -0.029964866 -0.0086518452 -4.6441187e-006 2.8536717e-005 -0.0045031528 -0.013395675 0.37347817 -0.54578704
18552500000 -0.056243747 -0.19859681 -4.7090198e-005 4.6983041e-006 0.0012396465 0.0066892924 0.28509548 -0.52683568
18573750000 0.08599931 -0.19076531 8.0364014e-005 3.55294e-005 -0.00055231625 -0.009419282 0.15152226 -0.1945333
18595000000 0.093726568 -0.070904315 -5.7277753e-006 2.6193888e-005 -0.0064849635 0.0066171191 0.42883033 -0.10563695
18616250000 0.041714977 -0.14360949 -1.841236e-005 -2.0420341e-006 0.0052372492 -0.0039101187 0.37870625 -0.46306026
18637500000 0.17879643 -0.099462889 5.6513287e-005 0.00013007081 -0.0078663193 0.0038622227 0.26136485 -0.15988928
18658750000 0.080445565 -0.059856076 5.7495232e-005 -7.5354263e-005 0.0094461581 -0.00084758864 0.49332735 -0.49749735
18680000000 0.086845085 -0.20065477 -2.3123046e-005 4.4284669e-005 -0.0064222803 -0.0037866835 -0.045173444 -0.45683035
18701250000 0.24692072 -0.087524019 8.6359796e-006 -6.0903254e-005 0.0023905989 0.0018965993 0.21941507 -0.10492899
18722500000 0.13164908 -0.051371347 5.2938005e-005 4.5339497e-005 -0.0057718796 -0.0036726578 0.16133876 -0.30323344
18743750000 0.22484468 -0.15324226 2.4941215e-005 0.00011197726 0.00025015743 0.00645515 0.14837107 -0.2468157
18765000000 0.21647067 0.091042392 -0.00010514892 -7.7642704e-005 -0.0035744384 -0.0016374779 0.19332907 -0.36038762
18786250000 0.076969281 -0.014062908 6.557587e-005 -0.00010305723 0.004540504 0.0079371538 0.052327041 -0.35442168
18807500000 0.24013501 -0.091416523 3.3702116e-005 -4.6179466e-005 0.0010475795 -0.0043847812 0.030249996 -0.43736789
18828750000 0.13202836 -0.052473608 -3.2647495e-005 -2.7564618e-005 0.0019534791 0.0037441493 -0.023323981 -0.46719825
18850000000 0.1357498 -0.055636082 1.5553427e-006 -3.7686572e-005 0.0017240865 -0.0063114506 0.10255215 -0.12186795
18871250000 0.23621146 0.091631278 4.1490193e-006 1.0396661e-005 -0.0034267253 0.0057787509 0.13226537 -0.59528017
18892500000 0.13118416 0.24398756 6.9463399e-006 -6.2275947e-005 0.0041630319 -0.0062439763 0.051984712 -0.43135688
18913750000 0.11373833 0.027389655 3.6067191e-005 -0.00011020482 -0.0051454557 0.0080304965 0.21722598 -0.61611414
18935000000 0.08978992 -0.0077791936 -3.9101073e-005 3.0467772e-005 0.0095272064 -0.0048225238 -0.068889357 -0.69115156
18956250000 -0.046753276 -0.010972388 1.8438592e-006 -3.2752469e-005 -0.0068411683 0.0023167497 -0.0136409 -0.4987615
18977500000 0.025951343 -0.075716458 7.7759205e-006 0.00011136127 0.011585431 -0.0035335368 0.13619411 -0.41770989
18998750000 0.073841915 0.17339602 -4.7190686e-005 -4.2163836e-005 -0.011344603 -0.0046010432 0.25233102 -0.52482134
19020000000 -0.038081992 0.13523459 7.9900812e-005 -0.00011569637 0.0080661913 0.0020357785 0.1399788 -0.59270602
19041250000 -0.091988876 -0.0094898669 7.5132732e-005 -5.8413734e-005 -0.011133854 -0.0062701297 -0.002070257 -0.48817828
19062500000 -0.10629705 0.075419433 4.1925836e-005 -4.8258131e-005 0.005434568 0.0096989861 0.28659937 -0.61407393
19083750000 -0.077246837 -0.18705454 0.00012374832 3.0244693e-005 -0.0029992326 -0.0083009237 -0.047704905 -0.60630864
19105000000 0.090347283 -0.048601247 -0.0001167415 3.4426761e-005 0.00031206536 0.010767126 0.015976757 -0.2116587
19126250000 0.069860905 0.062996693 9.245231e-006 -8.5199492e-005 0.0035370972 -0.011446122 0.45906526 -0.53830355
19147500000 -0.047887631 -0.04843739 -7.0275339e-005 -9.261597e-005 -0.0068834517 0.007923848 0.10520405 -0.57922101
19168750000 -0.1189214 -0.10757623 7.5169714e-006 6.4980188e-005 0.0060327486 -0.0067027118 0.16084851 -0.46369329
19190000000 -0.16865236 -0.19015539 -3.1910295e-006 -9.3401708e-005 -0.01131228 0.0048854807 0.13137776 -0.48563221
19211250000 -0.11919831 -0.29342103 0.00022910463 -3.824657e-005 0.0084527479 0.0038486819 0.18791507 -0.44566861
19232500000 0.14589784 -0.14079489 -3.2636937e-005 0.00010238747 -0.0059045469 -0.0023491087 -0.10333915 -0.3381536
19253750000 -0.00751568 -0.10594848 -0.00010779518 -2.4579618e-005 0.00764396 0.0088343313 0.29961044 -0.27101994
19275000000 0.046573725 -0.19391125 0.00012452739 9.4900584e-005 -0.00047905059 -0.0092299553 0.184082 -0.52451026
19296250000 -0.0018456139 -0.12736888 -0.00010404458 2.8036184e-005 0.0016347648 0.0081514297 0.021699175 -0.39937288
19317500000 -0.14876829 -0.23066175 -5.0302882e-005 -0.00010904467 0.00039593576 -0.011331414 0.20583379 -0.36744148
19338750000 0.20103411 -0.28667164 -6.079796e-005 -2.5088148e-005 -0.003685026 0.01024634 -0.13948892 -0.54324061
19360000000 0.18286563 -0.2055683 2.3026685e-006 2.1972299e-005 0.0059650261 -0.0090030869 -0.11041977 -0.19508785
19381250000 0.16303615 -0.23890126 -4.8547696e-005 -9.9501231e-006 -0.0078698164 0.009087313 0.16439016 -0.3143158
19402500000 0.19658439 -0.14296715 -9.9877507e-005 8.6734806e-005 0.013201191 -0.0053323973 -0.056424275 -0.37376681
19423750000 0.014435252 -0.1604142 -4.1470394e-005 -0.00018151761 -0.010348008 -0.00096709619 0.065098524 -0.47154897
19445000000 0.089874476 -0.16184056 4.1225147e-005 -2.2941773e-005 0.01168557 6.4176584e-006 -0.2131636 -0.37723115
19466250000 0.27056506 -0.11276669 6.7236062e-005 4.5995912e-005 -0.012731475 -0.0069567459 -0.076997533 -0.36816722
19487500000 0.19792102 -0.060314536 2.1866819e-005 2.429835e-005 0.0065550697 0.0066615678 -0.27427709 -0.47728348
19508750000 0.23651589 -0.18296255 4.0346811e-005 1.3145581e-005 -0.0089341179 -0.0086114416 -0.2008037 -0.075644828
19530000000 0.14614853 0.027533162 -0.00022746382 0.00025127616 0.0026279103 0.012096198 0.13126484 -0.4163211
19551250000 0.048220839 -0.021795914 9.9004377e-005 -5.0499455e-007 0.0032583685 -0.009954378 -0.43957108 -0.73269725
19572500000 0.23370092 -0.033048753 -0.00010334514 -0.00017831157 -0.0060570068 0.010688979 -0.18011358 -0.22145779
19593750000 0.16936849 0.10324524 -3.0726227e-005 2.2206115e-005 0.0092716282 -0.010943328 -0.17064206 -0.63724172
19615000000 0.085163072 -0.027159754 8.9924921e-005 3.3574222e-006 -0.013455588 0.0059473389 -0.35238165 -0.40770158
19636250000 0.11686501 0.051777925 0.00013851299 -8.541977e-006 0.01073166 -0.0014901266 -0.1193046 -0.36045775
19657500000 -0.10659505 0.1055128 -3.5075507e-005 -2.3068565e-005 -0.013396361 -0.0012485253 -0.18060477 -0.41641167
19678750000 0.0070164949 0.011362571 -4.3312844e-005 0.00014568715 0.0093296003 0.011637292 -0.070945501 -0.74176878
19700000000 -0.0020167299 0.096956097 0.00016371002 0.00012357981 -0.0028848483 -0.010234968 -0.38036108 -0.51043028
19721250000 -0.0099374764 0.069126971 2.1770169e-005 -3.2763335e-005 0.0053462 0.01172351 -0.083702862 -0.33206216
19742500000 -0.1405634 -0.041980743 2.8534043e-005 4.2380048e-005 0.0011163629 -0.012416637 -0.14539784 -0.69972789
19763750000 -0.16925563 0.030835968 9.7776545e-005 -1.3702651e-005 -0.0028725241 0.0085893078 -0.296386 -0.33839619
19785000000 -0.22780333 0.070063554 0.00018612748 -0.00010652263 0.0052944273 -0.0091795232 0.22823668 -0.28634745
19806250000 -0.071689993 -0.072911441 -0.0001957671 8.9375942e-005 -0.0098668085 0.0052927253 0.014244832 -0.82575136
19827500000 -0.087242126 0.034670819 3.0816456e-005 5.5466542e-005 0.01170173 -0.00091191928 -0.055095479 -0.35447815
19848750000 -0.22015452 -0.13112307 -0.00020038795 4.4206034e-005 -0.0082388911 -0.0013515373 0.062150907 -0.41670778
19870000000 -0.13343871 -0.12548654 -5.7507026e-005 -7.9054596e-005 0.0093577346 0.0019926769 -0.029846756 -0.40854374
19891250000 -0.26847029 -0.16941226 2.9870132e-005 -6.2052823e-005 -0.0043569696 -0.0065694107 0.14130174 -0.2814016
19912500000 -0.10232427 -0.32872668 2.5410469e-005 -0.00010636551 0.00053923659 0.0025740135 0.11749817 -0.0088586248
19933750000 -0.0056082695 -0.13987119 -6.0845607e-005 9.4206822e-005 -0.0016397787 -0.0052817911 0.27269742 -0.48015258
19955000000 -0.10435998 -0.2227494 -2.8095494e-006 -0.00020125507 -0.0055544865 0.0041700308 -0.30418065 -0.36470884
19976250000 -0.15946703 -0.24893464 -0.00012932786 -5.5195807e-005 0.003343334 0.00027934613 0.057483736 0.040373012
19997500000 -0.18652149 -0.23082748 -3.2790045e-005 3.0524425e-005 -0.0022304119 0.001604808 0.035118256 -0.15646297
20018750000 -0.072734579 -0.27730012 0.00017232772 0.00014696825 0.0027300569 -0.00052730681 -0.15856081 0.0026277513
20040000000 0.17075849 -0.31480655 -4.8025762e-005 -8.5088323e-005 -0.00031102999 0.0017405605 0.049089953 0.24586625
20061250000 0.32292131 -0.079970777 -0.00013466706 -4.9157672e-005 -0.0002697719 -0.0055221803 0.015086888 -0.27111316
20082500000 0.10581721 -0.061825935 -3.6287634e-005 3.873057e-005 -0.0039619184 0.0068731676 -0.35796571 -0.20378223
20103750000 0.15678732 0.0033796476 -0.00017286047 9.6953117e-005 0.001278361 -0.0045522735 -0.34532416 -0.09200035
20125000000 -0.14151148 0.055963702 1.704344e-005 5.6399207e-005 -0.002350207 0.0090731326 -0.36357135 0.11373325
20146250000 0.06554392 -0.17764866 -5.7604229e-006 -0.0001349657 0.0057246061 -0.0042153187 -0.29053897 -0.28138104
20167500000 0.29947844 -0.067712054 6.9730857e-005 0.00010530303 -0.0038792172 0.0037121919 -0.80813408 -0.16143425
20188750000 0.22498643 0.01462819 -4.2322376e-005 5.7966394e-005 0.010352093 -0.0010609948 -0.033963982 -0.11772574
20210000000 0.23844203 0.1031194 -0.00010093414 0.00012560407 -0.0091084214 -0.0080787297 -0.57236898 -0.86353785
20231250000 0.020838635 0.37444693 -0.0001376189 -0.0003260677 0.008732832 0.0080419919 -0.76815236 -0.15151706
20252500000 -0.12891643 0.19135579 -2.4377008e-005 9.2382572e-005 -0.0079091545 -0.010109925 -0.44578165 -0.44228366
20273750000 0.043487918 0.13465123 0.00010481479 -0.00019358259 0.0035288823 0.012232769 -0.40513748 -0.38057673
20295000000 0.09481848 0.22614998 -6.3862171e-005 7.2532326e-005 0.0027273635 -0.010189058 -0.43789667 -0.47351399
20316250000 0.037738506 0.18810721 1.8818646e-005 -1.5695314e-005 -0.0027040867 0.010282507 -0.16850848 -0.57079881
20337500000 -0.1181089 0.25216743 -8.7930159e-005 3.2680033e-005 0.010415871 -0.011728375 -0.058224425 -0.80334353
20358750000 -0.32798228 0.37306243 -0.0002051807 -1.3342409e-005 -0.012706065 0.0048692883 -0.56659406 -0.70587748
20380000000 -0.34575611 0.091012962 1.3849188e-005 -1.219459e-005 0.010563731 -0.0049980949 -0.30890235 -0.35898572
20401250000 -0.15473102 0.098605663 0.00016141743 -3.6554329e-006 -0.013538133 -0.0015461498 0.31542668 -0.67292613
20422500000 -0.24965958 0.051501945 2.7438327e-005 5.6974197e-005 0.0070983581 0.0079185478 -0.18963875 -0.6355772
20443750000 -0.14276852 0.02359142 -0.0001505722 -6.8317888e-005 -0.0056942664 -0.00815045 0.16935204 -0.18973896
20465000000 -0.28900805 0.22658621 2.0972591e-005 8.1682323e-005 0.0028533393 0.012716222 0.4084172 -0.82898831
20486250000 -0.40301791 0.069621041 8.071692e-005 7.9086938e-005 0.0006535229 -0.013239464 -0.3161445 -0.32015628
20507500000 -0.18332916 -0.025795989 -6.6261742e-007 -3.5067442e-005 -0.0039910274 0.0092227496 0.24207519 -0.088702917
20528750000 -0.1441904 -0.11293599 -4.9747254e-005 -6.9048074e-005 0.0058743651 -0.0054732151 0.222285 -0.14901097
20550000000 -0.096598186 -0.31014323 -0.00011767218 -8.971573e-005 -0.010522356 0.0024911836 0.20776847 -0.033242475
20571250000 -0.10609546 -0.15474272 -3.4585039e-005 -0.0001478819 0.0098946337 0.0050823069 -0.0089520449 0.05562884
20592500000 -0.12714146 -0.095960848 0.00011921191 0.00019214445 -0.0072668218 -0.0037685386 0.36659643 0.23901562
20613750000 -0.092486821 -0.18787125 5.4854354e-005 -6.0608178e-005 0.0083808322 0.0081809685 -0.24326439 -0.17104888
20635000000 0.28439319 -0.26910526 1.6691867e-005 1.8770001e-005 -0.0011195281 -0.0093321782 -0.43513045 0.59843785
20656250000 0.1057338 -0.26995611 -9.9914956e-005 -8.908032e-005 -0.00023199139 0.005885819 0.22214986 0.49691096
20677500000 0.20628901 -0.37722543 -1.9348812e-005 -1.4463673e-005 0.0027736065 -0.0091062924 -0.30847794 0.028770158
20698750000 0.25387713 -0.078163974 5.2220581e-005 0.00011764335 -0.0073820278 0.0072132815 -0.57271093 0.50661373
20720000000 0.11265048 -0.14376742 -0.00019180377 0.00017460233 0.0072351797 -0.0033574335 -0.29759371 0.30493096
20741250000 0.37880996 -0.103591 -7.9752266e-005 7.5253658e-005 -0.0062380848 0.0024985799 -0.8241055 0.24523018
20762500000 0.3721633 -0.033345085 -7.2836992e-005 -2.6371354e-005 0.0084769903 0.0014112135 -0.70752764 0.29224512
20783750000 0.24754854 -0.080272987 -0.00013980665 -9.6178501e-006 -0.0050868727 -0.0060489606 -0.50538695 0.33870101
20805000000 0.41823053 0.065226436 -3.8977647e-005 -4.7283058e-005 0.0050028414 0.0047837794 -0.43629691 -0.066482767
20826250000 0.25301138 0.24989262 -2.4109977e-005 -3.1131764e-005 -0.0052222596 -0.010167961 -0.9177528 -0.24718714
20847500000 0.21588898 0.10048763 -6.8514732e-005 0.00021302076 -0.00059120572 0.007779195 -0.59565902 -0.038502332
20868750000 0.29203069 0.16215301 4.8992704e-005 1.3580282e-005 -0.0013021778 -0.0056762504 -0.44481918 -0.78118736
20890000000 0.1627585 0.1903796 -0.00024202742 0.00012895797 -0.0028881072 0.0061076051 -1.0642804 -0.36546457
20911250000 0.21969624 0.099848218 0.00013521031 -7.3847725e-005 0.0043186909 -0.0009858167 -0.38058007 -0.20480441
20932500000 0.19323015 0.30942607 -1.8541938e-005 -0.00011993462 -0.0031513812 -0.00044181754 -0.45656711 -0.76449412
20953750000 -0.068618484 0.36508942 -0.00018987777 -2.0011426e-005 0.0027856277 1.6026701e-005 -0.42053309 -0.62780356
20975000000 0.17532784 0.034950759 1.2625356e-005 -0.00018596627 -0.0023106311 -0.0013765784 -0.18286882 -0.5631963
20996250000 0.060156651 0.11249031 -0.00021799855 -9.1180074e-005 -0.0027356485 0.00048931042 -0.15715356 -0.57778311
21017500000 -0.12669773 -0.030965125 -0.00017021457 2.4281957e-005 0.0010845158 0.0031100684 -0.12877056 -0.71777201
21038750000 -0.027645899 0.046332791 0.00014135489 -9.9908484e-006 -0.0014969594 0.001451641 -0.21283013 0.17177755
21060000000 -0.23319764 0.16973618 -5.5690175e-006 -7.8750687e-005 0.0033386289 0.0016749008 0.60856181 -0.29435858
21081250000 -0.22788179 -0.040509749 -6.9046109e-005 -0.00015779946 0.0022055435 0.00013718681 0.083618134 -0.61254019
21102500000 -0.070793256 -0.074095733 -0.00018475378 -4.4554312e-005 0.00024627647 -0.0026656697 0.11330815 0.043412287
21123750000 -0.11541589 -0.14746118 0.00012014942 -0.00018560783 0.00097348535 -0.0002181692 0.46475175 -0.24097401
21145000000 -0.046782292 -0.37830338 0.00012410176 0.00018289669 -0.0023401598 -0.0019240935 -0.073556021 -0.34162575
21166250000 0.061836101 -0.15655391 1.2966774e-005 4.051562e-006 -0.00028788514 0.0027087796 0.13937888 0.39842814
21187500000 -0.025775418 -0.18849526 -3.9993098e-005 -9.9524914e-005 0.0019790891 -0.0011863392 0.094902381 0.12040263
21208750000 0.052356027 -0.40080953 9.6298478e-005 5.4869083e-006 -0.0027834231 0.0027620788 0.15252514 0.10711334
21230000000 0.072673999 -0.22316554 8.4027834e-006 -8.1868624e-005 0.0089067165 -0.002632333 -0.12335361 0.060177285
21251250000 -0.13147245 -0.47544962 -6.9724551e-006 -1.4491218e-006 -0.0083882511 -0.0041327844 -0.030728159 0.54007709
21272500000 0.17734787 -0.3851923 -9.8693226e-006 3.5888504e-005 0.0062501421 0.0036803507 0.13654387 0.03127208
21293750000 0.25557134 -0.14969523 -0.00018028051 -0.00015086483 -0.0086736828 -0.008878326 -0.7459693 0.3610687
21315000000 0.2604908 -0.29282162 0.00012214437 -4.2378011e-005 0.0011106997 0.010857088 -0.089997448 0.55358166
21336250000 0.34440342 -0.25915861 0.000202553 -9.0661029e-005 -0.00026173631 -0.0091023725 -0.25725552 -0.032242723
21357500000 0.19591974 -0.20778146 -0.00012495836 -0.00019817572 -0.0015752765 0.012263918 -0.67646241 0.28670764
21378750000 0.073114306 -0.29061905 7.2075614e-005 0.0002234993 0.0055920272 -0.0092768352 -0.37293929 0.34727505
21400000000 0.30295652 -0.23172289 0.00014434951 -0.00011193791 -0.0067096264 0.0054384535 -0.61732531 -0.10277639
21421250000 0.18290997 -0.084395126 -9.5614341e-005 -0.00015095457 0.0070745219 -0.0020348693 -0.73985922 0.10528728
21442500000 0.31327149 -0.21585904 0.00012073934 -0.00011357803 -0.0082878238 -0.0031263151 -0.60448396 0.15188897
21463750000 0.34004259 -0.0084741283 -6.5355809e-005 8.9220586e-005 0.0037852821 0.0087062558 -0.29194927 0.055588812
21485000000 0.047048617 -0.050810222 0.00019347342 0.00011555127 -0.0010022271 -0.0076483795 -0.62256634 -0.3762401
21506250000 0.18550377 -0.10690243 -0.00012364362 8.0449026e-005 0.00079416839 0.010604765 -0.53991705 0.067781217
21527500000 0.049157582 0.082132682 -8.9191308e-005 0.0001411618 0.0072138775 -0.0097182738 0.074761994 -0.24906297
21548750000 0.0090652527 -0.086481236 7.4232303e-005 -6.7305118e-005 -0.0068204133 0.0055737612 -0.80282104 -0.53585649
21570000000 0.19190195 -0.082920924 5.8542105e-006 8.9093628e-005 0.0097444244 -0.004040014 -0.19010611 0.086852647
21591250000 -0.021330405 -0.052230854 -3.5686615e-005 -0.00014545517 -0.011856741 -0.0022311977 0.14256217 -0.37239018
