!Keysight Technologies,N5242B,MY47200105,A.14.00.23
!Date: Friday, May 10, 2024 11:27:01
!Correction: S11(C  2-Port  ) 
!S21(C  2-Port  ) 
!S12(C  2-Port  ) 
!S22(C  2-Port  ) 
!S2P File: Measurement: :
# Hz S  RI   R 50
18000000000 0.14223975 -0.019960176 -2.8702842e-005 -3.0417179e-005 0.0095058624 0.0061277905 0.88750166 -0.42701527
18021250000 0.066488311 -0.22896188 -6.9021458e-005 -5.9082645e-006 -0.0082912911 -0.0030712399 0.31361249 -0.1965117
18042500000 0.22919737 -0.086678937 -6.3969725e-005 -5.8255286e-005 0.010179857 0.011064863 0.49872488 -0.053391993
18063750000 0.14839178 0.023600316 -2.5721667e-005 -6.9547306e-005 0.00034349313 -0.011355669 0.40220121 -0.19496773
18085000000 0.21541506 -0.054222032 5.7667836e-005 -9.0838446e-005 0.0032349969 0.005187334 0.42017514 0.10214022
18106250000 0.35099322 -0.0021374947 -0.00010892089 8.183781e-005 0.0017641566 -0.01403086 0.48387614 -0.088252611
18127500000 0.20220234 -0.052286204 4.1890136e-005 6.1627252e-006 -0.0099052135 0.0086170817 0.56939274 -0.20940429
18148750000 0.19198333 -0.041864343 -0.00017703527 -7.3775468e-006 0.0080279764 -0.0069297086 0.30549985 -0.36987469
18170000000 0.31081215 0.091483012 -5.8035821e-005 -6.9229442e-005 -0.011251207 0.0065890783 0.092415825 -0.13245162
18191250000 0.14911918 0.20265326 1.5497853e-005 -0.00012958937 0.012703072 -0.00183764 0.26798946 -0.089296013
18212500000 0.253445 0.069093607 -4.3110653e-005 5.4673012e-005 -0.0096857585 -0.0026004864 0.092204988 -0.12406905
18233750000 0.15722662 0.15205406 -9.5899719e-005 -5.3271004e-005 0.0099594388 0.0018145301 0.3291865 -0.14738871
18255000000 0.018920658 0.059578281 0.00010161851 8.4935949e-005 -0.011614538 -0.0088425213 0.440034 -0.55565566
18276250000 0.14111076 0.006799194 2.9825755e-005 3.4414894e-005 0.00310328 0.0085162399 0.14600562 -0.46940592
18297500000 0.056092352 0.16325557 -9.6346184e-006 1.4559305e-005 -0.0067912354 -0.0067151948 0.078346245 -0.46580401
18318750000 0.029727772 0.12242502 -1.1056083e-005 6.943442e-005 0.00092001801 0.013093463 0.1128896 -0.3486045
18340000000 0.079471327 0.081666857 5.9913502e-005 -2.8276498e-005 0.0028759537 -0.0071652168 0.13764717 -0.24094987
18361250000 -0.13324814 0.10173301 -3.1325715e-005 -7.4896809e-005 -0.00074812863 0.010126254 0.37082404 -0.47187385
18382500000 -0.082149073 -0.028168347 6.0499951e-006 -7.0237484e-006 0.0071693351 -0.0098034544 0.40755549 -0.41383234
18403750000 0.0032662563 -0.019243686 2.6547494e-005 3.2173066e-005 -0.0071102954 0.0042244927 0.28671122 -0.68136346
18425000000 -0.034770668 0.023173567 -0.00013330746 5.7280344e-005 0.0055694086 -0.002631895 0.069447093 -0.56360167
18446250000 -0.015156789 -0.13344452 5.5735512e-005 -3.0076693e-005 -0.0086737154 0.0012541668 0.50784642 -0.41955775
18467500000 0.023915524 0.00075604074 -5.11736e-005 -7.0733571e-005 0.0093750842 0.005609022 0.26161408 -0.54892892
18488750000 -0.19881079 -0.042290181 -1.2245745e-005 3.8134949e-005 -0.0038437422 -0.0048071486 0.35682237 -0.37660423
18510000000 -0.086880937 -0.16551705 -6.9081623e-005 -2.0464839e-005 0.0090925349 0.0051252609 0.52102941 -0.5425272
18531250000 -0.03082324 -0.0075657116 -0.00015602786 4.4623768e-005 -0.0029806318 -0.010066304 0.37374353 -0.54528999
18552500000 -0.055610888 -0.1987517 4.7643993e-005 4.4056786e-005 0.0013901175 0.0031723196 0.28516555 -0.52696913
18573750000 0.085806064 -0.18827437 2.3145814e-005 0.00010940171 -0.0026181815 -0.0068940264 0.15142325 -0.19436581
18595000000 0.091822334 -0.070576601 -3.5781522e-005 -6.3431653e-005 -0.0031686348 0.0051897205 0.42832837 -0.10568683
18616250000 0.04110368 -0.14270201 4.9877632e-005 -0.00014059938 0.0015474524 -0.0042123254 0.37870407 -0.46345147
18637500000 0.17829712 -0.098515525 -3.444012e-005 8.7893386e-005 -0.0047042831 0.0059846435 0.26089123 -0.15968664
18658750000 0.078356884 -0.059652749 8.76739e-005 -9.5817231e-005 0.0071926662 -0.0039558276 0.49372831 -0.49716958
18680000000 0.086585037 -0.19991441 -4.5003893e-005 9.0031994e-005 -0.0060246838 -0.00026104561 -0.045133341 -0.45711648
18701250000 0.24557266 -0.08654023 -5.7451245e-005 2.0341342e-005 0.0039809914 -0.0017728261 0.21972217 -0.10431224
18722500000 0.12987931 -0.051070757 6.3392006e-005 0.00020115296 -0.0087589845 -0.00043573027 0.16129711 -0.30304122
18743750000 0.22470599 -0.1544394 -2.1206659e-005 3.7760258e-006 0.0042751203 0.0045130355 0.14875925 -0.2467196
18765000000 0.21411932 0.091121793 7.4258402e-005 0.00013312427 -0.0077289529 -0.0014973861 0.19350414 -0.36035439
18786250000 0.075723201 -0.015450429 7.3419396e-005 -0.00010369654 0.0076518292 0.0094823819 0.052758586 -0.35403371
18807500000 0.23874451 -0.091629371 5.5086264e-005 4.369584e-005 -0.0010874401 -0.0069538415 0.030827209 -0.43733603
18828750000 0.13013949 -0.05415035 1.1759772e-005 -4.5384688e-005 0.0025318782 0.0063383421 -0.022485057 -0.46712378
18850000000 0.13528481 -0.056877226 -0.00013900103 6.0962862e-005 0.0029841799 -0.0086591132 0.1026409 -0.12178867
18871250000 0.2346849 0.091555245 -3.9857634e-005 -3.9553845e-005 -0.0053254445 0.0074048196 0.13228306 -0.59547448
18892500000 0.13003421 0.24236442 0.00011033526 -4.355756e-005 0.0067206938 -0.0061650206 0.051757816 -0.4312427
18913750000 0.11423463 0.026399428 -0.00011117983 -1.0803398e-005 -0.0075599849 0.0070235878 0.21763092 -0.61565799
18935000000 0.088832483 -0.0088610305 6.8290545e-005 -2.5082447e-005 0.01136304 -0.0023939169 -0.068798631 -0.69099277
18956250000 -0.047133293 -0.013658488 -2.6481141e-005 -5.9912465e-005 -0.0078115384 -0.0011024844 -0.013398497 -0.49877691
18977500000 0.025826769 -0.077005744 0.00010707519 -1.9265866e-005 0.011501115 0.00027735424 0.1364893 -0.41749614
18998750000 0.073260911 0.1717407 9.5188436e-005 2.1949261e-005 -0.0099440347 -0.0083761839 0.25243026 -0.52433312
19020000000 -0.037424255 0.13339366 -5.243229e-005 5.7360914e-005 0.0055468027 0.005629132 0.14000514 -0.59237993
19041250000 -0.091199607 -0.010377496 1.5942142e-005 3.5220382e-005 -0.0076442985 -0.0089107631 -0.0021983238 -0.48788255
19062500000 -0.10673489 0.073207751 8.952499e-005 4.1898602e-005 0.00080931187 0.011161993 0.28651759 -0.61380452
19083750000 -0.075130031 -0.18817227 -3.9512313e-005 9.7539087e-005 0.001230375 -0.0081830379 -0.047661677 -0.60658348
19105000000 0.090757087 -0.049114648 -9.2172122e-005 1.0507621e-005 -0.0033295562 0.0088893268 0.015204109 -0.2114671
19126250000 0.070543967 0.061307114 1.7085264e-005 -4.6312834e-005 0.0060542556 -0.0091238339 0.45933181 -0.53824842
19147500000 -0.045908034 -0.048094764 -8.1220962e-005 -4.5094053e-005 -0.0077072671 0.0052440469 0.10475825 -0.5790292
19168750000 -0.11999275 -0.10911535 -8.3934424e-007 -0.00011032027 0.0058381958 -0.0041783489 0.16050932 -0.46322858
19190000000 -0.16666897 -0.19073117 -4.8784204e-005 -0.00010818098 -0.010689936 0.0024007284 0.13125376 -0.48554531
19211250000 -0.11852269 -0.29331368 7.9055448e-005 -8.0544363e-005 0.0074432152 0.0062032402 0.18808281 -0.44557258
19232500000 0.14599885 -0.14208609 -3.0149513e-005 1.5388821e-005 -0.0046653971 -0.0048356722 -0.10359544 -0.33826831
19253750000 -0.0042859963 -0.10613121 -2.3979843e-005 -0.00010844517 0.0056757559 0.01173161 0.29959363 -0.27109265
19275000000 0.046085041 -0.19282557 -1.5103556e-005 -2.1474927e-005 0.0024450147 -0.012183997 0.18387435 -0.52431536
19296250000 -0.00095828425 -0.12879895 0.00022223215 -5.2474566e-005 -0.0029069958 0.010740682 0.021259263 -0.39935476
19317500000 -0.14670582 -0.23024862 4.2904325e-005 3.4005974e-005 0.0060549513 -0.012814933 0.20623271 -0.36717883
19338750000 0.20053215 -0.28449455 1.9736066e-005 0.0001012655 -0.0094605694 0.0099822087 -0.13921365 -0.54348475
19360000000 0.18565454 -0.20682636 -1.7966866e-005 -0.00015047249 0.011294016 -0.006402568 -0.11045793 -0.19487724
19381250000 0.16474162 -0.23710585 5.7995519e-005 -5.6301917e-005 -0.012000425 0.0051874756 0.16504624 -0.31434438
19402500000 0.19600001 -0.14263907 -2.4122774e-005 -3.5038316e-005 0.015213444 -0.00040985597 -0.056100413 -0.37416133
19423750000 0.016294375 -0.16213335 9.1690417e-005 -6.1416271e-005 -0.01047099 -0.0062836502 0.06562715 -0.47173989
19445000000 0.089788236 -0.15803011 -3.4424062e-005 0.00010936997 0.0096499119 0.0048016696 -0.2133076 -0.37728155
19466250000 0.27095196 -0.11444159 0.00011754519 5.0210801e-006 -0.0093790544 -0.010812195 -0.07679183 -0.36839539
19487500000 0.19929294 -0.058460496 5.2514104e-005 8.5360487e-005 0.0017821062 0.0091855312 -0.27426553 -0.4778676
19508750000 0.23754878 -0.18171391 5.632277e-005 -7.1732497e-006 -0.0028656544 -0.0085432017 -0.2011461 -0.074763708
19530000000 0.14474389 0.025224835 -6.2163686e-005 -9.2804155e-005 -0.00327514 0.01006845 0.13234243 -0.41659665
19551250000 0.049084704 -0.018668486 -3.4178993e-005 -0.00013325362 0.0075932546 -0.0047694589 -0.43968084 -0.73315614
19572500000 0.23224035 -0.032740656 0.00027424333 3.9636161e-005 -0.0081047909 0.003301119 -0.17960858 -0.22070566
19593750000 0.16951177 0.10355937 6.2817569e-005 1.2514062e-006 0.0083646923 -0.0026405812 -0.16999851 -0.63842988
19615000000 0.086601339 -0.025638869 0.00017993442 0.00012572578 -0.0086854585 -0.0015592925 -0.3524113 -0.40771815
19636250000 0.11386871 0.051779963 4.0835424e-005 0.00015698044 0.0035891042 0.0037156816 -0.11866634 -0.36004204
19657500000 -0.10577873 0.10409816 0.00015437325 2.3810673e-005 -0.0043681553 -0.0024752177 -0.18008038 -0.41647828
19678750000 0.0058310167 0.013750476 5.0945244e-005 -4.2254618e-005 0.0011090029 0.0089065395 -0.070018373 -0.7421211
19700000000 -0.0044359895 0.095957495 0.0001381875 1.8992032e-005 0.0037373684 -0.0038843986 -0.38045242 -0.51060337
19721250000 -0.0073519121 0.068316996 -0.00010219418 0.00014555352 0.0016982346 0.003344618 -0.083180845 -0.33156624
19742500000 -0.14364763 -0.03996034 -0.00017904608 7.0964379e-005 0.00029166086 -0.0037449831 -0.14483164 -0.70029551
19763750000 -0.16977422 0.027208246 0.0001874114 1.2846822e-005 0.0021831701 0.00054640137 -0.29668406 -0.33824968
19785000000 -0.22761728 0.069290861 -5.5942648e-005 0.00012519839 -0.0024946714 -0.003247476 0.22871773 -0.28600365
19806250000 -0.073908024 -0.072174713 -0.00013808311 0.00011249354 -0.00079632981 0.0035935191 0.014284665 -0.8263036
19827500000 -0.085723624 0.031467143 4.6088317e-005 7.4530079e-005 0.0024241281 -0.0024594832 -0.055058528 -0.35400468
19848750000 -0.21936673 -0.13018481 -6.3727472e-005 7.7263227e-005 -0.00064159918 0.0039642043 0.062304091 -0.41673559
19870000000 -0.13552558 -0.12753794 0.00013703517 4.8004281e-006 0.0044629881 -0.0061102347 -0.029806877 -0.4084903
19891250000 -0.26865339 -0.17297076 4.731708e-006 3.9518858e-005 -0.0028073555 0.0028064984 0.14091715 -0.28145367
19912500000 -0.10031698 -0.32734752 6.4962958e-005 2.1729526e-005 0.0032091488 -0.0071368315 0.11720099 -0.0084969653
19933750000 -0.0079623489 -0.14142171 -0.00013033548 2.206024e-005 -0.0076854485 0.0012235824 0.27283311 -0.47954232
19955000000 -0.10042535 -0.22379689 -4.1598858e-005 -1.9912399e-005 0.003255663 0.0013038799 -0.30429116 -0.36487502
19976250000 -0.15990576 -0.24879558 3.1010561e-005 -8.6937078e-005 -0.0056980439 -0.00073151576 0.056921892 0.040524624
19997500000 -0.18758337 -0.23380418 -2.1877715e-006 0.000115412 0.0052355044 0.0065515451 0.035049468 -0.15647089
20018750000 -0.070267327 -0.27687177 6.5491033e-005 4.3793516e-005 -0.00187527 -0.008649013 -0.159284 0.0031052919
20040000000 0.16852166 -0.3139486 0.00010595932 5.8328573e-005 0.00019895591 0.011415886 0.048136689 0.2465914
20061250000 0.3260977 -0.081941903 8.8034176e-005 0.00014146231 0.0038003386 -0.014589431 0.015033791 -0.27113992
20082500000 0.10673518 -0.061225507 2.2528504e-006 5.4469518e-005 -0.012614877 0.013546759 -0.35851714 -0.20360065
20103750000 0.15569192 0.0027734374 0.00010777273 0.00010253141 0.011572146 -0.0070311441 -0.34558547 -0.092352882
20125000000 -0.1414948 0.053081609 3.6263162e-005 -0.00010558727 -0.012581537 0.0067757722 -0.36448401 0.11404705
20146250000 0.066019334 -0.17550515 -0.00021630636 1.3046236e-005 0.013972847 0.0023226643 -0.29086527 -0.28148422
20167500000 0.2995497 -0.068107083 7.2748669e-005 0.00010368316 -0.0084822793 -0.0062153372 -0.80918032 -0.16146722
20188750000 0.22826794 0.01375408 9.7983138e-005 -0.00015912116 0.010697016 0.0086713592 -0.033883404 -0.11763863
20210000000 0.23908867 0.10420103 -2.614517e-005 -8.5950443e-005 -0.0042032548 -0.016957883 -0.57171136 -0.86465567
20231250000 0.017963886 0.37038091 -8.6981185e-005 1.600951e-005 0.0008918143 0.014628682 -0.76851743 -0.15241231
20252500000 -0.12776195 0.19168493 -8.8100445e-005 0.00016470398 0.0012806 -0.012708614 -0.44554842 -0.4427368
20273750000 0.04119527 0.13784519 -8.1613274e-005 9.7945725e-005 -0.0062053879 0.010936942 -0.40524951 -0.38138869
20295000000 0.095801331 0.22454363 7.1747301e-005 6.7539469e-007 0.010806164 -0.0045691677 -0.4383685 -0.47436157
20316250000 0.041115817 0.18998261 -5.2047861e-005 -6.2541614e-005 -0.0081366599 0.0021388864 -0.16846459 -0.57158023
20337500000 -0.1219458 0.24889164 0.00013524627 4.6313049e-005 0.011030377 -0.0016901291 -0.057586569 -0.8040511
20358750000 -0.32821462 0.37265214 0.00011344373 0.00017849557 -0.0099828616 -0.0047246781 -0.56583792 -0.70638996
20380000000 -0.34602723 0.091418155 -6.6728309e-005 9.4235569e-005 0.0045482083 0.0034232833 -0.30830491 -0.35923615
20401250000 -0.15495297 0.099028744 1.036188e-005 -1.1255726e-005 -0.0048651202 -0.0064217094 0.31723502 -0.67222875
20422500000 -0.24585021 0.04982901 -0.00016557959 -9.9714034e-006 -0.0025553906 0.0086017121 -0.18901335 -0.63585126
20443750000 -0.14398231 0.02383698 -5.5218217e-005 4.6245582e-006 0.0035063792 -0.0061289039 0.17011945 -0.189117
20465000000 -0.29173186 0.2251562 4.1004063e-005 -0.0001054358 -0.0032718328 0.0063541867 0.40953076 -0.82951337
20486250000 -0.40250301 0.070581883 -0.00010148086 -0.0001390969 0.0039294218 -0.005201146 -0.31599474 -0.32055116
20507500000 -0.18323134 -0.022142557 4.7426758e-005 5.0628307e-005 -0.0042425189 0.00084839878 0.24265422 -0.088605136
20528750000 -0.14201304 -0.11452754 2.4662777e-005 -0.00028922077 0.0023974204 0.0019214144 0.22220892 -0.14906009
20550000000 -0.094295695 -0.31025255 -3.2296302e-005 -0.00012525177 -0.004976037 -0.0031363391 0.20799012 -0.032292005
20571250000 -0.1097031 -0.1563805 -0.00010459675 0.00011870267 0.0025006782 0.0080350619 -0.0084111746 0.055882782
20592500000 -0.12898961 -0.096037969 1.3298192e-005 0.00012949783 -7.1002025e-005 -0.0036597445 0.3667641 0.24014786
20613750000 -0.093729526 -0.18535541 -1.4829412e-005 0.00018266773 0.0020658376 0.0055196499 -0.24364433 -0.17093483
20635000000 0.28782371 -0.26973858 -0.00017810149 0.00032567294 0.0034516726 -0.005045882 -0.43608338 0.59870362
20656250000 0.10842372 -0.27052993 -5.2466079e-005 -9.1200709e-005 -0.0015073839 0.0017378015 0.22199175 0.49746072
20677500000 0.20596369 -0.37993753 -5.7803063e-005 -5.553224e-005 0.0017894849 -0.0049675042 -0.30887705 0.028656591
20698750000 0.25199535 -0.07757017 -2.9787787e-005 -4.3845575e-005 -0.0047245962 0.0051177726 -0.57509148 0.50658137
20720000000 0.11105686 -0.14430037 8.0177095e-005 -0.00012743066 0.0040002442 -0.0030682727 -0.29837206 0.30481276
20741250000 0.37841108 -0.1022467 -5.373704e-006 -0.00012622919 -0.0031427497 0.0037425128 -0.82481241 0.2436069
20762500000 0.37322572 -0.033015553 -7.8415207e-005 -0.0001859293 0.0067756241 -0.0010298814 -0.70893115 0.29109845
20783750000 0.24688829 -0.080356583 0.00010167051 -0.00011958973 -0.005200509 -0.0033035453 -0.50645006 0.33827981
20805000000 0.41715848 0.065492392 -1.1125392e-005 0.00031414456 0.0064113964 0.0026573641 -0.43710813 -0.067610703
20826250000 0.2505849 0.25002947 4.3945205e-005 4.4611311e-006 -0.0077500679 -0.0093342857 -0.91936475 -0.24839048
20847500000 0.21576932 0.1020899 -0.00010679865 6.580224e-005 0.0022148993 0.0084065003 -0.59583265 -0.038932279
20868750000 0.29212004 0.16119163 2.1766822e-005 0.00015232958 -0.0038152835 -0.0077923699 -0.44373459 -0.78302109
20890000000 0.16264404 0.18823858 -0.0001266777 -1.0980019e-005 -0.0010803315 0.0091142897 -1.064265 -0.36685604
20911250000 0.21863754 0.098907053 -2.0253767e-005 3.8006701e-006 0.004606856 -0.0043151863 -0.38010216 -0.2059283
20932500000 0.19105914 0.30910587 0.00017149519 -2.4173421e-005 -0.0057888497 0.0021519219 -0.45489037 -0.76559424
20953750000 -0.07032036 0.3667621 -0.00019890345 -3.6950645e-005 0.0070646438 -0.00067406695 -0.41982147 -0.62864733
20975000000 0.17755596 0.033951201 0.00021817032 -0.00010659608 -0.0066717588 -0.0028694812 -0.1819372 -0.56433707
20996250000 0.06103887 0.11071683 -2.8891154e-005 -0.00019270177 0.0014244985 0.0042738258 -0.15601152 -0.57950747
21017500000 -0.12710337 -0.033214483 8.7948974e-005 9.1826609e-005 7.9754085e-005 -0.0022587345 -0.12726229 -0.71946573
21038750000 -0.030379239 0.046442479 -2.0608213e-005 1.9423936e-005 -0.0030025493 0.007226855 -0.21225441 0.17142057
21060000000 -0.23512851 0.16792531 2.9160155e-005 -0.00018990198 0.008089033 -0.0026216789 0.61122704 -0.29435104
21081250000 -0.22641803 -0.040905863 2.4186567e-005 2.260739e-005 -0.0047716475 0.0023370227 0.083981887 -0.61273521
21102500000 -0.07068976 -0.075775258 0.00012439619 -0.00017218599 0.0078483094 -0.0026700909 0.11373626 0.043550361
21123750000 -0.11342263 -0.14804238 6.3552616e-005 2.8462009e-005 -0.0061628255 -0.0038597435 0.46687159 -0.24103723
21145000000 -0.046614908 -0.37829074 -3.5186499e-006 0.00010446682 0.0028912721 0.0042076437 -0.072683215 -0.3419871
21166250000 0.06103763 -0.15580735 5.7427987e-005 -4.1742001e-005 -0.0022817785 -0.0054711332 0.14054871 0.39955598
21187500000 -0.024814669 -0.18752494 1.6483229e-005 -0.00017617986 0.0001633615 0.0070953239 0.095436893 0.12118702
21208750000 0.053294998 -0.40052944 -9.9408055e-005 -5.1344996e-005 0.0024594292 -0.0047425022 0.15352899 0.10757304
21230000000 0.074487761 -0.22327527 -9.4936055e-005 -7.3209434e-005 0.00018599383 0.0018563973 -0.12332627 0.059759732
21251250000 -0.13133511 -0.47669998 4.2288433e-005 0.00013049044 0.0012816704 -0.0037675926 -0.030827835 0.54134005
21272500000 0.17553988 -0.38413861 -0.00010303973 -0.00011268605 -0.0031791206 -0.001789376 0.1375439 0.031621937
21293750000 0.25401834 -0.147847 -0.00010180052 -3.0114204e-006 -0.0012542817 0.0010738239 -0.74751002 0.36144531
21315000000 0.26125085 -0.29172736 -9.3565861e-005 -7.7324148e-005 -0.0010196505 -0.0010037875 -0.090007134 0.55510157
21336250000 0.34418973 -0.25982895 8.715794e-005 -0.00010828202 -0.0030364913 0.0036290789 -0.25745136 -0.033349548
21357500000 0.19772302 -0.20742634 -0.0001891827 0.00020361092 0.006442816 0.0011045687 -0.6783393 0.28644624
21378750000 0.070543088 -0.2896857 7.2230308e-005 -6.1518716e-005 -0.0056551392 -0.0028752538 -0.37361035 0.34767324
21400000000 0.30156621 -0.23141383 1.8108862e-005 -3.8046634e-005 0.0063878549 0.00432648 -0.6189791 -0.10424271
21421250000 0.18237816 -0.084694304 9.5794501e-005 0.00010849917 -0.0050097317 -0.007154895 -0.74172837 0.10502468
21442500000 0.31130201 -0.21515375 -0.00019333731 -7.5999131e-005 9.7474811e-005 0.0059367646 -0.60625619 0.1512962
21463750000 0.3402988 -0.0098772459 -1.3638349e-005 7.9355945e-005 0.00032314143 -0.0030401477 -0.29223076 0.055140611
21485000000 0.045920219 -0.049382269 -0.00014022301 0.0002803595 -0.0030891111 0.0048803925 -0.62322736 -0.37754861
21506250000 0.1825287 -0.10682385 -0.00023268114 2.8752775e-005 0.0072028018 0.00069487374 -0.54104388 0.067542545
21527500000 0.048356336 0.078175984 5.0160031e-007 -9.4032184e-005 -0.0042016217 -0.0031596981 0.075932205 -0.24981745
21548750000 0.0094500147 -0.084227897 -7.0590409e-005 0.00026161541 0.0060239062 0.0033858928 -0.80359268 -0.53812951
21570000000 0.18975013 -0.086072795 1.8821029e-005 -0.00015632488 -0.0013680293 -0.0072210375 -0.18939255 0.08711452
21591250000 -0.019787217 -0.054153893 -3.3803295e-005 4.6904574e-005 -0.0031521968 0.0057448866 0.1445812 -0.37301245
