!Keysight Technologies,N5242B,MY47200105,A.14.00.23
!Date: Friday, May 10, 2024 10:51:41
!Correction: S11(C  2-Port  ) 
!S21(C  2-Port  ) 
!S12(C  2-Port  ) 
!S22(C  2-Port  ) 
!S2P File: Measurement: :
# Hz S  RI   R 50
18000000000 0.11959183 -0.019149449 -3.3548084e-005 -1.4167897e-005 0.00066159485 0.0050530438 0.88377303 -0.4160212
18021250000 0.057387847 -0.23485111 -5.5027009e-005 2.110051e-005 0.00014723228 0.0013446895 0.32202584 -0.18562502
18042500000 0.22185689 -0.069334313 1.6833617e-005 0.00014012065 0.004413289 0.002271313 0.50134927 -0.037428755
18063750000 0.1349543 0.0093462449 -1.1555638e-005 -9.8540891e-005 0.0030689784 -0.0020609787 0.42910144 -0.17846423
18085000000 0.21982859 -0.061767552 -0.00017764269 -1.713719e-005 0.0021835596 -0.0025805386 0.44334811 0.087311693
18106250000 0.33080408 0.0032927219 0.00011128021 -0.0001126413 -0.001311927 -0.0067893872 0.48143828 -0.090297982
18127500000 0.19004671 -0.074260466 8.8899884e-005 -3.6580754e-005 -0.0056666569 0.0030297991 0.57970214 -0.20089571
18148750000 0.18825701 -0.042784445 -2.1551477e-005 2.473074e-005 0.0023321267 -0.0030453855 0.30257043 -0.36211503
18170000000 0.28777978 0.092678502 -0.00013900005 -4.8657417e-005 -0.0056175478 0.0048323511 0.10278758 -0.096449383
18191250000 0.14553188 0.18544741 4.960283e-005 4.8744198e-005 0.0067325202 -0.001242648 0.29395598 -0.068118729
18212500000 0.25555792 0.083285928 -6.2314983e-005 5.8924747e-005 -0.003650554 -0.0014551147 0.11675207 -0.11117319
18233750000 0.13513456 0.14571577 1.580012e-005 -9.200865e-006 0.00340117 -0.00022648062 0.32867193 -0.15582792
18255000000 0.018899454 0.054151364 -6.1634302e-005 -7.7533587e-005 -0.0048840297 -0.0047017108 0.43241799 -0.51384735
18276250000 0.13900265 0.028176161 6.1052619e-005 0.00012110596 -0.0024484103 0.0038050371 0.1696489 -0.45371413
18297500000 0.054992661 0.16502397 -0.00014032569 2.1590242e-005 -0.002185449 -0.00029693011 0.080406636 -0.45466596
18318750000 0.062060039 0.13915181 0.00013858872 -8.2642713e-005 -0.00051450811 0.0062863203 0.12395716 -0.32911798
18340000000 0.092851676 0.099203117 0.00011531208 -9.4076286e-006 0.0028529286 -0.00062210078 0.14971407 -0.24032705
18361250000 -0.12033705 0.08222717 -7.6435106e-005 1.3058107e-005 0.0019346882 0.0041787745 0.35014328 -0.48106435
18382500000 -0.069065481 -0.024099307 -9.596185e-006 5.1559044e-005 0.0041142465 -0.0056510894 0.383984 -0.39905789
18403750000 -0.014226735 -0.011825428 1.6608845e-005 5.6642049e-005 -0.0041112178 0.0012305215 0.27617571 -0.6626004
18425000000 -0.025079519 0.023215525 -5.3337772e-006 -3.9820978e-005 0.0033368017 -0.00096065766 0.071467198 -0.56350702
18446250000 -0.0034588587 -0.11528352 -8.1722639e-005 8.5204054e-005 -0.0065037827 0.00081935257 0.49899238 -0.42004228
18467500000 0.005879892 -0.00029836447 -4.3476684e-005 -8.5111271e-005 0.007550484 0.0042203786 0.27712399 -0.54375112
18488750000 -0.19954096 -0.039856382 4.8079964e-005 -4.7042467e-005 -0.001684773 -0.0032671827 0.36884993 -0.40903029
18510000000 -0.091793478 -0.14070641 -0.00011733035 -3.6795358e-005 0.0060439566 0.0021039837 0.49188018 -0.55225885
18531250000 -0.03660601 -0.0089715812 8.2598286e-005 -1.3351005e-005 -0.00056985993 -0.0073057227 0.38745949 -0.5466795
18552500000 -0.023092834 -0.20290275 4.7600029e-006 7.2724106e-005 -0.0012671072 0.00016886611 0.28700656 -0.53859621
18573750000 0.087573461 -0.19151895 -5.2424137e-005 9.5629446e-005 -0.0017232612 -0.0039221807 0.16844659 -0.19724908
18595000000 0.088707581 -0.1040792 -5.581239e-005 -2.5828449e-005 -0.0045569567 0.0027099946 0.44409665 -0.11839578
18616250000 0.046009813 -0.15675114 -6.0782699e-005 3.1426562e-006 0.0017638374 -0.00090115255 0.39003778 -0.4677079
18637500000 0.15952872 -0.10123174 8.4108884e-005 -5.1577772e-005 -0.0040692911 0.0029305909 0.28036284 -0.1594343
18658750000 0.084102266 -0.078856975 -3.6876947e-005 0.00010594159 0.006454004 -0.00023360438 0.50112754 -0.4909153
18680000000 0.094120122 -0.19469985 -2.6622145e-005 -0.00011033089 -0.0051229806 -0.0034302615 -0.010308828 -0.42783174
18701250000 0.23248725 -0.092563853 -3.7388309e-005 5.2940337e-005 0.0015770792 0.0022260274 0.24851012 -0.10747676
18722500000 0.14272702 -0.058742151 -2.6245272e-005 -0.00010607111 -0.0041102413 -0.0033864144 0.19573918 -0.28037399
18743750000 0.23503187 -0.14140135 -1.5553036e-005 -1.1868561e-005 -0.0014516352 0.0060398886 0.17109291 -0.25859365
18765000000 0.21565931 0.088744789 0.00013977208 5.0377213e-005 -7.8820063e-005 -0.0001264498 0.18684749 -0.34852383
18786250000 0.11143081 -0.0087624947 1.601337e-005 8.0696846e-005 0.0015400427 0.0064848717 0.059213586 -0.32851157
18807500000 0.25332424 -0.077552006 -3.9201164e-005 0.00013903233 0.0047857561 -0.0031641279 0.0332046 -0.41905761
18828750000 0.12771966 -0.058633666 3.2702064e-005 7.325624e-005 -0.00051187509 0.0014687561 -0.022366177 -0.44644466
18850000000 0.1501404 -0.028619271 3.3660901e-006 -5.5742166e-005 0.003223673 -0.0045467005 0.1088588 -0.10299511
18871250000 0.22927624 0.13073072 -2.7193044e-005 7.7225908e-005 -0.0038635072 0.0033111083 0.12154248 -0.58253878
18892500000 0.14143205 0.26177451 4.4685341e-005 3.0103627e-005 0.0040714415 -0.00312638 0.044840999 -0.43041757
18913750000 0.13335146 0.065578014 -6.022173e-005 -2.7515178e-005 -0.0052813482 0.0031244427 0.18633166 -0.60904992
18935000000 0.081409156 0.012438395 3.9302817e-005 -0.0001099885 0.0083409073 0.0010581636 -0.078795761 -0.67060965
18956250000 -0.053116791 -0.0065181921 1.9326192e-006 0.00011767332 -0.0034902859 -0.0047976617 -0.017629681 -0.5089035
18977500000 0.0012217772 -0.045626 -1.9804871e-005 0.00017926455 0.0044146222 0.0025878642 0.12063466 -0.41026154
18998750000 0.037320182 0.19721402 -4.5412478e-005 7.6388758e-005 -0.0017606381 -0.0085202204 0.25466201 -0.53556037
19020000000 -0.036877617 0.15479305 4.1698979e-005 9.9453544e-005 -0.0042547267 0.0033709607 0.1265423 -0.60108358
19041250000 -0.12086987 -0.010706163 -0.0001314121 4.6424935e-005 0.0017120647 -0.0032977494 -0.0078335656 -0.49325788
19062500000 -0.15770502 0.062620804 -0.00013047758 8.3438601e-005 -0.0072134691 0.004282508 0.28828773 -0.62015891
19083750000 -0.12433513 -0.17622659 -9.2153678e-005 7.9133926e-005 0.0059410273 0.0012026142 -0.028910287 -0.61408913
19105000000 0.037891004 -0.017198849 -8.6367454e-006 6.3117193e-005 -0.0036086575 -0.00064728688 0.039045516 -0.23432696
19126250000 0.050956439 0.061669931 0.00017375259 -0.00011533623 0.002725801 0.00081182714 0.46969229 -0.57760692
19147500000 -0.072279595 -0.053854782 3.6611862e-005 -9.3058297e-005 -0.0015748392 -0.002110369 0.11434119 -0.60117137
19168750000 -0.16239996 -0.12445651 0.00018227361 -0.00011903259 -0.0014537912 0.0010955525 0.16184402 -0.4780193
19190000000 -0.19076505 -0.20893694 0.00010058269 0.00013381102 -0.002512753 0.00065797882 0.15563108 -0.47954991
19211250000 -0.13843673 -0.28946924 0.00024246832 5.9019701e-005 0.00086741976 0.0053055119 0.21579745 -0.45827615
19232500000 0.14428669 -0.15082012 -5.8269179e-006 -0.00012715535 0.0013449811 -0.0015659841 -0.092300057 -0.33186448
19253750000 0.013901057 -0.1338564 -0.00012259929 0.00011855584 0.0016206589 0.0056054359 0.33250526 -0.27462441
19275000000 0.049828697 -0.22513847 -2.0557552e-005 5.7590805e-005 0.0045725475 -0.005790899 0.19255374 -0.52663958
19296250000 -0.0026311856 -0.16602655 -5.5804179e-005 -6.6205743e-005 -0.0027786396 0.0020024888 0.038288243 -0.39266673
19317500000 -0.13908964 -0.25073048 -6.8007248e-005 3.6292367e-005 0.0032079259 -0.0037350452 0.20799457 -0.35222799
19338750000 0.20775472 -0.29127824 6.8350353e-005 -7.4304036e-005 -0.0041129892 0.00091497618 -0.11263359 -0.52096701
19360000000 0.20938042 -0.22292088 9.2261645e-005 -3.4490487e-005 0.0025499244 0.00028708458 -0.10669596 -0.20009099
19381250000 0.18406732 -0.25048125 7.5186472e-005 -4.1992356e-005 -0.0020183998 0.0003733779 0.15996431 -0.29495397
19402500000 0.18766797 -0.14741988 4.4551794e-005 -6.3869986e-005 0.0051012966 0.0010488754 -0.048731204 -0.36700851
19423750000 0.025538201 -0.16098191 -0.00012147042 -6.1068597e-005 -0.0020646646 -0.0049810112 0.048660606 -0.47702116
19445000000 0.10269902 -0.13777998 3.3612228e-005 8.1653507e-006 0.0019472124 0.0011352854 -0.22637776 -0.35506117
19466250000 0.27607387 -0.11491518 -2.5071392e-006 -9.4526215e-005 -0.0041240756 -0.005332659 -0.071488298 -0.36483675
19487500000 0.20402324 -0.051777046 2.442615e-005 3.4628047e-005 -0.0020288059 0.0032463304 -0.27534333 -0.47185066
19508750000 0.21649417 -0.15786043 6.0680057e-005 6.6073057e-006 -0.00071959023 -0.0020968809 -0.19261938 -0.091318399
19530000000 0.12206158 0.042322595 -2.0398747e-005 2.0775797e-005 -0.0039612469 0.0055187279 0.113221 -0.42776987
19551250000 0.039025571 0.014970444 -7.3784213e-005 -5.0826216e-005 0.006886634 -0.0015001683 -0.44595367 -0.72825092
19572500000 0.21390246 0.0051702871 7.3506089e-005 -0.00010656425 -0.0059099011 0.0012179671 -0.18792696 -0.24459743
19593750000 0.16597277 0.12699994 -0.00017087167 -0.00015171758 0.0063138311 -0.0011049304 -0.18388112 -0.61997122
19615000000 0.097937576 -0.0029668547 6.4966145e-005 -9.8248682e-005 -0.00622724 -0.001923303 -0.33052799 -0.41901192
19636250000 0.097242661 0.043720398 4.2747084e-005 -3.5066532e-005 0.002071765 0.0039662039 -0.13743001 -0.36980161
19657500000 -0.12492201 0.091162071 0.00017771161 -3.2914773e-005 -0.0034718104 -0.0024855831 -0.16906078 -0.40480116
19678750000 -0.0035735494 0.026091402 0.00014594247 -6.2105348e-005 0.0016346599 0.0092810495 -0.07074295 -0.74719322
19700000000 -0.013129064 0.082695283 -7.039812e-005 3.0928286e-006 0.0043252059 -0.0058504832 -0.37647358 -0.49537459
19721250000 0.0034842426 0.053555243 -0.00010449225 -2.2141512e-005 -0.00063664024 0.0046981382 -0.070187606 -0.32815227
19742500000 -0.1582118 -0.052036379 3.3601722e-005 -7.1108829e-005 0.0045884084 -0.005202706 -0.14488165 -0.68875235
19763750000 -0.18156146 0.0050002052 -0.00017329995 7.2121496e-005 -0.0045467503 0.00020427685 -0.28007233 -0.3380776
19785000000 -0.2145106 0.070893325 -2.1692442e-005 -7.6160955e-005 0.0037760744 -0.0013401774 0.2141892 -0.28699899
19806250000 -0.063357115 -0.084978051 1.7155277e-005 1.4191505e-005 -0.0055966526 -0.0010513305 0.018166555 -0.81372148
19827500000 -0.063282408 0.00093316124 -4.0249e-005 -4.6633002e-005 0.0050111292 0.0041943588 -0.059537511 -0.36106643
19848750000 -0.2150542 -0.13406324 -4.28975e-005 -6.7403897e-005 -0.0014248264 -0.0043578022 0.058362223 -0.40558976
19870000000 -0.14668818 -0.12450987 -0.00014971924 6.5749875e-005 0.0024391257 0.0023698381 -0.020670637 -0.41485587
19891250000 -0.24941766 -0.16120034 9.4678762e-005 6.6184773e-005 -0.00061069394 -0.0047870353 0.12400412 -0.30143222
19912500000 -0.070278317 -0.29583639 -0.00021368475 0.00023139277 -0.001478761 -0.00057434925 0.10067842 -0.019609559
19933750000 0.021864215 -0.13162251 0.00020392312 0.00018773619 -0.0021680528 -0.0025200348 0.24915607 -0.49023148
19955000000 -0.053981181 -0.2107511 -0.00012792127 0.00013716935 -0.0043835575 0.0039546341 -0.31281888 -0.3762362
19976250000 -0.1454438 -0.23473234 -0.00014537675 0.00018075899 0.0034530642 -0.0014088443 0.049813084 0.0096167466
19997500000 -0.18569775 -0.2321116 4.922074e-005 0.0001000262 -0.0043826466 0.0047870777 0.028415332 -0.16635101
20018750000 -0.050898761 -0.25114337 8.3801759e-005 -0.00012078715 0.0069057266 -0.0025433721 -0.13899648 -0.0252863
20040000000 0.17019047 -0.29857138 0.00011419495 -7.8117964e-006 -0.0054964977 0.00030762528 0.040162377 0.20305544
20061250000 0.32714403 -0.081010953 6.9456248e-005 -0.00014025209 0.0042929631 -0.000147934 0.026322823 -0.27199113
20082500000 0.094361976 -0.046481185 3.2712527e-005 0.00014659215 -0.0065309871 -0.0031501406 -0.33045027 -0.2342024
20103750000 0.11969544 0.010094783 6.3704516e-005 5.7505389e-005 0.0019769382 0.0085043423 -0.3203308 -0.10071322
20125000000 -0.16333036 0.043469701 4.2345913e-005 -6.158121e-005 0.00091282342 -0.005363354 -0.32432094 0.090924844
20146250000 0.038878191 -0.17285381 -5.8691967e-005 0.00010016742 -0.0001569739 0.0077561229 -0.2637063 -0.29671124
20167500000 0.26456505 -0.073932968 -3.3602781e-005 -4.2980781e-005 0.0063392683 -0.0045498465 -0.77680117 -0.15769023
20188750000 0.22264083 0.0080425087 6.3662246e-006 8.6178472e-005 -0.00092382851 0.0019050662 -0.0074913413 -0.12050856
20210000000 0.21452361 0.091446154 0.00023091506 0.00018938736 0.0033255096 -0.0048252228 -0.55709791 -0.81920123
20231250000 -0.032069586 0.32619888 -8.2703227e-005 -0.00024945568 -0.005110675 0.00093939458 -0.71939582 -0.13971163
20252500000 -0.15986155 0.17145234 -2.1396532e-005 8.5587031e-005 0.0035262774 -0.00010030642 -0.43287984 -0.41753277
20273750000 0.014546387 0.13563591 -0.0001296507 -0.00019347246 -0.0045116143 -0.00030580373 -0.37298831 -0.36580017
20295000000 0.097774342 0.20347351 5.7064648e-005 9.544591e-005 0.0049520964 0.0039465469 -0.45698515 -0.46571669
20316250000 0.051787265 0.1804471 -8.2630359e-005 3.5820769e-005 -0.0010162871 -0.004570174 -0.17865258 -0.52968127
20337500000 -0.1314642 0.23259988 -0.00019180181 -8.2029746e-006 0.00090020633 0.0016088462 -0.077518739 -0.78788334
20358750000 -0.31114537 0.3511222 7.4578944e-005 2.5377327e-005 -0.00060601649 -0.0060852976 -0.60337287 -0.65594059
20380000000 -0.31653842 0.093322434 -8.6155587e-006 -0.00010126309 -0.0034275413 0.0032667478 -0.31525856 -0.33744454
20401250000 -0.11820534 0.08553692 -4.1985848e-005 8.6347864e-005 7.3272458e-005 -0.0027641051 0.26747692 -0.66480112
20422500000 -0.1893205 0.036716003 -0.00029201241 -0.00016171562 -0.0040458064 0.0046948716 -0.21969076 -0.61869866
20443750000 -0.10909614 0.037839442 -4.6173449e-005 0.00016997213 0.0040837801 -0.00082253193 0.12816279 -0.19372223
20465000000 -0.25938928 0.22942439 -2.1821323e-005 -8.5344218e-005 -0.0023569225 0.0014991234 0.36690059 -0.82977146
20486250000 -0.35686722 0.089130893 -0.00016136935 -0.0001721063 0.0041450155 -0.0013221421 -0.32907221 -0.33917826
20507500000 -0.15620287 -0.0016279524 7.3483825e-005 -2.9655172e-005 -0.0051273392 -0.0010917399 0.21022613 -0.12649304
20528750000 -0.11032739 -0.11224016 -0.0001354191 0.00018657644 0.0043285489 0.0028855496 0.21443856 -0.18311684
20550000000 -0.076419793 -0.29016864 -4.2372434e-005 6.9209345e-006 -0.0062550078 -0.0041520628 0.17968097 -0.087855116
20571250000 -0.13003327 -0.13539317 5.503658e-005 -3.2251181e-005 0.0028951147 0.0098837363 -0.023897894 0.022423603
20592500000 -0.12436833 -0.079367064 -2.3078943e-005 -0.00011919504 0.001973208 -0.0068953559 0.3667649 0.19825137
20613750000 -0.09925542 -0.15811948 -0.00011902759 9.4959134e-005 -0.0014271969 0.0083127553 -0.23806345 -0.19770263
20635000000 0.27032274 -0.26176044 0.00013811993 3.3744847e-005 0.0076180203 -0.0086216917 -0.38519213 0.55444443
20656250000 0.090994775 -0.26051581 -2.1493688e-006 -8.3124512e-005 -0.0058028814 0.0018714996 0.25074068 0.44348699
20677500000 0.16726457 -0.34637514 -0.00024607187 9.073269e-005 0.005654641 -0.0032789642 -0.27658746 0.0078087188
20698750000 0.21711808 -0.079317391 4.5786837e-005 -9.4178788e-005 -0.0076584117 0.00033392225 -0.51585007 0.47379297
20720000000 0.087474324 -0.14628379 8.2318838e-006 0.0001602479 0.0052101011 0.0026747282 -0.26101878 0.30014274
20741250000 0.33337688 -0.09868411 0.00018901992 3.7214737e-005 -0.0037618969 -0.0028886185 -0.74397498 0.23334867
20762500000 0.34004718 -0.051887643 0.00014113485 0.00021054099 0.0050600907 0.0040736296 -0.66850263 0.30468148
20783750000 0.22344422 -0.08554028 8.3551595e-006 0.00011507538 -0.0022663362 -0.0058057252 -0.44396701 0.36445001
20805000000 0.37777486 0.050226163 -7.2349685e-005 0.00014321179 0.0018960799 0.0029577012 -0.40187597 -0.050267659
20826250000 0.24201405 0.21847017 0.00017921517 0.00019573679 -0.0026751668 -0.0070310663 -0.89553571 -0.18467285
20847500000 0.21284741 0.080779262 -9.0481968e-005 0.00017139703 -0.0039092158 0.0060615004 -0.57812649 0.0032002209
20868750000 0.2830694 0.1107998 -0.00015056392 3.326184e-005 0.002301092 -0.0037983258 -0.42666087 -0.69480175
20890000000 0.17842051 0.14291395 -0.00018147605 0.00012294781 -0.0053858776 0.0058458103 -1.0569617 -0.30825344
20911250000 0.21894529 0.080276437 -3.9794792e-005 5.3246131e-005 0.0079330318 -0.0013738489 -0.39803618 -0.16383255
20932500000 0.18933927 0.26491365 -0.00017502732 -0.00014208905 -0.0069571426 -0.00064545521 -0.50083959 -0.72439468
20953750000 -0.052947778 0.34707052 -0.00018513791 0.00010713422 0.007540945 0.0020390244 -0.47878912 -0.61046183
20975000000 0.1960651 0.030958332 5.508482e-005 8.8253807e-007 -0.0062553007 -0.0050956025 -0.25676638 -0.54037672
20996250000 0.093174703 0.087558493 0.00014188874 9.666173e-005 0.0017505958 0.0068760193 -0.20561369 -0.54974747
21017500000 -0.10232726 -0.024635103 2.8545848e-005 0.0001724577 -0.0013368523 -0.004633998 -0.20333999 -0.72771937
21038750000 -0.044566292 0.063352495 -2.6137352e-006 1.9913563e-005 0.00043196627 0.0091255493 -0.2426617 0.16922645
21060000000 -0.22499208 0.19423999 -0.00011528644 9.1868591e-005 0.0056213681 -0.005810644 0.54885477 -0.34642506
21081250000 -0.19613001 -0.0012228276 -1.6271535e-005 0.0001535679 -0.0023506549 0.0053169564 0.031047545 -0.63244534
21102500000 -0.062694445 -0.073737256 -5.5991339e-005 4.0190029e-005 0.0065549198 -0.006930673 0.08730194 -0.016162241
21123750000 -0.10365956 -0.14119907 8.9688641e-005 -7.4060052e-005 -0.007693768 0.00066886266 0.41638455 -0.30370277
21145000000 -0.076878212 -0.33765432 0.0001787503 8.6555476e-005 0.0060212384 0.00022883757 -0.09114293 -0.41114771
21166250000 0.025787612 -0.12458562 5.109216e-005 0.00015899491 -0.0069738412 -0.0018126743 0.1084979 0.33426636
21187500000 -0.028801128 -0.14542896 2.4135779e-005 -0.00012892336 0.0053200019 0.0050614211 0.091732338 0.073228396
21208750000 0.028327718 -0.38012612 5.9517995e-005 -4.8619604e-005 -0.0028367026 -0.0042944485 0.15300089 0.043647259
21230000000 0.045637731 -0.2345607 6.0448321e-005 4.8113179e-005 0.0053126924 0.0037364897 -0.11474514 0.025857683
21251250000 -0.15732275 -0.45554107 0.00023558956 -5.4754149e-005 -0.0028354919 -0.0083219623 0.019236514 0.5109539
21272500000 0.13969167 -0.37383261 -2.2827448e-005 -5.9479527e-005 -0.0013136677 0.0053086076 0.16764987 -0.0032748382
21293750000 0.24916497 -0.15997678 -0.00018406525 7.5844851e-005 -0.00039736531 -0.0067649395 -0.68075311 0.36311233
21315000000 0.26383027 -0.2994225 1.1861991e-005 9.4970674e-005 -0.0057671941 0.0065137958 -0.045257397 0.52087045
21336250000 0.34420511 -0.30375513 6.0402803e-005 -5.4909804e-005 0.0052789371 -0.0017898657 -0.22419752 -0.03032691
21357500000 0.2280813 -0.2587629 9.1675771e-005 -0.00018060127 -0.0044160811 0.0034645572 -0.63052875 0.29155719
21378750000 0.07147371 -0.33633086 0.00011033709 0.00011811179 0.0060785394 -0.0005334189 -0.35158366 0.36801025
21400000000 0.30669308 -0.29578638 -5.5477885e-005 -0.00012723533 -0.0050393757 -0.0017466126 -0.57836407 -0.056763295
21421250000 0.21730214 -0.12953067 -0.00011386738 -0.00024709146 0.0045987424 0.0027410614 -0.71950406 0.14564721
21442500000 0.33349818 -0.2682755 5.1368415e-006 -8.5318468e-005 -0.0051751677 -0.004888867 -0.58332634 0.20901471
21463750000 0.37654772 -0.075783648 -7.6011012e-005 5.638877e-005 0.0020695252 0.0080566034 -0.28225133 0.085212186
21485000000 0.083677284 -0.076154098 -1.9402172e-005 5.3715112e-006 4.2765853e-007 -0.0052707368 -0.64900357 -0.30709004
21506250000 0.19743034 -0.12986737 3.1234526e-005 0.00034212624 0.0019482048 0.0066931443 -0.52399766 0.10192074
21527500000 0.095003188 0.063036472 -9.2021044e-005 -0.00011264224 0.0042395722 -0.006042345 0.039611205 -0.23845546
21548750000 0.058069494 -0.07508184 -0.00024909759 0.00012782372 -0.0026297958 0.0037311737 -0.83854884 -0.49450302
21570000000 0.22561646 -0.092357531 1.0814804e-005 -0.00013072231 0.0052869534 -0.0058351019 -0.21960129 0.085523263
