!Keysight Technologies,N5242B,MY47200105,A.14.00.23
!Date: Friday, May 10, 2024 11:16:09
!Correction: S11(C  2-Port  ) 
!S21(C  2-Port  ) 
!S12(C  2-Port  ) 
!S22(C  2-Port  ) 
!S2P File: Measurement: :
# Hz S  RI   R 50
18000000000 0.14112195 -0.031160617 -2.9345712e-005 9.5977222e-005 -0.0017366539 0.0040811705 0.87456405 -0.42178297
18021250000 0.079359084 -0.18547836 -1.8997098e-005 9.5336974e-005 0.0017289927 0.0028405956 0.32057899 -0.19500311
18042500000 0.22885931 -0.10091294 -0.00010477175 1.7005705e-005 0.0027885775 0.00077213626 0.49732521 -0.05430229
18063750000 0.15889303 0.012383439 0.00014633685 -7.3890224e-005 0.0042410702 0.0014272289 0.40885556 -0.19111104
18085000000 0.19485354 -0.044495448 2.0229381e-005 -1.7404145e-005 0.0027850349 -0.0068649109 0.42517969 0.090487801
18106250000 0.31728578 -0.0081593031 -1.3367466e-005 -5.1256411e-006 -0.001811001 -0.0006822939 0.47930616 -0.091285013
18127500000 0.21250322 -0.0252221 9.2430644e-005 -0.00017836202 -0.002219334 -0.0031716377 0.56625766 -0.20847891
18148750000 0.20736651 -0.039421208 -3.6111505e-005 0.00011935407 -0.0018653673 0.0020474051 0.30373779 -0.36611909
18170000000 0.29385692 0.071285404 -7.3235926e-005 0.00017330013 -0.00021739022 0.0020593337 0.098247916 -0.12731241
18191250000 0.15519314 0.18412162 7.7136705e-005 -8.5852313e-005 0.0020839435 -0.0010235547 0.27228433 -0.090653867
18212500000 0.21912995 0.071542569 0.00010285225 -7.4420859e-005 0.00023166533 0.0003094679 0.099451646 -0.12613449
18233750000 0.16520566 0.14020392 4.8160193e-005 -1.1579282e-005 0.0012009062 -0.0031453769 0.32437864 -0.15490369
18255000000 0.041665077 0.072325766 -4.3726563e-005 -8.3797175e-005 -0.0037181317 -0.0022894109 0.42919484 -0.5427202
18276250000 0.13990201 0.007784029 -4.759842e-005 -3.5392128e-005 -0.0028890509 0.0013609071 0.15181902 -0.46529004
18297500000 0.071433358 0.13786282 8.8401903e-005 -6.9094815e-005 -0.0018333674 0.0010095902 0.078027882 -0.46448922
18318750000 0.0066924044 0.12281538 -7.7920522e-005 -3.079544e-005 -0.0017151232 0.0042927754 0.1161295 -0.34588388
18340000000 0.052507482 0.087980725 -3.8771232e-005 -2.2269898e-005 0.0032085089 0.002595007 0.1415842 -0.24713722
18361250000 -0.10833848 0.11051613 9.2816088e-005 -8.8600774e-007 0.0013241136 -0.00041919091 0.36231336 -0.47573301
18382500000 -0.079812661 -0.01967182 -0.0001023064 5.3005791e-005 0.0026572794 0.00012165259 0.39824209 -0.41433024
18403750000 0.01100672 -0.028803797 0.0001668527 -1.9728859e-005 -0.00065629237 -0.003448274 0.28291199 -0.67486745
18425000000 -0.03350715 0.0018326977 3.3457582e-005 -4.238094e-005 -0.0020209744 0.0021353874 0.074338436 -0.56335789
18446250000 -0.037515443 -0.11967397 -5.5248329e-005 -7.1705705e-005 -0.00020359753 -0.00026249979 0.50018382 -0.42356598
18467500000 0.018706331 -0.0023861157 9.1027752e-005 -0.00014626414 0.0011217466 0.0039614653 0.26500726 -0.54716325
18488750000 -0.17745261 -0.030199502 0.0001259666 6.4303342e-005 0.0034825841 -0.00077615457 0.35767537 -0.3881551
18510000000 -0.082623094 -0.15161356 0.00012843883 -1.6499978e-005 0.0020187653 -0.00087789947 0.50697559 -0.54170877
18531250000 -0.02882129 -0.01643886 7.1803064e-005 -1.1697278e-005 0.002341249 -0.0028903864 0.37651789 -0.54338801
18552500000 -0.060450926 -0.19209026 5.918746e-005 -6.919758e-005 -0.0016577017 -0.004544822 0.28448394 -0.52804285
18573750000 0.081313565 -0.18762061 -3.4252676e-005 4.0745872e-005 -0.0023525176 0.0011339287 0.1589756 -0.19846271
18595000000 0.087493561 -0.069144741 -6.1818952e-005 1.0936017e-005 -0.00099839154 -0.0028551624 0.42963162 -0.11538976
18616250000 0.046697263 -0.1387953 2.3339397e-005 3.2161235e-005 -0.0024579931 0.002899304 0.37724748 -0.46300113
18637500000 0.17312407 -0.10166502 -0.00014104003 5.6116758e-005 0.0014231276 0.0002939472 0.26425093 -0.16425446
18658750000 0.079407439 -0.064216673 0.00011269886 1.1902569e-005 0.00030120483 -0.00014281063 0.48701575 -0.49373499
18680000000 0.085200913 -0.20236942 0.0001162586 0.00010348319 0.00065234746 -0.0015310894 -0.033146594 -0.44755378
18701250000 0.23848532 -0.090286508 3.6122041e-005 5.9028283e-005 -0.002384326 -0.0025891406 0.22373497 -0.11264291
18722500000 0.14042111 -0.053584673 0.00012019811 -3.9103175e-005 -0.0027599512 0.0016354172 0.16713627 -0.29835215
18743750000 0.22544125 -0.15082705 5.454896e-005 -8.787775e-005 -0.0015627642 0.00096510281 0.15167575 -0.25378826
18765000000 0.21349354 0.081161454 -9.7874818e-006 4.5391589e-005 -0.0012266528 0.0029766851 0.18694985 -0.3570722
18786250000 0.078983903 -0.015483765 -1.1908174e-005 1.5919393e-005 0.0018649604 0.0042537176 0.054897234 -0.34803319
18807500000 0.2288606 -0.09266343 8.0048696e-005 2.1300013e-005 0.0043256022 -0.00077269413 0.032300275 -0.43402386
18828750000 0.13303201 -0.044567551 -4.8479022e-005 -2.8540713e-005 -0.0010256055 -0.00092315394 -0.02239899 -0.4634054
18850000000 0.14662866 -0.052656371 2.4526411e-005 2.0215366e-005 0.0031988467 -0.00019310806 0.1028746 -0.12605003
18871250000 0.23714495 0.089419775 -6.2795771e-005 -8.7389672e-005 -0.0027560086 -0.0017035624 0.1261756 -0.59073019
18892500000 0.13392191 0.23416823 0.000139203 -3.6099129e-005 0.00043410336 0.0019550787 0.050361447 -0.43365574
18913750000 0.1044774 0.026065771 -0.0001224235 -5.8496378e-005 0.00078391703 0.00033755391 0.2047518 -0.61204451
18935000000 0.082492158 0.0018945943 -1.0076535e-005 0.00010856112 0.0016010527 0.00074119749 -0.067888685 -0.68137401
18956250000 -0.0395886 -0.0059713693 -0.00012130072 -0.00013091143 0.0023217406 -0.000235079 -0.012314886 -0.50387543
18977500000 0.027643107 -0.068257108 9.6609612e-005 -0.00012999318 0.00211095 -0.0042242175 0.1302177 -0.41863811
18998750000 0.07419835 0.16962272 1.1891809e-005 -9.8561228e-005 -0.0027081051 -0.0012846485 0.24903814 -0.52851868
19020000000 -0.045799531 0.13206483 0.00010763472 -2.6964166e-005 0.00020760072 -0.0029686086 0.13477586 -0.59390408
19041250000 -0.10102098 0.0017619196 -7.7500634e-005 -1.5479063e-005 -0.0040195277 -0.00017637164 -0.0015574842 -0.48952481
19062500000 -0.10189702 0.074318781 -2.4892763e-005 6.2623702e-005 -0.0011795136 0.0028622728 0.28231192 -0.61470264
19083750000 -0.078399003 -0.18012729 -1.1001935e-005 -2.7211074e-005 0.001127761 -0.00052161247 -0.040713012 -0.60607725
19105000000 0.08823213 -0.056841537 5.5728153e-005 -4.7989863e-005 -0.00091133575 0.0021809139 0.021405855 -0.22454837
19126250000 0.059461266 0.053080861 4.1666113e-005 1.8785177e-005 0.0019349505 -0.0023628643 0.45222637 -0.54582167
19147500000 -0.060543329 -0.046125565 1.9149975e-005 1.7902956e-005 -0.0018489104 4.7472789e-005 0.10574956 -0.58166063
19168750000 -0.11847451 -0.10402218 -1.0246524e-007 -9.7333519e-005 -0.0015336438 -0.00060530746 0.15841872 -0.46658102
19190000000 -0.16687834 -0.19067226 -5.7081939e-005 -5.2744217e-005 -0.002223233 0.0016757447 0.13556394 -0.48406732
19211250000 -0.11008507 -0.29557684 3.54923e-005 -5.2899781e-005 -0.00050690811 0.0031144661 0.19251534 -0.44981033
19232500000 0.13580464 -0.15723921 8.1686463e-005 2.9275552e-005 0.001767644 0.0018697589 -0.097932316 -0.33849242
19253750000 -0.011304162 -0.10796102 0.00019514364 7.7588251e-005 0.0014276182 0.0017628064 0.30205524 -0.27630693
19275000000 0.044008851 -0.19400214 3.8972979e-005 7.7125107e-005 0.0037126546 -0.00099674682 0.18161355 -0.52352148
19296250000 -0.003035953 -0.13075373 5.9168644e-005 3.9261813e-005 -0.00024837276 -0.0014030831 0.025528533 -0.39793408
19317500000 -0.13452746 -0.23049898 3.9244565e-005 6.4384571e-005 -3.7799746e-005 -0.00096417451 0.20157979 -0.36446649
19338750000 0.19383407 -0.29601097 -9.4728988e-005 4.30867e-005 -9.3429808e-005 0.0001384916 -0.12962982 -0.53495198
19360000000 0.17908439 -0.20786734 -4.0754639e-005 7.9261918e-005 -0.0010406226 0.0005028263 -0.1081445 -0.20141667
19381250000 0.15982187 -0.23413807 2.8860963e-005 -0.00021047838 0.0018898414 0.0012465384 0.15831099 -0.31028706
19402500000 0.2004382 -0.13869499 5.4961649e-005 -9.7702206e-005 0.0012074921 -0.00037441088 -0.052592762 -0.37245569
19423750000 0.026126821 -0.15916619 -6.5949374e-005 0.00010969759 0.0023329812 -0.0024013054 0.058652263 -0.47194886
19445000000 0.092549086 -0.16485046 -1.2699381e-005 2.1716465e-005 -0.00045509762 -0.003239962 -0.21392366 -0.37066379
19466250000 0.26478592 -0.11248275 9.2138725e-005 1.6619062e-005 -0.0025199312 -0.00054206169 -0.076774195 -0.36742088
19487500000 0.19427124 -0.061790049 -2.1270294e-005 2.013099e-005 -0.00034293081 -0.0022342277 -0.27248552 -0.47316515
19508750000 0.22879966 -0.16681391 -1.3588949e-005 -4.9419337e-005 -0.005037643 0.0020675668 -0.19652545 -0.086328313
19530000000 0.15186091 0.031625118 4.8042475e-005 -9.3710267e-005 0.001550951 0.0021251389 0.11798179 -0.4174825
19551250000 0.05511013 -0.024233095 -0.0001562324 -0.00013696043 0.00064524281 -0.0005316381 -0.43673375 -0.72232527
19572500000 0.22375937 -0.037912976 9.2266797e-005 -0.00010972903 -0.0011108824 0.0018712383 -0.18294537 -0.23149227
19593750000 0.16080324 0.097969532 -0.0002290977 -9.5134987e-005 0.0030873453 -0.0032903431 -0.17536925 -0.6270262
19615000000 0.082477532 -0.022294179 2.3644829e-005 0.00010855207 -0.0053355545 0.0006824517 -0.34397453 -0.41022402
19636250000 0.11095414 0.053356491 0.00025758697 0.00016736501 0.0016260395 0.0014763369 -0.12665007 -0.36433399
19657500000 -0.098531522 0.10437847 -1.1250208e-005 0.00014890412 -0.0030464085 -0.00084116857 -0.17869271 -0.41391757
19678750000 0.0036410186 0.0069707618 -4.2956046e-005 1.9419236e-005 -5.4936958e-005 0.007331003 -0.075879753 -0.74012268
19700000000 -0.005677836 0.091548152 2.1876998e-005 -0.00011565594 0.0053933151 -0.0020002897 -0.37636906 -0.50521922
19721250000 -0.019994024 0.060893003 3.0035001e-006 -0.00019697804 -0.00087257213 0.0010631275 -0.082535341 -0.33601603
19742500000 -0.13837956 -0.0401127 4.0325518e-005 -3.7216032e-005 0.0032542208 -0.00083011744 -0.14615189 -0.69373298
19763750000 -0.16974413 0.025714006 -4.6955232e-005 -6.0275229e-006 -0.00057128107 -0.0028183484 -0.28807509 -0.342067
19785000000 -0.21808727 0.060739655 -2.806689e-005 0.00010336997 -0.00089517527 0.0011021374 0.21728741 -0.29246548
19806250000 -0.075471461 -0.077127956 -4.7332742e-005 -1.0433823e-006 -0.00035554497 -0.0011797793 0.013550486 -0.81607294
19827500000 -0.095869265 0.024808209 -0.00015223748 -1.0000858e-005 0.00065977138 0.0031068656 -0.055321958 -0.35841796
19848750000 -0.21658655 -0.12352479 -7.8884434e-005 -0.00016220058 0.0016963563 -0.0013009937 0.060079154 -0.41370133
19870000000 -0.12881139 -0.12757607 -6.5338842e-005 0.00018281945 0.0014617424 -0.00083969499 -0.024591964 -0.41052526
19891250000 -0.25464809 -0.17454061 -2.1527962e-005 -0.00017913044 1.0260851e-006 -0.0016953519 0.1353371 -0.28725088
19912500000 -0.10125262 -0.3261708 -4.6061301e-005 4.1079908e-005 -0.0003767593 -0.003621412 0.11442415 -0.016346503
19933750000 -0.0091884015 -0.14726719 8.9395951e-005 -0.0002211885 -0.0033586021 0.00011768592 0.26461631 -0.47692695
19955000000 -0.11054645 -0.21600886 -3.4100321e-005 -3.8578062e-005 -0.0021469195 7.7114819e-006 -0.29740307 -0.36132485
19976250000 -0.15714715 -0.24512662 0.00018201882 -6.6970075e-005 -7.2528805e-005 0.0026673756 0.056495938 0.028788889
19997500000 -0.18360879 -0.22632854 -0.00010819076 0.00012705429 0.0003196726 0.00087861909 0.033238098 -0.1559101
20018750000 -0.06701085 -0.28006384 -8.6756603e-007 -0.00012391452 0.0012807973 -0.00059616991 -0.1509451 -0.0039710058
20040000000 0.16625252 -0.31187513 6.5939389e-006 0.00012552545 2.0484051e-005 0.0014815741 0.042510096 0.2309117
20061250000 0.30842423 -0.079023451 2.4082103e-005 -7.0853697e-005 0.00050387857 -0.0047385297 0.014454228 -0.26405591
20082500000 0.10776348 -0.054777827 1.4362106e-005 -0.00013333741 -0.0051618535 0.0037042394 -0.34890869 -0.20573314
20103750000 0.14844596 0.0090618981 4.1109204e-005 -7.6032607e-005 0.0020991464 0.0013400335 -0.33823404 -0.090671048
20125000000 -0.13071509 0.053580374 5.8389355e-006 0.00013757061 -0.0018146412 0.00087089167 -0.35366839 0.10540741
20146250000 0.059100356 -0.18045652 -4.9927585e-005 -2.5776859e-005 0.0024602939 0.0040499638 -0.28959846 -0.28100353
20167500000 0.28737283 -0.073355444 1.5133836e-005 0.00019730211 0.0029515794 -0.0024518357 -0.795515 -0.15921937
20188750000 0.21650654 0.01362146 -4.7832738e-005 2.9684017e-005 0.00092650234 0.0015349325 -0.040144395 -0.12035426
20210000000 0.22903097 0.10533492 -2.8178873e-005 -0.0002075471 0.0022843424 -0.0040333173 -0.57250023 -0.84108382
20231250000 0.026452444 0.36858884 -3.8764787e-007 -5.8042413e-005 -0.0029080345 -0.00037864418 -0.75349063 -0.15328529
20252500000 -0.12251402 0.18477429 7.9353878e-005 5.9333311e-006 0.00054982281 0.001269655 -0.44636944 -0.43429479
20273750000 0.041814215 0.12090266 -0.00011284681 2.7082822e-005 -0.00042582702 -0.001019395 -0.40059426 -0.37898809
20295000000 0.088080712 0.21343985 -0.00015562279 -7.6336539e-005 0.00064088713 0.0023099459 -0.44213131 -0.47249794
20316250000 0.033721451 0.1825377 0.00013353849 1.433095e-006 0.0033707255 -0.00059825642 -0.17611566 -0.55928731
20337500000 -0.11301038 0.25241652 -6.4509637e-005 4.3021548e-005 0.00025224098 -0.0044665853 -0.065807551 -0.79851604
20358750000 -0.31536737 0.36304283 9.8830773e-005 -3.6568257e-005 -0.00158427 0.00032850684 -0.56874973 -0.69067132
20380000000 -0.33755192 0.089434646 5.6400942e-005 -0.00018582307 0.00018114503 -0.0028585214 -0.30433097 -0.36023319
20401250000 -0.15693642 0.088950746 0.00012995444 -2.5420333e-005 -0.005108376 -1.1257684e-005 0.29544726 -0.67253399
20422500000 -0.2447975 0.054919906 2.3694192e-006 2.4750578e-005 0.0010940675 0.0034806849 -0.19273509 -0.62873209
20443750000 -0.13676119 0.035491876 -0.00014945786 -0.0001003355 -0.0011889078 -0.0011511674 0.15798937 -0.19770269
20465000000 -0.26724312 0.22362398 7.5738346e-005 -3.7703066e-005 0.0012197421 0.0043781442 0.39113963 -0.82067668
20486250000 -0.39064375 0.06879279 5.7325295e-005 -6.0159877e-005 0.0013858726 -0.0049981107 -0.30779549 -0.32290643
20507500000 -0.18872976 -0.029531788 5.7432131e-005 2.6527958e-005 -0.0033243147 0.0020435296 0.23206876 -0.099928953
20528750000 -0.14678204 -0.10964137 8.6452506e-005 -9.7695091e-005 0.0025154676 -0.00054160261 0.21951976 -0.15446377
20550000000 -0.098387055 -0.29290405 -5.7023077e-005 -0.00018412735 -0.0051204064 -0.00059135066 0.20074749 -0.045145247
20571250000 -0.093278497 -0.15155028 0.00013026541 -6.9593094e-005 0.002597475 0.0061243796 -0.010377654 0.050276894
20592500000 -0.11817352 -0.096900515 -0.00011485041 0.00012035301 0.00074029661 -0.0024131101 0.36208987 0.2270074
20613750000 -0.092027761 -0.18471645 -3.7248592e-005 0.00016794272 0.00066594436 0.0047749639 -0.23918776 -0.16472125
20635000000 0.25796953 -0.26675165 6.0710139e-005 -4.077069e-005 0.0049501206 -0.0044816299 -0.41583118 0.5821954
20656250000 0.099154092 -0.26102003 6.3118561e-005 -4.6980756e-005 -0.0025574004 -2.6908756e-005 0.21862346 0.48162162
20677500000 0.19941595 -0.36113778 -5.8104612e-005 3.1333504e-005 0.0024697825 -0.0021415809 -0.30182543 0.034526743
20698750000 0.25266671 -0.086383812 -0.00012258512 -0.00011947561 -0.0041161384 0.00015302459 -0.55597824 0.49613875
20720000000 0.1118453 -0.14120753 -0.00018900962 9.8911398e-005 0.0015745871 0.0020532541 -0.29526442 0.30493951
20741250000 0.36081406 -0.10925627 -2.7939355e-005 4.3673255e-005 0.00039577932 -0.0014978374 -0.80018008 0.24612464
20762500000 0.36050934 -0.037092373 7.0379788e-006 -7.8178193e-005 0.0016835233 0.0014521756 -0.69750458 0.29261413
20783750000 0.24742667 -0.079237849 -2.8675851e-005 -5.1038442e-005 0.0007701944 -0.0024128905 -0.4947902 0.33936295
20805000000 0.41191024 0.059120797 -2.9023338e-005 -4.85323e-005 0.00062621949 -0.0016668334 -0.43668932 -0.063911535
20826250000 0.25859213 0.23423578 2.8078191e-005 -0.0002140211 -0.0026426823 -0.0015695345 -0.90996605 -0.22911689
20847500000 0.21142574 0.093495108 0.00013317501 -8.9317393e-005 -0.0011843977 2.1893797e-005 -0.59325379 -0.034122396
20868750000 0.28283107 0.15722206 -0.00012799147 8.3477498e-005 -0.0028647499 0.00089180708 -0.44827092 -0.75242257
20890000000 0.16866347 0.18612882 5.8168331e-005 -6.8222005e-005 0.00037430588 0.0030263304 -1.0505421 -0.35369313
20911250000 0.22579403 0.10159385 0.00010355371 0.00021860954 0.0014381766 -0.0005747815 -0.38864416 -0.20139132
20932500000 0.20161101 0.2993075 -0.00019585736 1.3777311e-005 -0.0013420469 0.00065634266 -0.46491662 -0.74956375
20953750000 -0.045692574 0.35193142 -7.2892661e-005 -3.7236186e-005 0.0031878301 -0.0017020938 -0.42913988 -0.62202525
20975000000 0.17118378 0.037871286 9.9754245e-005 6.5979235e-005 -0.0045830845 -0.0013473725 -0.19712476 -0.5571202
20996250000 0.062024184 0.10561871 -0.00012271393 -3.7063337e-006 0.00077959069 0.0027862422 -0.16361885 -0.56969512
21017500000 -0.11590287 -0.024847053 -7.6457531e-005 7.4230498e-005 -0.0017889555 -0.001563672 -0.14188296 -0.71418476
21038750000 -0.020330675 0.05035324 6.3753332e-006 -4.6787383e-005 -0.00012815482 0.0063135764 -0.20917198 0.16211443
21060000000 -0.21719611 0.16383816 -4.443213e-005 -0.0001747248 0.004883328 -0.0024222061 0.5858351 -0.30888411
21081250000 -0.22119263 -0.032856237 -0.00024754036 -0.0001806559 -0.001887508 0.0023782819 0.073845722 -0.60373396
21102500000 -0.078376055 -0.067193374 2.5227981e-005 -2.1859307e-005 0.0055472357 -0.0029803286 0.11308415 0.027687646
21123750000 -0.11536688 -0.14287907 -7.3610194e-005 8.5780266e-006 -0.0042492133 -0.0027904564 0.45009157 -0.2482495
21145000000 -0.043872196 -0.360349 -4.4502984e-005 5.394308e-005 0.00074673299 0.0024841179 -0.070270948 -0.34481078
21166250000 0.059726842 -0.16215304 -3.7381607e-005 -1.9413917e-005 -0.0002039258 -0.0026310331 0.13663782 0.38181978
21187500000 -0.028369932 -0.1914271 0.0001568587 6.0477782e-005 -0.0015612675 0.0039414801 0.095187962 0.11383484
21208750000 0.037161384 -0.38349116 -4.125994e-005 -1.8954785e-005 0.0035763108 -0.001196063 0.15124452 0.097760737
21230000000 0.051721454 -0.22643922 8.7827888e-005 -0.00019379288 0.0006610321 -0.00063956808 -0.11940482 0.061335135
21251250000 -0.12735519 -0.45962346 -1.9811321e-006 -6.1444713e-005 0.00052800454 -0.0029023094 -0.018777898 0.52980858
21272500000 0.1750139 -0.3870182 5.1810588e-005 -0.00011411275 -0.001809407 -0.0013674828 0.13405117 0.030562749
21293750000 0.25155815 -0.16639654 7.0269918e-005 -9.8422184e-005 -0.0016658265 -0.00066733919 -0.72223353 0.36495227
21315000000 0.25860089 -0.29740241 -0.00014075743 -6.5392225e-005 -0.0023754172 0.00092590199 -0.085077092 0.54091758
21336250000 0.32766193 -0.26356974 -6.2710715e-005 5.8843645e-005 -9.014205e-005 0.0024208552 -0.25584751 -0.022596242
21357500000 0.18759763 -0.21293551 9.225223e-005 -0.00017246707 0.0013277774 0.00096742227 -0.66275871 0.28802198
21378750000 0.084054761 -0.29524741 -1.7170007e-006 -2.2777818e-005 0.00017775333 -0.00055068458 -0.37322581 0.34922868
21400000000 0.29772413 -0.24212173 0.00013810767 -1.0331897e-005 0.00046170468 8.7703804e-005 -0.61082882 -0.088084608
21421250000 0.19599007 -0.10445881 -0.00010104321 0.0001772371 -0.00099232653 -0.00098981115 -0.73403406 0.11102548
21442500000 0.31159243 -0.21615978 -3.1072486e-005 -5.9758662e-005 -0.0013713023 -0.00067703048 -0.60055161 0.16065769
21463750000 0.33574075 -0.015552625 1.0097466e-005 5.0321963e-005 -0.0010201854 0.0034804132 -0.29658678 0.057664633
21485000000 0.068082094 -0.054993719 2.0517768e-005 0.00013750257 0.00074328197 -0.00021032474 -0.62937051 -0.35502675
21506250000 0.19237716 -0.11032164 -0.00010070788 2.2985935e-006 0.0021229812 0.00372763 -0.53028154 0.070093408
21527500000 0.065898061 0.068958804 -0.00012565946 -5.6744248e-005 0.0029477179 -0.0031335067 0.058108322 -0.25119227
21548750000 0.020877739 -0.085707448 0.00025290507 -6.9199908e-005 -0.0013393842 0.00099059474 -0.80066347 -0.51935393
21570000000 0.18766907 -0.072872013 -1.4300158e-005 0.0001189606 0.0039824159 -0.002237784 -0.19554412 0.078796178
