!Keysight Technologies,N5242B,MY47200105,A.14.00.23
!Date: Friday, May 10, 2024 11:17:31
!Correction: S11(C  2-Port  ) 
!S21(C  2-Port  ) 
!S12(C  2-Port  ) 
!S22(C  2-Port  ) 
!S2P File: Measurement: :
# Hz S  RI   R 50
18000000000 0.14552209 -0.028896404 7.7941673e-005 -7.4502983e-005 -0.0014399226 0.0053312392 0.87329704 -0.42219356
18021250000 0.068135403 -0.21064815 4.7538273e-005 5.6226301e-005 0.0013789394 0.0020415033 0.32060489 -0.19620548
18042500000 0.22842266 -0.095069744 -0.00014386863 0.00018766656 0.0025528814 0.0016695315 0.49661222 -0.055929702
18063750000 0.154585 0.020613424 0.00012733569 -1.0813056e-005 0.0045197606 0.00050431117 0.40895173 -0.19226734
18085000000 0.20810242 -0.050448205 -7.7831661e-005 0.00015388815 0.0020747716 -0.0056063379 0.42451563 0.088334836
18106250000 0.33792475 -0.009763143 -6.2821666e-005 -9.7834629e-005 -0.0011133552 -0.0019111736 0.478919 -0.092343569
18127500000 0.20509659 -0.040297888 4.5424717e-005 -5.3281576e-005 -0.0036331445 -0.0022192965 0.56498742 -0.2092614
18148750000 0.19407959 -0.041684389 8.0561076e-005 -4.0968152e-005 -0.00039068997 0.0011789678 0.30346999 -0.36594173
18170000000 0.30183914 0.083857633 8.4750558e-005 -0.00010507141 -0.0020223653 0.0021509882 0.09984225 -0.1286862
18191250000 0.15332557 0.19612801 -8.9534915e-006 -9.9429475e-005 0.0037230477 -0.0006232459 0.27153596 -0.091807023
18212500000 0.23847023 0.068413757 4.2278721e-006 -6.3195308e-005 -0.0012016399 -0.00098790787 0.099777259 -0.12712222
18233750000 0.1641244 0.14512177 3.8836115e-006 9.161361e-006 0.0025823258 -0.0018035857 0.32330242 -0.15634018
18255000000 0.026162345 0.067735091 1.0043761e-005 3.0728566e-005 -0.0044328799 -0.0037335863 0.42722329 -0.54220968
18276250000 0.1379903 0.0092843706 -1.1708094e-005 -1.300885e-005 -0.0028462382 0.0021247836 0.15122351 -0.46515125
18297500000 0.064342521 0.15607259 6.5938861e-005 -4.15711e-005 -0.0015519852 0.00085965067 0.077555396 -0.46416208
18318750000 0.017406775 0.1234231 -0.00013008813 -3.5546953e-005 -0.0024064942 0.0038243379 0.11609375 -0.34604633
18340000000 0.067483492 0.080383338 -1.3234332e-005 -5.7381818e-005 0.0038281293 0.0033449002 0.14102653 -0.24771975
18361250000 -0.12144848 0.10663225 -8.7006565e-006 -6.7538203e-005 0.0011693393 -0.00092322362 0.36145934 -0.47534001
18382500000 -0.085009634 -0.024779305 3.7296806e-005 0.00022406354 0.0024879668 0.00050437602 0.3967225 -0.41513327
18403750000 0.0070014782 -0.023127859 -0.00010952859 0.00019284686 -0.00038800988 -0.0032369157 0.28176284 -0.67305356
18425000000 -0.034141719 0.015164927 2.8461227e-005 -4.3060612e-005 -0.0025119679 0.0016068129 0.074250549 -0.56294817
18446250000 -0.027891319 -0.12873621 -0.0001076003 5.9144918e-007 0.00022456887 0.0010957738 0.49757445 -0.42448556
18467500000 0.023168197 -0.0032483358 3.7061225e-005 2.9182516e-005 0.0012655617 0.0027014043 0.26408246 -0.54742807
18488750000 -0.18975618 -0.036192141 -0.00010931762 6.5185748e-007 0.0028110775 0.00021619149 0.35552466 -0.3893106
18510000000 -0.085524231 -0.16030234 -3.0017531e-005 3.1979624e-005 0.0032231656 -0.0014574891 0.50484663 -0.54018945
18531250000 -0.025767677 -0.023040134 -4.1676991e-005 1.7159613e-006 0.0010328469 -0.0029949141 0.37607098 -0.54298401
18552500000 -0.062861294 -0.19130576 9.562022e-005 7.6912496e-005 -0.00046227628 -0.003790484 0.28359348 -0.52715898
18573750000 0.082104489 -0.19222462 -7.1895506e-008 5.9972765e-005 -0.0028864928 6.2765015e-005 0.15985061 -0.19958174
18595000000 0.090856761 -0.069631308 -2.7532029e-005 8.3153631e-005 -0.0011252316 -0.0013885288 0.42777753 -0.11779709
18616250000 0.049990799 -0.1390191 -7.2876581e-005 -3.1517528e-005 -0.0016329108 0.0019758097 0.37589583 -0.46256009
18637500000 0.1744335 -0.10370103 -5.6787805e-005 -2.3619834e-005 4.4438548e-005 0.00044045251 0.26380131 -0.16594951
18658750000 0.081432335 -0.063130736 -4.4199362e-005 -2.8086995e-005 0.0019294332 0.00019833134 0.48424137 -0.49323586
18680000000 0.084433019 -0.20270863 -8.6659886e-005 1.9269757e-005 -0.0004964461 -0.002341477 -0.032336596 -0.44731998
18701250000 0.23976545 -0.090650812 4.7532158e-005 -7.3296178e-005 -0.0019074368 -0.0015663746 0.22261964 -0.1142543
18722500000 0.14483611 -0.05115461 -5.4797714e-005 -0.00013782916 -0.0023345067 0.00057812518 0.16638623 -0.29777506
18743750000 0.2259607 -0.14873984 9.0994063e-006 1.2135767e-005 -0.002934441 0.0019492634 0.15073311 -0.2543737
18765000000 0.21676768 0.082392804 0.00011283505 -3.9459548e-005 0.00020997244 0.0028049299 0.18547475 -0.35636619
18786250000 0.078697406 -0.011288919 0.00012459817 -0.00015693334 0.00019759312 0.0037462127 0.054688249 -0.34794974
18807500000 0.22688916 -0.092879355 -1.795633e-007 -0.00015929306 0.005683329 0.00027097543 0.031709798 -0.43356824
18828750000 0.13731256 -0.041464046 2.4349254e-005 -2.8649843e-005 -0.001811884 -0.0025107572 -0.022351403 -0.46327069
18850000000 0.14837514 -0.052944962 -7.2559975e-005 7.2628907e-005 0.0033968275 0.0015836629 0.10197961 -0.12762108
18871250000 0.23793551 0.08701124 1.9473015e-005 -0.00010025741 -0.0027918781 -0.0030214442 0.12490309 -0.59002072
18892500000 0.13587277 0.23126008 2.9666007e-005 5.7938374e-005 0.00022584198 0.0030857259 0.049969733 -0.43386608
18913750000 0.10198523 0.025700063 7.9827754e-005 0.00012343701 0.0011765622 -0.00018845829 0.20262839 -0.61123568
18935000000 0.081586786 0.0016923618 4.2867101e-005 -2.5944015e-005 0.001355413 0.00097555784 -0.067843102 -0.68040079
18956250000 -0.03573643 -0.0074647581 4.6456666e-005 6.5415297e-005 0.0026488251 -0.00051596423 -0.01242754 -0.5038597
18977500000 0.029396843 -0.069212809 -9.0803514e-005 0.00015216964 0.0019493637 -0.0037442003 0.12932387 -0.41928124
18998750000 0.075586066 0.16469572 -8.3593091e-005 -6.5766668e-005 -0.0018574386 -0.0018330107 0.24730396 -0.52879512
19020000000 -0.046647117 0.13041352 -0.00011750629 4.6615256e-005 -0.0007861401 -0.0022820961 0.13378528 -0.59282345
19041250000 -0.10046117 0.0040386426 -4.2854957e-005 2.7784527e-005 -0.0026018659 -0.00089592196 -0.0021798529 -0.48935747
19062500000 -0.097713932 0.072893485 -0.00014413118 0.00016745024 -0.0029314863 0.0032050963 0.27980223 -0.61413771
19083750000 -0.074442111 -0.17821395 -1.9115438e-005 -9.5583695e-005 0.0031294618 -4.6883852e-005 -0.040956639 -0.60497189
19105000000 0.08986605 -0.059561644 3.1190048e-005 5.3569693e-005 -0.0029623813 0.00069738092 0.020231569 -0.22539534
19126250000 0.058403648 0.052459836 -1.6192256e-005 2.7787411e-005 0.0031906923 -0.0003391887 0.44938833 -0.54395086
19147500000 -0.060226545 -0.042932373 7.5183336e-005 -5.4865119e-005 -0.0026978913 -0.0023983622 0.10518938 -0.58092761
19168750000 -0.11431678 -0.099957787 -6.8301192e-006 4.8140919e-005 -0.0016990332 0.0015919275 0.15760984 -0.46590647
19190000000 -0.16392912 -0.18858966 -0.00012606599 -0.00010687495 -0.0015053474 0.00029049497 0.1349759 -0.48381361
19211250000 -0.10502763 -0.29419556 0.00010158322 3.2692853e-005 -0.0019656783 0.0038142072 0.19037983 -0.44940248
19232500000 0.13354568 -0.15793753 0.00013290861 -5.9215495e-006 0.0035069478 0.0023640306 -0.097807445 -0.33888489
19253750000 -0.011583779 -0.10465289 8.5428263e-005 -1.417682e-005 -0.00023091229 0.0004993758 0.29988438 -0.27764514
19275000000 0.044640142 -0.18992147 -6.718529e-005 2.9968765e-005 0.0044132508 0.00029218089 0.17999874 -0.52273721
19296250000 -0.0025287608 -0.12961321 -1.8740007e-005 -0.00018683734 -0.00037170787 -0.0024954921 0.025077231 -0.39791593
19317500000 -0.13099402 -0.23101833 -1.3698882e-005 -0.00011985688 -0.00070418481 -6.5238753e-005 0.19998418 -0.36433652
19338750000 0.18943401 -0.29935172 -0.00011966094 7.2436698e-005 0.00080262357 -0.0003096633 -0.12974231 -0.5342595
19360000000 0.1741339 -0.20812654 -5.7995807e-005 -6.3419298e-005 -0.0019657759 0.00052633951 -0.10836636 -0.20229112
19381250000 0.15732847 -0.23163716 2.9569828e-005 -1.821108e-005 0.0027317507 0.0011235169 0.15730129 -0.31009698
19402500000 0.20240143 -0.13924667 0.0001034171 -3.2344326e-006 0.0010561659 -0.00038307166 -0.053147275 -0.37230512
19423750000 0.02786603 -0.16094251 0.00016943766 4.3375079e-005 0.0019776062 -0.0022558421 0.057257399 -0.47087151
19445000000 0.091382302 -0.17037338 -3.189858e-005 4.5921581e-005 -0.00017208151 -0.0032032421 -0.21376762 -0.37100402
19466250000 0.26093897 -0.11411622 -0.00010443405 -9.2000635e-005 -0.0023176838 -0.000210339 -0.07797727 -0.36723498
19487500000 0.19192365 -0.063153267 0.00019773639 -8.5364201e-007 -0.0012772939 -0.0026716182 -0.27277216 -0.47145754
19508750000 0.2294665 -0.16462967 6.0743509e-006 -9.58283e-006 -0.0033013567 0.0026722909 -0.19686832 -0.087238751
19530000000 0.15789379 0.030650884 1.6161926e-005 3.836679e-005 -0.00032981389 0.001082969 0.11552452 -0.41656756
19551250000 0.059315927 -0.027682059 0.00023464744 -1.1905756e-005 0.0020397191 0.0008198538 -0.43561187 -0.72004807
19572500000 0.2232738 -0.040570114 -4.3087166e-005 0.00010495 -0.0015870377 0.0001024069 -0.18398386 -0.23206499
19593750000 0.16184023 0.098426223 6.6695618e-005 8.1009857e-005 0.002460767 -0.0011156199 -0.17657544 -0.62529427
19615000000 0.084627084 -0.021850904 2.1384236e-005 -9.5254989e-005 -0.0036658819 -0.0015074731 -0.34458917 -0.41010422
19636250000 0.11435714 0.053689487 -2.9033139e-005 0.00018071727 -0.00073235243 0.0029587622 -0.12755947 -0.36416641
19657500000 -0.092940286 0.10457761 -9.2579765e-005 -4.679037e-005 -0.00068922172 -0.0016112897 -0.17940834 -0.41388339
19678750000 0.0025204539 0.0061472389 -2.6390868e-005 0.0001755431 -0.0023459715 0.0068265502 -0.078063712 -0.73866254
19700000000 -0.0037016734 0.094352312 8.0038553e-005 -9.74621e-005 0.0067751054 -0.00080757891 -0.37605491 -0.50427109
19721250000 -0.02340349 0.064594671 -1.8944613e-005 -7.0865094e-006 -0.001404986 -0.00071333325 -0.084079832 -0.33668715
19742500000 -0.13480964 -0.037139624 3.4095101e-006 0.00011075729 0.0028288944 0.00080442737 -0.14688477 -0.69163883
19763750000 -0.16703758 0.030167755 0.00013264712 8.8205168e-005 0.00044227988 -0.0042913817 -0.28780729 -0.34281605
19785000000 -0.21812055 0.061677575 -0.00023737289 -5.6391844e-005 -0.0020411625 0.0018823401 0.21507913 -0.29246753
19806250000 -0.077168457 -0.074450903 -3.11162e-005 4.0925981e-005 0.00032488533 -0.0010819937 0.012524084 -0.81399906
19827500000 -0.10025499 0.029325509 -2.9942344e-006 -0.00013335164 0.00062481483 0.0021354968 -0.055553969 -0.35885724
19848750000 -0.21672368 -0.11892127 0.0001570962 8.3492014e-005 0.0016419943 -0.0003705378 0.059091486 -0.4132241
19870000000 -0.12658831 -0.12621582 -1.1611349e-006 -8.2394399e-005 0.0016397604 -0.0019908887 -0.025264021 -0.40998113
19891250000 -0.25168476 -0.17266451 -3.0979179e-005 -9.7006901e-005 5.6463494e-005 -0.0013152628 0.13395372 -0.28622282
19912500000 -0.10321329 -0.32434613 0.00012305204 0.00010874294 -0.00095201039 -0.0031673452 0.11379141 -0.017228618
19933750000 -0.010473829 -0.14771259 0.00014246169 6.0937797e-005 -0.0024847749 -0.00072128727 0.26295575 -0.47504589
19955000000 -0.11355146 -0.21269517 4.2315987e-005 5.9496924e-005 -0.0037415395 0.00029767945 -0.29582936 -0.35918495
19976250000 -0.15600322 -0.24657482 -4.1262174e-005 3.5313289e-005 0.0019342302 0.0032801442 0.055666331 0.028350376
19997500000 -0.18052787 -0.22666773 -5.6145884e-005 -6.2497427e-005 -0.0017467088 -0.00063132989 0.032540873 -0.1544304
20018750000 -0.067252032 -0.28432718 1.9052344e-005 -2.7990893e-005 0.0027827325 0.0018854076 -0.15065065 -0.0035423404
20040000000 0.16607217 -0.31524563 -5.5261758e-006 -0.00014413755 -0.00075549743 -0.001694017 0.042104073 0.23106407
20061250000 0.3046051 -0.080338404 -0.00015180808 7.4570737e-005 -0.00011822111 -0.0013019611 0.012755764 -0.26209798
20082500000 0.1112267 -0.053818922 5.8536421e-006 0.00013988126 -0.0030854044 0.00066094246 -0.35012871 -0.20415142
20103750000 0.14873201 0.010746947 3.7708898e-005 6.1937753e-005 -0.00068930443 0.0028072195 -0.33951643 -0.089067578
20125000000 -0.12245307 0.053466603 7.932778e-005 -1.6892613e-005 0.0017696198 0.0011530875 -0.35468337 0.10560244
20146250000 0.060375046 -0.17859487 -5.7556943e-005 6.6105909e-005 -0.00056298717 0.0026077805 -0.29198906 -0.2787016
20167500000 0.28593326 -0.073421083 3.43598e-005 2.691338e-005 0.0053400248 -2.2979781e-005 -0.79452068 -0.1586757
20188750000 0.21652268 0.016364546 5.2203995e-005 2.6362464e-005 -0.00018932602 -0.0010006487 -0.0440186 -0.12001859
20210000000 0.22833869 0.10971789 1.2358448e-005 -7.4859774e-005 0.0018641052 -0.0017565142 -0.57324266 -0.83794945
20231250000 0.032113437 0.37266117 -1.2871607e-005 6.9883604e-006 -0.0016483166 -0.002186321 -0.75397217 -0.15424405
20252500000 -0.11901292 0.18991123 -8.0951004e-006 2.4454877e-005 -0.00083389995 0.0024472375 -0.4475905 -0.43294355
20273750000 0.04054223 0.12348742 -2.5447956e-005 -4.4378721e-005 0.0006621455 -0.0012076229 -0.40201181 -0.37957546
20295000000 0.08478424 0.21730506 -8.5407497e-005 -1.817993e-005 7.9627811e-005 0.0022899711 -0.4426223 -0.47236469
20316250000 0.031952631 0.18528305 -8.6001186e-005 -0.00011624024 0.0028399995 -0.00099686556 -0.17756429 -0.559659
20337500000 -0.10868497 0.2581518 2.8352964e-005 0.00016386248 0.00068733608 -0.0039550141 -0.067816421 -0.79837006
20358750000 -0.31416616 0.36345941 2.1602502e-005 -3.8531274e-005 -0.0022037271 -0.00022707322 -0.56796521 -0.68985254
20380000000 -0.33819935 0.09082476 0.00010284509 2.9304365e-005 -0.00020378311 -0.002145425 -0.30487031 -0.3622753
20401250000 -0.16286218 0.089468688 -0.00010962551 0.00016651447 -0.0039849957 -2.7860808e-006 0.29354778 -0.67235518
20422500000 -0.25099552 0.055200465 -0.00020595622 -0.00013437578 -0.00075986207 0.0032809721 -0.19160302 -0.62796021
20443750000 -0.13914657 0.034124792 -0.00010825918 3.471355e-005 0.00075414951 -0.00049186335 0.15757929 -0.19871366
20465000000 -0.26576769 0.21825863 -0.00015088984 0.00011408424 6.1203267e-005 0.0022879725 0.38867387 -0.81873381
20486250000 -0.39139226 0.063689664 -1.2129037e-005 -0.00021276945 0.001627033 -0.0023981216 -0.30566511 -0.32212612
20507500000 -0.19007078 -0.033359203 0.00012961947 6.4788779e-005 -0.002134037 -0.00062216807 0.23047556 -0.099635459
20528750000 -0.1517265 -0.10739887 2.9780213e-005 -0.00021252225 -1.2534236e-005 0.0017820926 0.21893498 -0.15360881
20550000000 -0.10122416 -0.29272693 -2.7579816e-005 -0.00020642497 -0.0020287333 -0.0021791274 0.20060116 -0.043893147
20571250000 -0.084669605 -0.15143098 -3.3115015e-005 0.00011350457 -0.000779378 0.0063571008 -0.0088422699 0.051178273
20592500000 -0.11724911 -0.098456256 -0.00011472969 -2.8252554e-005 0.0034322625 -0.0015140325 0.36129376 0.22689655
20613750000 -0.087397233 -0.1907337 -8.0017293e-005 9.5772948e-006 -0.00081485807 0.0025854765 -0.23900335 -0.16161439
20635000000 0.2572802 -0.26475897 5.6201748e-006 0.00015549113 0.0055481298 -0.0016937946 -0.4135128 0.58087963
20656250000 0.10335837 -0.25943196 -1.1181545e-006 4.4462871e-005 -0.0020939636 -0.0021194972 0.21636243 0.48142627
20677500000 0.20867936 -0.35862875 -0.00013607022 -2.4156458e-005 0.0013977592 -0.00069427915 -0.30258313 0.036634061
20698750000 0.26195544 -0.086965635 -3.2712655e-005 -8.7986271e-005 -0.003071219 0.00010057959 -0.55649209 0.4972527
20720000000 0.1181573 -0.1400215 -0.00012882835 -1.2574005e-005 0.0010373236 0.0012197907 -0.29701632 0.30633548
20741250000 0.36164102 -0.10850857 0.00018225341 -0.00017880108 0.00080675847 0.00016618594 -0.80023324 0.24783136
20762500000 0.36000323 -0.030522069 8.3156687e-005 -8.1514438e-005 0.0017240032 5.9874536e-005 -0.6979546 0.2933937
20783750000 0.25011995 -0.075836554 0.00011201653 -2.6682841e-005 5.8397578e-005 -0.0021053285 -0.49523291 0.33728164
20805000000 0.41641083 0.061695676 -7.2276071e-006 -0.00011107649 0.0014449371 -0.0013476233 -0.43892682 -0.06347423
20826250000 0.2615791 0.235258 3.3639277e-005 -5.1435043e-005 -0.0032915873 -0.0032460538 -0.90846574 -0.22744296
20847500000 0.21015728 0.096261472 -3.5021523e-005 -7.5693737e-005 -0.0011985833 0.0016762206 -0.5937838 -0.034690704
20868750000 0.2806527 0.16574831 -0.0002140131 7.3199306e-005 -0.00222684 -0.00050399714 -0.45203584 -0.74935764
20890000000 0.16524723 0.19343835 -0.00014851843 4.0313953e-005 -0.0007971155 0.0030972206 -1.047045 -0.35321563
20911250000 0.22127444 0.10474768 -0.00016780835 -0.00013381145 0.002729903 0.00035679273 -0.3894999 -0.20194466
20932500000 0.1952152 0.29928443 -0.00015210554 0.00018522571 -0.002451963 -0.0012134557 -0.46407562 -0.74716741
20953750000 -0.05315632 0.34829822 -1.0389961e-005 -0.0001347519 0.0031734887 0.00074231962 -0.42885625 -0.61992401
20975000000 0.15923309 0.042730995 0.00011741382 -5.6392505e-006 -0.0037463347 -0.003068425 -0.19731189 -0.55604845
20996250000 0.053698551 0.11186477 0.0001931084 -1.9145742e-005 -0.00068905886 0.003394301 -0.16443299 -0.56987005
21017500000 -0.12036739 -0.021321971 1.4913925e-006 -4.6212295e-005 -5.8119815e-005 -0.00033476163 -0.14234279 -0.71134841
21038750000 -0.020247005 0.049000956 3.8921166e-006 8.5732747e-005 -0.0018166405 0.0045474302 -0.20795843 0.16037299
21060000000 -0.22058545 0.15796447 1.2348566e-005 0.00012168537 0.0059734127 0.00060569879 0.58267844 -0.30917689
21081250000 -0.22714193 -0.037163541 2.484715e-005 -1.2368343e-005 -0.0019459997 -0.00030761439 0.074021518 -0.60017669
21102500000 -0.082222559 -0.067443646 -0.00016726379 -7.3366951e-005 0.0049203839 -0.00099954486 0.11311419 0.026664227
21123750000 -0.11811336 -0.14496474 -4.7827689e-005 -0.00015263684 -0.003020636 -0.0038691708 0.44813684 -0.24587713
21145000000 -0.040391773 -0.36233342 1.3354968e-005 -7.980736e-005 -0.00057515688 0.0021228308 -0.069170721 -0.34254697
21166250000 0.063493684 -0.16768159 3.7731097e-005 -1.1638534e-005 0.0002154531 -0.0019165544 0.13671333 0.38036692
21187500000 -0.028278217 -0.19910868 -1.2556154e-005 -3.2067608e-005 -0.0011124378 0.0027851623 0.095837869 0.11471011
21208750000 0.041609555 -0.38601857 -5.1159837e-005 -8.4451449e-006 0.0020845821 -0.00070853712 0.1497082 0.098092966
21230000000 0.05309134 -0.22927198 6.5366956e-005 -2.4769513e-005 0.0028697099 -0.00040741073 -0.11889065 0.062550619
21251250000 -0.11734784 -0.4596647 7.1714006e-005 -7.1279675e-005 -0.0018323251 -0.0041409945 -0.019532163 0.52710199
21272500000 0.17968343 -0.39192048 0.00027151775 -6.5890155e-005 -0.00041713825 0.00069755921 0.13095851 0.031547882
21293750000 0.25170568 -0.17251149 -0.00017512172 0.00011902851 -0.0019466052 -0.0033125014 -0.72119749 0.36478287
21315000000 0.25807291 -0.29602134 1.6913109e-005 0.00017359486 -0.0035305629 0.0031231374 -0.086512253 0.54061943
21336250000 0.32554281 -0.25845543 -8.8314671e-005 9.9371518e-006 0.0024514578 0.00061552651 -0.25675917 -0.020280166
21357500000 0.18847333 -0.20811285 -0.00020653581 7.4664211e-005 -0.0016312816 0.0017554541 -0.65957946 0.28779674
21378750000 0.090774894 -0.29220235 7.3143739e-005 -2.3341299e-005 0.0028647699 -0.00015398426 -0.3723667 0.34848264
21400000000 0.29642642 -0.23824605 -0.00011096536 -6.5295957e-005 -0.0010253513 -0.0013037864 -0.60867548 -0.086644851
21421250000 0.19565241 -0.10284831 -0.00011684914 -5.1987583e-005 -0.00048769102 0.0013036601 -0.73247802 0.1112159
21442500000 0.30868641 -0.20690027 -5.5884953e-005 -7.1601862e-005 -0.00075671612 -0.0022348815 -0.59942621 0.15990829
21463750000 0.33094272 -0.011102397 7.2707326e-007 -0.00010736277 -0.0023213932 0.0044034203 -0.2980895 0.057229813
21485000000 0.071743712 -0.053053107 1.5233903e-005 1.8000119e-005 0.0022220775 0.00019632273 -0.628434 -0.35202661
21506250000 0.18894218 -0.10719815 -0.00021147156 -1.4851444e-005 0.0011576574 0.002235767 -0.53019959 0.070077315
21527500000 0.064122602 0.066697612 0.00012362916 2.2841337e-005 0.0026877115 -0.0008166795 0.054015018 -0.25112611
21548750000 0.017842695 -0.08412534 0.00024403044 -9.0837684e-006 0.00016192516 -0.0011034112 -0.79783762 -0.51546049
21570000000 0.18029878 -0.0678313 -1.5776102e-005 -6.9431153e-005 0.0022921851 -0.0012498258 -0.19571958 0.077202104
