!Keysight Technologies,N5242B,MY47200105,A.14.00.23
!Date: Friday, May 10, 2024 11:05:45
!Correction: S11(C  2-Port  ) 
!S21(C  2-Port  ) 
!S12(C  2-Port  ) 
!S22(C  2-Port  ) 
!S2P File: Measurement: :
# Hz S  RI   R 50
18000000000 0.13309354 -0.030347878 0.0001136584 -6.2750129e-005 -0.0066801785 0.0045182211 0.88369036 -0.42448542
18021250000 0.067070447 -0.21228211 -0.0001538364 -2.7116519e-005 0.0051364307 0.0050658924 0.31683296 -0.19045876
18042500000 0.22229759 -0.090081155 -6.5213557e-005 2.149972e-005 0.0012815144 -0.0034556491 0.50216514 -0.046104673
18063750000 0.14736326 0.012640725 0.00012730382 -1.5907783e-005 0.0027938923 0.0056334836 0.415539 -0.1883775
18085000000 0.20684125 -0.051599044 -0.00010531529 -2.2907563e-005 0.0066201948 -0.0093831141 0.43120551 0.093617491
18106250000 0.32684734 -0.0057415976 2.0549471e-005 -0.00017639423 -0.0069207246 -0.00064610172 0.48103821 -0.090378687
18127500000 0.20383076 -0.045865279 4.4582022e-005 9.1828151e-005 0.0021601105 -0.00057904643 0.57336622 -0.20415279
18148750000 0.20085131 -0.042755917 -4.9548227e-005 3.2238102e-005 -0.0039575174 -0.002411393 0.30510131 -0.36599183
18170000000 0.29738638 0.080993742 6.9243091e-005 -9.4284978e-006 -0.0011235434 0.0069210902 0.098397531 -0.11539071
18191250000 0.15637662 0.18612927 4.1752257e-005 6.9162612e-005 0.0054698144 -0.0047209067 0.282222 -0.080650136
18212500000 0.24132717 0.07289461 2.5853107e-005 7.866646e-005 -0.004823871 0.0016776859 0.103252 -0.1201774
18233750000 0.16030268 0.1410809 6.9546732e-005 9.5499763e-006 0.0064659524 -0.0017733084 0.32727203 -0.15162535
18255000000 0.034346193 0.062880442 -5.3750678e-005 -7.6091164e-005 -0.0071783056 -0.0062109237 0.43324751 -0.53684622
18276250000 0.14493909 0.014071708 1.4197381e-005 -1.2162699e-005 -0.0020172584 0.006009982 0.15498006 -0.46011227
18297500000 0.06992685 0.14984992 3.7767131e-005 8.6773733e-005 -0.00016409504 -0.0031905049 0.078135043 -0.4599511
18318750000 0.027646322 0.12511329 -4.5007706e-005 3.5106645e-005 -0.0055716955 0.0065826806 0.11729016 -0.33844739
18340000000 0.066636451 0.090045363 3.0402057e-007 4.0439387e-005 0.0076086596 0.0028137204 0.14279303 -0.24104564
18361250000 -0.11674625 0.10840538 -4.5774599e-005 0.00021539381 -0.0022765102 -0.0029583401 0.35937992 -0.47811729
18382500000 -0.076049514 -0.015745025 -0.00016740631 2.3630339e-005 0.0040842523 0.0042829015 0.39331955 -0.40603292
18403750000 0.0078014852 -0.017782254 -7.7562974e-005 4.0912426e-005 0.0004093684 -0.0076513924 0.27901304 -0.67313987
18425000000 -0.029931774 0.012700513 7.8283214e-005 -4.509071e-005 -0.0049823122 0.0046503628 0.068250678 -0.56273371
18446250000 -0.028171981 -0.11537965 -8.5974614e-005 3.2831267e-005 0.0037863799 -0.00010421572 0.50413525 -0.42117834
18467500000 0.014334701 0.0060878145 4.6463778e-005 9.0502566e-005 -0.0018905548 0.0017612377 0.26598099 -0.54932523
18488750000 -0.18723473 -0.030106289 -2.900158e-005 -3.4086639e-005 0.0041908701 0.0031430211 0.36054194 -0.39382142
18510000000 -0.086458176 -0.14772372 2.452481e-005 0.00016326449 0.0041124341 -0.0049850051 0.50492287 -0.54875934
18531250000 -0.029910985 -0.025746372 8.3208317e-005 -4.4779528e-005 -0.0018270841 -0.00023233394 0.37891993 -0.54582536
18552500000 -0.060258515 -0.18852733 -5.8913334e-005 -4.3569013e-005 0.00374607 -0.0042888322 0.28727132 -0.53349751
18573750000 0.075177208 -0.18550096 -3.0664767e-005 -3.3734312e-005 -0.006896758 -0.0019584436 0.16019234 -0.19628255
18595000000 0.084438309 -0.070967078 -1.3782569e-005 -1.9548578e-007 0.001410305 0.0025264339 0.4384487 -0.11398289
18616250000 0.052218806 -0.13389893 -2.8174913e-005 -9.3249386e-005 -0.0019239121 -0.0027297891 0.38237682 -0.4696582
18637500000 0.16923414 -0.10457499 3.0350689e-005 8.0011072e-005 -0.0023587355 0.0046461369 0.26844481 -0.15974197
18658750000 0.082889266 -0.071450368 6.2637992e-005 5.631127e-005 0.006091828 -0.0019758192 0.49862042 -0.49503362
18680000000 0.085973397 -0.20374918 -8.5489926e-005 -5.628492e-005 -0.005092639 -0.0031156614 -0.028859703 -0.44368535
18701250000 0.23171322 -0.096314989 -5.3193722e-005 4.3277836e-005 0.0015508465 0.0020567428 0.23664564 -0.10626838
18722500000 0.15106691 -0.056118596 5.1196519e-005 -1.8337376e-005 -0.0037072799 -0.0041878424 0.17825426 -0.29352608
18743750000 0.2298304 -0.14779449 -1.1266605e-005 6.14776e-005 -0.0041877073 0.0064372425 0.16081712 -0.25233886
18765000000 0.21539207 0.071342789 -0.00010942431 -7.1483184e-005 0.0035816031 -0.00028900569 0.19054392 -0.35474712
18786250000 0.089900531 -0.015944691 -6.2167877e-005 3.4283818e-005 -0.0042265309 0.0045614592 0.055253226 -0.33963042
18807500000 0.22250411 -0.090237483 0.00013766137 -9.213492e-005 0.0090977838 0.0020593011 0.033942316 -0.4275029
18828750000 0.14089024 -0.043692242 -6.1545957e-006 -3.4686473e-005 -0.0032807556 -0.0058772527 -0.02249445 -0.45766279
18850000000 0.16531768 -0.04657511 -4.4122644e-005 -6.3087978e-006 0.0019032367 0.0053732567 0.10611029 -0.11221357
18871250000 0.23844406 0.088887744 2.0639677e-006 8.4709718e-006 0.0012768339 -0.0058568199 0.12570548 -0.59086436
18892500000 0.14300691 0.2208803 4.5536286e-005 -8.0873469e-006 -0.0050203712 0.0033297443 0.046234552 -0.42865363
18913750000 0.10178058 0.032533359 -2.1852225e-005 -2.4649938e-005 0.0061100372 0.0023379941 0.20175092 -0.61005127
18935000000 0.071093559 0.0086857937 -1.5027501e-005 -7.4792719e-005 -0.001650509 -0.0036563412 -0.074663661 -0.67871994
18956250000 -0.028089052 -0.0017530463 -1.5036417e-005 6.8929956e-005 0.0025762182 0.0052684927 -0.014531633 -0.50296581
18977500000 0.029127013 -0.054561868 5.3974542e-005 3.8035403e-005 0.0051486208 -0.0088073844 0.12744179 -0.4153218
18998750000 0.071126156 0.16587494 -9.6040443e-005 8.393202e-005 -0.0076426547 0.0010386502 0.25096145 -0.53011078
19020000000 -0.043308664 0.13401383 6.8378933e-005 0.00017464715 0.0052833324 -0.0019592065 0.13157187 -0.59742528
19041250000 -0.11186621 0.017154107 2.9386814e-005 3.7522016e-006 -0.0074431221 -0.0042991317 -0.0070169559 -0.48970303
19062500000 -0.10107244 0.070329256 -4.2166914e-005 -6.1806437e-005 -0.00026530266 0.0085119568 0.28729507 -0.61749685
19083750000 -0.073220655 -0.16895111 2.7554361e-005 6.2523846e-005 0.0037347844 -0.005711135 -0.039533306 -0.61214006
19105000000 0.081138298 -0.055839121 3.5156927e-006 -7.8325029e-005 -0.0065906388 0.0048513687 0.024839757 -0.223803
19126250000 0.053984605 0.042032421 -0.00010320483 -3.4392306e-005 0.0079782 -0.0018809342 0.46211985 -0.56006271
19147500000 -0.068656214 -0.037892923 -0.0001101005 7.3419351e-006 -0.0066549219 -0.0037135088 0.106566 -0.59050608
19168750000 -0.1245463 -0.1024107 -0.00010335581 7.1818278e-005 0.00057770329 0.0050453595 0.16052549 -0.47134218
19190000000 -0.15980339 -0.19434835 -9.0553127e-005 -7.9001409e-005 -0.0011800196 -0.0041334755 0.14177565 -0.4840503
19211250000 -0.10313518 -0.29263318 0.00011946869 -4.7766727e-005 -0.0047217114 0.0071192402 0.20260593 -0.453931
19232500000 0.12586236 -0.17221996 3.4610101e-005 -1.8832301e-005 0.0074448031 0.001079835 -0.098558642 -0.337183
19253750000 -0.008819717 -0.11119362 5.7870369e-005 -5.3343905e-005 -0.0039184536 -0.0009567407 0.31577742 -0.27425551
19275000000 0.038126796 -0.18901421 -7.224904e-006 1.9075767e-005 0.0064590829 0.0039188531 0.18727468 -0.52745378
19296250000 -0.002976377 -0.1375038 5.0757368e-005 9.9055411e-005 -2.5963654e-005 -0.0074443081 0.027808473 -0.39564878
19317500000 -0.11799259 -0.2307789 3.6166261e-005 0.00016860085 -0.0033960382 0.0035972472 0.20899944 -0.3585735
19338750000 0.18679522 -0.3018114 0.00014635058 -2.7879616e-005 0.0051763658 -0.0015929939 -0.12572409 -0.53322554
19360000000 0.17689076 -0.21238172 7.914575e-005 3.5332156e-005 -0.0065270904 -0.0012559199 -0.1068401 -0.19644769
19381250000 0.162534 -0.22176705 0.00016163915 8.4953201e-005 0.0058400128 0.0057158759 0.16351129 -0.30657104
19402500000 0.20059845 -0.13556373 0.00010051034 -0.00020278031 0.00063759799 -0.0059303916 -0.052457538 -0.37016147
19423750000 0.041076817 -0.16007431 9.7031116e-006 -9.1627269e-005 -0.00040485983 0.0025231254 0.058486041 -0.4743351
19445000000 0.095660195 -0.16409567 -2.276647e-005 5.3857777e-005 0.0046210107 -0.0056014438 -0.22067697 -0.3648656
19466250000 0.2541568 -0.11552133 -7.615788e-006 0.00012021047 -0.007899737 -0.0012267074 -0.072971031 -0.36427265
19487500000 0.19550814 -0.058206424 9.0950918e-005 -4.6324622e-005 0.0035094409 0.0013489561 -0.27491057 -0.47565088
19508750000 0.21800308 -0.14713812 -3.7086036e-005 -8.826104e-005 -0.0059550204 -0.003343008 -0.19779705 -0.081474096
19530000000 0.15945128 0.036214191 9.7136675e-005 -0.00013133872 -0.00050586212 0.0068462798 0.12256811 -0.42168933
19551250000 0.066992916 -0.022669066 1.4342762e-005 0.00011259521 0.0054841624 -0.0029399816 -0.44591698 -0.72977048
19572500000 0.21300243 -0.038328268 0.00010356457 -3.3269491e-005 -0.0066619804 0.001197288 -0.18332992 -0.22844587
19593750000 0.15624905 0.093020208 -0.00022644321 -7.7144621e-005 0.0073501957 0.00057217531 -0.17637993 -0.62887675
19615000000 0.079145618 -0.014352979 1.6975833e-005 7.5242708e-005 -0.0063227825 -0.0052354918 -0.34203082 -0.41128942
19636250000 0.1004722 0.052739356 6.3244544e-005 5.0377268e-005 -0.00082198478 0.0068338737 -0.12760426 -0.36558813
19657500000 -0.091611095 0.097248226 -1.3334668e-005 -1.281617e-005 0.0024253682 -0.0039173202 -0.17708629 -0.41022977
19678750000 -0.0049643642 0.0075531607 -8.998163e-005 0.00019506113 -0.0066227973 0.0065514478 -0.071097791 -0.74483323
19700000000 -0.013351873 0.0820482 5.4933145e-005 8.3725063e-005 0.01073751 0.0024917333 -0.38028121 -0.50313979
19721250000 -0.0245075 0.05911636 -0.00012578792 -0.00011062553 -0.0033663358 -0.0061706575 -0.075376078 -0.3298071
19742500000 -0.14191468 -0.0370478 -9.2405702e-005 -8.9127243e-005 0.0013240832 0.0065208878 -0.14368324 -0.69747478
19763750000 -0.16814481 0.0145111 9.0083828e-005 3.0220801e-005 0.0054670507 -0.0085366257 -0.28913081 -0.33907053
19785000000 -0.21193327 0.057366319 -4.20422e-005 -2.5983025e-005 -0.009470325 0.0037340473 0.22245577 -0.28859234
19806250000 -0.083195493 -0.084131174 -1.0754427e-005 -5.6367469e-005 0.0075331149 0.001569764 0.014684075 -0.82118148
19827500000 -0.10033122 0.01735351 8.4333711e-005 -0.00016935707 -0.0050698929 -0.0032607315 -0.056798048 -0.35602948
19848750000 -0.21317545 -0.10959324 5.1742685e-005 7.3628689e-005 0.0034898883 0.0067263013 0.062164314 -0.41167435
19870000000 -0.12621221 -0.13027641 1.1749264e-006 -0.00013705148 0.0045041875 -0.0088833552 -0.022891438 -0.41150165
19891250000 -0.23697659 -0.17704616 -6.9510115e-006 -2.0423016e-005 -0.0062927329 0.0031205469 0.13441487 -0.29397684
19912500000 -0.095399588 -0.31944463 0.00013111698 -0.00018549417 0.007289405 -0.0044958759 0.10930307 -0.013384624
19933750000 -0.010757617 -0.15683421 -0.00013240064 -1.2684886e-005 -0.0089409444 -0.0036074857 0.2642912 -0.48370853
19955000000 -0.10505098 -0.20627177 0.00010891233 -6.9594989e-006 -0.00029866345 0.0067523955 -0.30601484 -0.36908209
19976250000 -0.15758856 -0.23901802 -1.2228526e-005 -7.3012692e-005 0.0021402559 -0.0040485552 0.057741627 0.026646206
19997500000 -0.1780086 -0.22914009 -7.6632125e-005 2.9614092e-005 -0.0060202675 0.0055432012 0.034345876 -0.16218829
20018750000 -0.0589916 -0.27818376 -0.00013736171 0.00015584186 0.0091741281 -0.001348571 -0.14912651 -0.01086506
20040000000 0.15547971 -0.31262597 -0.00013270119 -4.8724749e-005 -0.0078216111 -0.0024100768 0.044959128 0.22689912
20061250000 0.29895997 -0.079532504 -5.2521049e-005 4.1258292e-005 0.0043807398 0.002826452 0.019264068 -0.27038544
20082500000 0.10799361 -0.039329514 9.9721103e-005 1.6573687e-005 -0.0043949569 -0.0054007312 -0.34408832 -0.21367767
20103750000 0.13526605 0.014011411 4.3413704e-005 -7.3352872e-005 -0.0034219157 0.0088548809 -0.33162814 -0.093773879
20125000000 -0.11424958 0.050283436 4.1822241e-005 -1.4449129e-005 0.0071519879 -0.0022899574 -0.34337258 0.10594621
20146250000 0.056267682 -0.17941676 -0.00012649968 -0.00013675561 -0.0062464005 0.0021784129 -0.27752665 -0.28933987
20167500000 0.27255997 -0.084000356 0.0001011822 0.0001550017 0.0095266709 0.0048494092 -0.79806936 -0.15921544
20188750000 0.21645616 0.012754209 -1.9709323e-005 6.3698484e-005 -0.0014518654 -0.0070507755 -0.022825617 -0.11677653
20210000000 0.2161697 0.1126128 1.7425022e-005 -0.00016856041 -0.00098784117 0.0040206946 -0.56866342 -0.8433795
20231250000 0.030092889 0.3581953 0.00011229748 -5.5765682e-005 0.0037272233 -0.0056674322 -0.74725276 -0.14207505
20252500000 -0.10767426 0.18081181 -0.00019025938 0.00014828981 -0.007237344 0.0021014211 -0.43977618 -0.43126541
20273750000 0.035577878 0.11109342 -3.513913e-006 7.1851966e-005 0.0063954759 0.0030126786 -0.39175466 -0.37426895
20295000000 0.089270279 0.19578446 -0.00012477198 -9.0426765e-005 -0.0024718025 -0.0047665369 -0.44957361 -0.47030488
20316250000 0.033655718 0.18325301 -5.8027894e-005 -8.5065236e-005 0.0026575609 0.006431073 -0.17656255 -0.5491997
20337500000 -0.11055151 0.25089774 -8.2042381e-005 -4.7677055e-005 0.0049896492 -0.0089771748 -0.067082405 -0.79349047
20358750000 -0.29760441 0.34749913 3.1282611e-006 0.00013815542 -0.0080936207 0.001414657 -0.58385342 -0.684452
20380000000 -0.32658747 0.092657931 1.4393891e-005 7.4424956e-005 0.0060452474 -0.00038041014 -0.31246498 -0.34919581
20401250000 -0.15907292 0.076324187 1.4814346e-005 -0.00012962274 -0.0080912672 -0.005317505 0.29416612 -0.67273867
20422500000 -0.23146148 0.058008987 3.1118652e-005 -0.0001064412 9.8163837e-005 0.0092600603 -0.20648529 -0.63103825
20443750000 -0.13009286 0.051908895 -9.5406504e-006 -0.00011422115 0.002744125 -0.0058982316 0.14991972 -0.19091824
20465000000 -0.25034145 0.21535468 0.00013701439 -0.00015490294 -0.0047369553 0.0043682111 0.38886276 -0.83191609
20486250000 -0.37436464 0.071935013 -0.00020882994 -0.00014730862 0.0068878536 -0.0017390299 -0.3227075 -0.32855475
20507500000 -0.19634582 -0.026384175 0.00018343958 -1.1813563e-006 -0.0059728185 -0.0038560904 0.22954191 -0.10818409
20528750000 -0.14984742 -0.10298762 3.1478088e-005 9.012464e-006 0.0012005093 0.0060071861 0.21779314 -0.16665103
20550000000 -0.09783031 -0.26666138 -3.502932e-006 -3.9294384e-005 -0.00010264573 -0.0054950151 0.19587317 -0.060601257
20571250000 -0.088593811 -0.14247522 0.00016492748 -7.8983074e-005 -0.0052998522 0.0073393765 -0.017134855 0.038824379
20592500000 -0.10615476 -0.098824948 1.6425241e-005 -2.0762176e-005 0.00811351 0.00098702149 0.36856467 0.22062346
20613750000 -0.091921799 -0.17792471 0.00010820566 -3.6832098e-005 -0.0042130016 -0.0023236142 -0.23894824 -0.18341947
20635000000 0.23078156 -0.26336402 6.4970933e-005 0.00019701922 0.0056823501 0.0046532145 -0.4096843 0.57992512
20656250000 0.097072907 -0.24545681 -0.00010369358 0.00020143071 0.0018555741 -0.0072479299 0.23927766 0.47324711
20677500000 0.1915144 -0.33554283 -4.4093355e-005 3.3776025e-005 -0.0057672663 0.0022069246 -0.29337752 0.018335624
20698750000 0.25196296 -0.090130113 8.7371584e-005 0.00024571284 0.0063942694 0.00069533486 -0.54469866 0.49498174
20720000000 0.11512405 -0.13972534 -0.00013472782 4.4999917e-005 -0.0066993213 -0.0036247219 -0.27747136 0.30332822
20741250000 0.34063175 -0.11115497 -2.7018536e-005 -0.00015118366 0.005706429 0.0079346318 -0.78427595 0.23926561
20762500000 0.34960017 -0.04029154 -6.5975881e-005 4.5034827e-005 0.0023742279 -0.0085663553 -0.6860227 0.29614341
20783750000 0.24507524 -0.075127609 -4.4719996e-005 8.1217528e-005 -0.004440581 0.0045956257 -0.4769986 0.35026339
20805000000 0.39911857 0.054908726 5.5797616e-005 -5.3432021e-005 0.0085948035 -0.0049065347 -0.41993749 -0.060395055
20826250000 0.26820791 0.21298003 -9.1293856e-005 -3.4730321e-005 -0.010498377 -0.0040088827 -0.91064858 -0.21757576
20847500000 0.20520292 0.094395511 -1.2104547e-005 1.0671495e-005 0.0034543057 0.0058843587 -0.58899504 -0.014535255
20868750000 0.2699385 0.14817265 -5.0283765e-005 7.5495795e-005 -0.0026739878 -0.0070945919 -0.4352946 -0.73795217
20890000000 0.17948681 0.18448165 0.00015423381 5.0087699e-005 -0.0045525371 0.0090652294 -1.0633532 -0.33602718
20911250000 0.22741984 0.1113087 -6.9411406e-005 0.00015158221 0.0086047612 -0.0029169542 -0.38707766 -0.18457474
20932500000 0.20888659 0.28633779 -0.00012040942 -4.9520113e-005 -0.008824423 -0.0017160837 -0.47562158 -0.74563372
20953750000 -0.029951844 0.341934 -7.9947662e-005 -4.4070079e-005 0.0071985153 0.0053216843 -0.44549203 -0.61903256
20975000000 0.16697679 0.043986004 -6.5048451e-005 0.00011255405 -0.00380454 -0.0095286155 -0.21479599 -0.55151498
20996250000 0.068415284 0.10594732 3.8791328e-005 -0.00010985572 -0.0044350643 0.010232426 -0.175945 -0.56169957
21017500000 -0.1058929 -0.0075132684 -0.00010707405 9.5483592e-005 0.0070217582 -0.0041254926 -0.1579373 -0.72512227
21038750000 -0.013178417 0.058043864 -2.2229953e-005 9.0656526e-005 -0.0091148661 0.0049342532 -0.22590847 0.17008857
21060000000 -0.2019708 0.16228172 -2.8239494e-005 1.7244469e-005 0.011146987 0.0042767846 0.58352035 -0.3211329
21081250000 -0.21697477 -0.021540595 9.2440379e-005 -0.00010919007 -0.0041283788 -0.006136816 0.05651398 -0.62306279
21102500000 -0.088540137 -0.062527359 4.974745e-006 -9.6569493e-005 0.0031484708 0.0050062113 0.10150073 0.018364267
21123750000 -0.11586106 -0.12956575 -1.0281013e-005 -0.00019095224 0.0026330617 -0.0082031405 0.44526705 -0.26795518
21145000000 -0.046248917 -0.33677843 -0.00023365057 4.2367847e-005 -0.0075867898 0.0028302809 -0.079184704 -0.37182805
21166250000 0.056429256 -0.16543174 1.3128839e-005 -3.2827917e-005 0.0068145012 0.0013963735 0.12936367 0.37088138
21187500000 -0.036111955 -0.18946373 1.643199e-005 0.0001016298 -0.0048700571 -0.0037169734 0.095144823 0.098918632
21208750000 0.015200971 -0.37655085 -1.0035316e-005 -7.4308839e-005 0.0022724625 0.0067974683 0.15492724 0.080462851
21230000000 0.030871186 -0.22439294 0.00026707118 -0.00016714903 0.0059956466 -0.0067958543 -0.11679386 0.045166381
21251250000 -0.12739715 -0.43684229 -9.4378476e-005 0.00016592172 -0.0068521202 -0.00096674915 -0.0053308341 0.52934039
21272500000 0.16527046 -0.39040613 -0.00014158679 1.1037332e-005 0.0050848923 0.0017960841 0.15571269 0.014928411
21293750000 0.24861024 -0.18466428 2.2006296e-005 -7.4472024e-005 -0.0066960026 -0.0067483042 -0.71519864 0.36335495
21315000000 0.24489754 -0.301797 3.1740703e-005 6.5701897e-005 -0.0021797135 0.0082688006 -0.065165594 0.53967792
21336250000 0.30557728 -0.27385953 -9.438079e-005 -0.00012223127 0.0041400641 -0.0039144 -0.24031867 -0.031166332
21357500000 0.18486303 -0.2134206 -0.0001174818 -0.00012577284 -0.0057105934 0.003526266 -0.65339303 0.29228753
21378750000 0.085514992 -0.29658327 5.3029824e-005 0.00011574562 0.0073963543 0.0012356442 -0.36183941 0.35909572
21400000000 0.29711005 -0.26026836 -2.024276e-005 0.00012975953 -0.0044537904 -0.0057710763 -0.59996307 -0.080233201
21421250000 0.20512012 -0.11686148 6.9185458e-005 2.8408062e-005 -0.00064140471 0.0070917937 -0.73016977 0.12569697
21442500000 0.30628744 -0.21815862 8.6204149e-005 2.7816919e-005 0.0030882542 -0.0067653963 -0.59660447 0.17864384
21463750000 0.3416965 -0.023408838 -0.00027975978 -0.00011379513 -0.0085786078 0.0064529334 -0.28903127 0.070044048
21485000000 0.093450226 -0.05197978 9.104659e-005 -0.00013101017 0.0097010853 0.0026294496 -0.63968867 -0.34476933
21506250000 0.19928381 -0.11879448 -0.0001022443 0.00025833418 -0.0045785997 -0.0027293768 -0.53428835 0.086829476
21527500000 0.087846555 0.054442514 2.5746929e-005 0.00010284435 0.0044907182 0.0068627694 0.060323067 -0.24356358
21548750000 0.029375786 -0.080308676 -8.9800415e-005 -0.00018233144 0.0028098368 -0.0084710736 -0.8235454 -0.51732838
21570000000 0.18550245 -0.06190962 -1.3035477e-005 0.00010507739 -0.0039447173 0.0030582093 -0.20593318 0.087118484
21591250000 0.018703332 -0.033346392 0.0001179342 -7.097944e-005 0.0044061379 -0.0019997335 0.11556745 -0.37111586
