!Keysight Technologies,N5242B,MY47200105,A.14.00.23
!Date: Friday, May 10, 2024 11:14:53
!Correction: S11(C  2-Port  ) 
!S21(C  2-Port  ) 
!S12(C  2-Port  ) 
!S22(C  2-Port  ) 
!S2P File: Measurement: :
# Hz S  RI   R 50
18000000000 0.13855615 -0.02700004 6.3606538e-005 0.00012494584 -0.002089015 0.0034426092 0.87744266 -0.42285356
18021250000 0.063956484 -0.21989615 -3.1677595e-005 -0.00015934728 0.0014926788 0.0032197486 0.31926632 -0.19430779
18042500000 0.22557883 -0.090014346 -3.2090724e-005 -4.0960713e-005 0.0031416728 0.0009426435 0.49817103 -0.0527891
18063750000 0.14762954 0.019286653 7.5696451e-005 4.5289515e-005 0.0036125167 0.0011900165 0.40973535 -0.19091424
18085000000 0.21069947 -0.051958866 0.00016489293 -1.9192177e-005 0.0034478859 -0.0059542134 0.42600635 0.091685973
18106250000 0.34023038 -0.0052052708 -2.8221802e-005 -5.7946567e-005 -0.0023998017 -0.0013998243 0.47988084 -0.091018692
18127500000 0.2032862 -0.047204271 1.2189265e-005 0.00013354173 -0.0021940644 -0.0027058914 0.56833208 -0.20757553
18148750000 0.19700649 -0.042763848 -7.7510405e-005 -3.3540364e-005 -0.0018974761 0.0017014465 0.30434373 -0.36635232
18170000000 0.30474833 0.086707838 -4.669929e-005 -8.6704589e-005 -0.00048136894 0.0018357711 0.098110653 -0.12536266
18191250000 0.153971 0.19475374 -3.2539006e-005 2.425566e-005 0.0020472747 -0.00040282644 0.2740365 -0.088881969
18212500000 0.24719162 0.069553703 -2.3304987e-005 8.9335561e-005 0.0005126113 -0.00027348756 0.099719681 -0.12479146
18233750000 0.16051458 0.14717279 0.00012711079 -7.142713e-005 0.00051171344 -0.0029732317 0.3256577 -0.15362842
18255000000 0.027069269 0.061557267 -3.557013e-005 0.00021601671 -0.0029925087 -0.0022320685 0.43086532 -0.54236561
18276250000 0.14384243 0.010424267 -1.6648117e-005 -6.7262794e-005 -0.0036017115 0.00055043574 0.15177853 -0.46441415
18297500000 0.064679615 0.15738305 9.2829287e-005 -2.012722e-006 -0.0017522851 0.0022313078 0.078248367 -0.46364895
18318750000 0.028890066 0.12346146 2.2530356e-005 -1.4681887e-005 -0.0010286228 0.0031227092 0.11643628 -0.34435761
18340000000 0.072783962 0.085086673 -2.4726027e-005 2.4925703e-007 0.0019679486 0.0033309315 0.14178267 -0.24550115
18361250000 -0.12517703 0.10748523 0.00015249621 1.9313435e-005 0.003353805 -0.0003216175 0.36233753 -0.47597697
18382500000 -0.081294008 -0.022872772 4.6640795e-005 -9.2671595e-005 0.00068915705 -0.0011194086 0.39788947 -0.41252348
18403750000 0.0071212943 -0.017976822 6.6538654e-005 9.7500189e-005 0.0005967333 -0.0013207634 0.28228316 -0.67464203
18425000000 -0.033118058 0.018681198 6.9614442e-005 9.0426729e-005 -0.0021141944 -0.00021672118 0.072662272 -0.56298429
18446250000 -0.023780808 -0.12540089 -3.121675e-005 7.5830838e-005 -0.0011374007 0.002804603 0.50128245 -0.42272407
18467500000 0.018998003 0.0041126381 -7.5955621e-005 3.5755758e-005 0.0035726002 0.0018719157 0.26444957 -0.54773021
18488750000 -0.19447944 -0.03423712 -2.4015304e-005 1.5436548e-005 0.00014820261 0.00026853534 0.35771677 -0.38869384
18510000000 -0.086239442 -0.1548816 6.6801978e-005 -7.038546e-005 0.0060436092 -0.00064970599 0.50682241 -0.54311436
18531250000 -0.03036562 -0.016964495 -0.00011439375 -3.8430713e-005 -0.0011859473 -0.0045661987 0.37685326 -0.54407656
18552500000 -0.058351956 -0.19354616 7.5499731e-005 -1.6178443e-005 0.00071403233 -0.0019019457 0.28501323 -0.52894294
18573750000 0.081468433 -0.18757463 1.2803077e-005 -9.3522445e-005 -0.003254398 -0.0020588031 0.15910548 -0.19785231
18595000000 0.087241195 -0.069825858 0.00011361198 -5.6594916e-005 -0.0014198924 0.00029775203 0.43158576 -0.11558172
18616250000 0.046838049 -0.13974786 -4.504e-005 3.9774131e-005 -0.00094919041 0.00060640404 0.37823641 -0.46441334
18637500000 0.17329067 -0.10197145 -3.2786993e-006 -3.9124498e-005 -0.00033043665 0.0012617903 0.2652286 -0.16366006
18658750000 0.079828702 -0.065179959 3.1061973e-005 3.1512001e-005 0.0024112186 -0.00011120219 0.48924208 -0.49435091
18680000000 0.085602932 -0.20314236 0.00012400751 6.592532e-005 -0.00069215335 -0.0024821407 -0.032563727 -0.44730845
18701250000 0.2394647 -0.090544574 -5.9204252e-005 3.1918298e-005 -0.0015136839 -0.0013859603 0.22615226 -0.11160141
18722500000 0.13992842 -0.053904165 -5.0785031e-005 -0.00010199576 -0.0030366369 0.00050675683 0.16891919 -0.29745552
18743750000 0.22614592 -0.15211646 8.0653757e-005 3.1356241e-005 -0.0018237259 0.001638564 0.15346092 -0.25341034
18765000000 0.21379752 0.0805986 0.00012516187 -0.00011469067 -0.0011447729 0.003390088 0.18801802 -0.35686901
18786250000 0.079838961 -0.016145891 -6.415711e-005 -8.5457774e-005 0.0017267878 0.0039534573 0.054748092 -0.34669638
18807500000 0.23047453 -0.092932761 -3.6471909e-005 -8.4886569e-006 0.0038714886 -0.00033330912 0.032055151 -0.43323538
18828750000 0.13343289 -0.04544377 3.9279046e-005 0.00013526896 -0.00022162119 -0.0012769474 -0.022219677 -0.46261552
18850000000 0.14763021 -0.053396501 0.00014153641 0.00010979837 0.0019688222 -0.00053553126 0.1036037 -0.12344751
18871250000 0.23709856 0.089959525 -0.00016905103 0.00012154572 -0.0017614268 -0.0010776885 0.12608096 -0.59167665
18892500000 0.13463145 0.23407805 -2.9452221e-005 9.3238268e-005 -0.00058071141 0.00082077651 0.049848445 -0.43291005
18913750000 0.10565384 0.026595438 -6.0113994e-006 -2.1117428e-005 0.00107866 0.0017696837 0.20518576 -0.61215091
18935000000 0.082680255 0.0016285343 -6.0689614e-005 -0.00015119005 0.0021797246 -0.00027582233 -0.068965182 -0.68135315
18956250000 -0.039631721 -0.0071824519 -7.2388764e-005 -5.3435593e-005 0.0017507946 0.00074302481 -0.012499572 -0.50357813
18977500000 0.027765529 -0.067883156 4.146736e-005 -6.3481144e-005 0.0034285146 -0.00463014 0.1300036 -0.41827938
18998750000 0.073693216 0.16894187 2.3143126e-005 -1.4727277e-005 -0.0032395385 -0.0014855932 0.24984665 -0.52879846
19020000000 -0.044506568 0.13234004 9.3402436e-005 -0.00010621117 0.0004638471 -0.0026522262 0.1346605 -0.59439903
19041250000 -0.10039736 0.00087492453 -2.5803707e-005 -7.8179757e-005 -0.0042246501 -0.00077897107 -0.0026947432 -0.48939434
19062500000 -0.10381257 0.073398493 -7.5192525e-005 3.8375245e-005 -0.0017889224 0.0032000854 0.28340143 -0.61536366
19083750000 -0.07737051 -0.18055688 7.9333178e-005 -8.9597699e-005 0.0016026478 -9.6717733e-005 -0.04105442 -0.60719132
19105000000 0.087980382 -0.055418398 3.0628515e-005 -0.00012757551 -0.0014210182 0.0011254949 0.021877551 -0.2235117
19126250000 0.0606771 0.052563213 6.6758294e-005 0.00015369903 0.0019217914 -0.00091055239 0.45354295 -0.54767692
19147500000 -0.058939174 -0.046467438 1.1115408e-005 -6.2869804e-005 -0.0012124474 -0.0016121122 0.10565089 -0.58305919
19168750000 -0.12003524 -0.10470811 9.351255e-005 -0.00015170682 -0.0027213877 0.00045167061 0.15868224 -0.46721011
19190000000 -0.16583747 -0.19205014 -0.00013803935 2.7108477e-005 -0.00053628971 0.0014193216 0.13642454 -0.48428601
19211250000 -0.11024619 -0.2948567 0.00010109047 -1.3027212e-005 -0.0024154007 0.0025640435 0.19384062 -0.45025694
19232500000 0.13544409 -0.15692575 -5.2764e-005 2.2864651e-005 0.0034378772 0.0034153596 -0.098788641 -0.33825624
19253750000 -0.010116752 -0.10888029 -1.5246893e-005 -8.165278e-007 0.00026386735 -0.00026656975 0.30467641 -0.27587396
19275000000 0.043603551 -0.19333725 1.5245936e-005 2.3643617e-005 0.0038340816 0.00074976584 0.18285462 -0.52451134
19296250000 -0.0034357375 -0.13172296 1.2041319e-006 5.0668441e-005 0.00053135672 -0.0030956445 0.025883498 -0.39778647
19317500000 -0.13360523 -0.23123525 -5.2455343e-006 0.00015456903 -0.0012647546 -0.00026235715 0.20321068 -0.36394635
19338750000 0.19406527 -0.2951605 -0.00010150976 -3.3658205e-005 0.0012738119 -8.2727551e-005 -0.12950492 -0.53528976
19360000000 0.17997576 -0.20928988 0.00019674786 1.4505953e-005 -0.0024038553 -0.00033605593 -0.10775948 -0.20037843
19381250000 0.16117817 -0.23404747 0.000107596 1.0101798e-005 0.0030482649 0.0021851351 0.15956716 -0.31004342
19402500000 0.20026162 -0.13898112 6.9922426e-005 -1.6399687e-005 0.0008202797 -0.0014105397 -0.05303555 -0.37222186
19423750000 0.02649332 -0.16066423 -0.00011513259 -3.7461432e-005 0.0020777988 -0.0011048802 0.059159532 -0.47250587
19445000000 0.093340881 -0.16402778 5.0629122e-005 6.0317438e-005 0.00027878478 -0.0039859051 -0.21491949 -0.36999011
19466250000 0.26500455 -0.11380196 0.00013828842 -6.6963046e-005 -0.0032311245 -0.00044787128 -0.076001555 -0.36714301
19487500000 0.19544502 -0.060889345 -7.5369055e-005 0.0001213968 0.00033433188 -0.0023842996 -0.27313253 -0.47368807
19508750000 0.22981644 -0.16686945 -0.00015090615 6.1870393e-005 -0.0057766936 0.0014588984 -0.19686359 -0.084878415
19530000000 0.15171246 0.030585738 5.9524893e-005 1.7670374e-005 0.0020325435 0.0024675871 0.11974968 -0.41798428
19551250000 0.056355141 -0.023294413 0.00010653046 -1.0361803e-005 0.00031185846 -0.0010385225 -0.43820953 -0.72421604
19572500000 0.22367422 -0.037876081 -3.3824985e-005 5.1094867e-006 -0.00070385198 0.0021013014 -0.18276218 -0.23040743
19593750000 0.16165721 0.098016962 -4.3068911e-005 -0.0001792715 0.0024737997 -0.0033928212 -0.17524059 -0.62834454
19615000000 0.083363108 -0.022592496 -1.5903235e-005 0.00011305307 -0.0048392331 0.0010682266 -0.34431437 -0.41027161
19636250000 0.10996393 0.052358702 6.464959e-005 -1.6337035e-005 0.0011166999 0.00086290174 -0.1263281 -0.36439842
19657500000 -0.098558985 0.10373732 5.0762221e-005 -0.00010625846 -0.0030806595 0.00028350213 -0.17869242 -0.41352162
19678750000 0.0026782923 0.0084758187 -3.5077952e-005 1.9778738e-005 0.00011984263 0.0057908511 -0.074986473 -0.74107236
19700000000 -0.0060102488 0.089710876 -0.00022144621 9.1948867e-005 0.004579843 -0.00069464435 -0.37726471 -0.50509149
19721250000 -0.017339697 0.061292537 4.4858862e-005 0.00014848496 0.00017054101 -0.00023143025 -0.081330508 -0.33475929
19742500000 -0.14069843 -0.040500227 0.00013445644 6.890628e-005 0.0014472633 -0.00012243324 -0.14559218 -0.69449872
19763750000 -0.16896099 0.023280853 5.7262401e-005 0.00011872292 0.0014014012 -0.0027548624 -0.28853506 -0.34138525
19785000000 -0.21794315 0.062237661 1.438937e-005 0.00026912804 -0.0028374344 0.00027844007 0.21887143 -0.29178482
19806250000 -0.075767741 -0.077348895 1.7598779e-005 0.00016058772 0.0010261579 0.00011514652 0.013855873 -0.81765074
19827500000 -0.093401194 0.023637474 1.9919685e-006 -5.8205955e-005 -0.00040749004 0.0011011164 -0.055307668 -0.35782489
19848750000 -0.21640237 -0.12294362 7.9390724e-005 6.0907219e-006 0.002146086 0.00016609039 0.060528558 -0.41361588
19870000000 -0.12997854 -0.12821478 -0.00018491356 -9.8886128e-005 0.0016503559 -0.002507393 -0.024447352 -0.41072631
19891250000 -0.25368458 -0.17411363 7.9304191e-006 0.00013790173 -0.00068865053 -0.00057151396 0.13580151 -0.28827366
19912500000 -0.10074377 -0.32425821 -8.0778816e-005 0.00015790894 0.00024618188 -0.0040173307 0.1138083 -0.015739413
19933750000 -0.0091156391 -0.14895122 4.0105613e-005 -2.4798606e-005 -0.0035639876 0.00026227985 0.26464069 -0.47836113
19955000000 -0.10730644 -0.21575586 -0.00012483132 -0.00018920671 -0.0019582831 0.00022665413 -0.29933023 -0.36291707
19976250000 -0.15934294 -0.24395747 1.9052502e-005 -8.8681212e-005 0.00051849341 0.0028862681 0.057128351 0.029219782
19997500000 -0.1843995 -0.2290004 3.2643402e-005 0.00011067665 -0.00035046117 0.00058857526 0.033631835 -0.15714742
20018750000 -0.066074409 -0.27757415 -0.00012309592 5.3157321e-005 0.0015900986 -0.00038511577 -0.15100463 -0.0049727522
20040000000 0.163654 -0.3115353 -0.00013864879 -9.225784e-005 -0.00053808722 0.00059481867 0.043920416 0.23056483
20061250000 0.30993125 -0.080132127 -7.0532493e-005 -0.000122525 0.00013788119 -0.002926125 0.015289579 -0.26554382
20082500000 0.10800392 -0.05245512 -9.7038763e-005 -0.00013037215 -0.0042256592 0.0017985386 -0.34872574 -0.20730887
20103750000 0.14551999 0.0074211927 -0.00010002593 -5.5250526e-005 0.00071628951 0.0028451565 -0.33764395 -0.091757134
20125000000 -0.12926519 0.051767949 4.2071333e-005 0.00012757801 0.0002968054 8.2018589e-005 -0.35230142 0.10569588
20146250000 0.058513768 -0.17824084 0.00021630981 -0.0001541792 0.00046962491 0.0040866993 -0.28713852 -0.28279319
20167500000 0.28527644 -0.0759065 0.00014870775 -6.7520799e-005 0.004994676 -0.0014428027 -0.7970522 -0.15979438
20188750000 0.22005558 0.013190823 6.1122257e-005 -9.7430886e-005 -0.00078732579 -0.00016379645 -0.036832415 -0.11960195
20210000000 0.22726747 0.10662106 -8.8432089e-006 9.8111072e-005 0.0031207106 -0.0018853528 -0.57135719 -0.84317857
20231250000 0.025097214 0.36421731 0.00018371425 -9.3759241e-005 -0.0030138164 -0.0025413425 -0.75320786 -0.15171908
20252500000 -0.11971972 0.18565105 -3.485991e-005 2.710039e-005 0.00014235771 0.0030847967 -0.44544443 -0.43497318
20273750000 0.039454911 0.12182447 4.9373444e-005 8.8639244e-005 0.0010420381 -0.0021232031 -0.39909276 -0.37886459
20295000000 0.090671957 0.20999195 -6.0459424e-005 -5.2165204e-005 -0.0013269547 0.0031342329 -0.44273421 -0.47264916
20316250000 0.035826962 0.18378972 -0.00019106998 -3.3137461e-005 0.0054772077 -0.00067568145 -0.17578152 -0.55920726
20337500000 -0.11579175 0.25052249 5.2801519e-005 0.00012926557 -0.0021458701 -0.0050250296 -0.065823652 -0.79859734
20358750000 -0.31473872 0.36137742 0.00012625741 0.00016195195 0.00027797706 0.0014326981 -0.57143706 -0.69123489
20380000000 -0.33757377 0.091066919 8.7700473e-006 -3.8758371e-006 -0.0012846753 -0.0042154589 -0.30581495 -0.35903174
20401250000 -0.15626951 0.087318927 6.5196728e-006 -4.4735883e-005 -0.0046617561 0.0014851814 0.29709843 -0.67272007
20422500000 -0.23996107 0.053766049 -2.914082e-005 8.119725e-005 0.0012669459 0.0020084227 -0.19460224 -0.63009286
20443750000 -0.13773279 0.036781318 -0.00013142175 6.163436e-005 -0.0021263007 -5.1255382e-005 0.15705386 -0.19617777
20465000000 -0.26931337 0.22039996 -0.00036525849 0.00014890796 0.0021624474 0.0033067327 0.39141864 -0.82333356
20486250000 -0.38786194 0.071998768 -6.1121129e-005 -0.00011264507 0.00028782964 -0.0043964926 -0.31097141 -0.32364845
20507500000 -0.18862349 -0.026541129 -3.4842367e-005 -1.4560784e-006 -0.0020062199 0.0021720142 0.23223573 -0.10053507
20528750000 -0.14473729 -0.11080404 7.8095756e-005 -0.00011306816 0.0016825146 -0.0012878809 0.21951067 -0.15634692
20550000000 -0.095798269 -0.29284826 0.00011527118 8.9617744e-005 -0.0044252872 0.00034535141 0.1999722 -0.047064289
20571250000 -0.098028138 -0.151454 -8.4064348e-005 0.00011046987 0.002001144 0.0049252249 -0.011327202 0.049113017
20592500000 -0.11831661 -0.097094007 -8.2624036e-005 -9.315346e-005 0.00069736509 -0.0013953011 0.36403471 0.22649559
20613750000 -0.091962092 -0.18267126 0.00011175052 -1.5879061e-005 0.00094490912 0.0041457233 -0.23934881 -0.1686267
20635000000 0.26054007 -0.26649141 0.00017677632 -0.00010931626 0.0042921179 -0.0043433714 -0.41593918 0.58226943
20656250000 0.10183382 -0.2609902 -9.0825648e-005 -0.00012748654 -0.0015725052 0.0002309477 0.22248825 0.48069265
20677500000 0.19799834 -0.36020035 -7.9883743e-005 -3.8262893e-005 0.0013562436 -0.0025271846 -0.3007085 0.031056199
20698750000 0.25147218 -0.086471424 4.6817779e-005 0.00023603199 -0.0029906638 0.00068028091 -0.55523169 0.49599588
20720000000 0.11220624 -0.14097255 -4.1565399e-005 1.5364365e-005 0.00062817486 0.0015873857 -0.29250395 0.30443954
20741250000 0.36018899 -0.10656475 -1.8011331e-005 -8.7223896e-005 0.0014713865 -0.00096801604 -0.79809225 0.24396104
20762500000 0.36137035 -0.038874689 6.2296574e-005 -7.8232544e-005 0.0005356418 0.00076065795 -0.69550121 0.29299924
20783750000 0.24854109 -0.078390636 2.4977837e-005 -5.5308436e-005 0.0014400892 -0.0018274292 -0.49218598 0.34106499
20805000000 0.41032025 0.059445448 1.3553997e-005 7.447994e-005 -0.00033966886 -0.0027939419 -0.43364787 -0.063171327
20826250000 0.25920558 0.23301943 3.9325001e-005 -0.00014560673 -0.0020451208 -0.00033022542 -0.91028064 -0.22720811
20847500000 0.21203561 0.095867641 3.2067728e-005 -0.00014492121 -0.0011820255 -0.0019647512 -0.5925498 -0.03079845
20868750000 0.28297129 0.15536632 1.6377204e-005 8.788718e-005 -0.0039357515 0.002570855 -0.44621667 -0.75035453
20890000000 0.17081653 0.18556815 -0.00010943956 0.00025111073 0.0016055943 0.0019358107 -1.0526959 -0.34957081
20911250000 0.22488376 0.10347342 -6.6681673e-006 -0.00016674088 -0.00028147353 -7.8156882e-006 -0.38736168 -0.19848922
20932500000 0.20085132 0.29830882 -0.00014317875 -8.448404e-005 0.0010731785 0.001696202 -0.46531799 -0.74952114
20953750000 -0.043880224 0.35398674 0.00014293428 5.6069337e-005 0.001332728 -0.0027996011 -0.43124524 -0.62220484
20975000000 0.17334327 0.038903166 -0.0001181756 -0.0001661592 -0.0030755433 0.00063025387 -0.19916368 -0.55636847
20996250000 0.064423509 0.10475782 9.2390044e-005 -5.2841606e-005 0.000391304 0.00011304214 -0.16556492 -0.56941867
21017500000 -0.11457071 -0.023069413 0.00025184191 0.00011339055 -0.0029587606 0.00070082204 -0.14351904 -0.71612346
21038750000 -0.022679215 0.051435538 -7.4823314e-005 0.00012322767 0.0015785502 0.0049042855 -0.2119337 0.16461253
21060000000 -0.21747789 0.16555795 -8.7343644e-005 -1.7264107e-005 0.0024820217 -0.0018452578 0.58739769 -0.30906984
21081250000 -0.22082323 -0.03043469 6.1417654e-006 -0.0001188606 0.00083900889 0.0028024188 0.071891762 -0.60673344
21102500000 -0.079118855 -0.067591704 -4.6576377e-005 -0.00013499153 0.0036923171 -0.004210107 0.11069889 0.027395651
21123750000 -0.11334928 -0.14158052 -5.8186226e-005 2.679944e-005 -0.0029757754 -0.0010838568 0.45047429 -0.25075957
21145000000 -0.046512768 -0.35750502 -7.7811965e-005 4.310787e-005 0.00055069546 0.0003664812 -0.071455941 -0.34921888
21166250000 0.057816628 -0.16218366 2.7082384e-005 -9.9830497e-005 -0.00067003595 -0.00077323831 0.13486072 0.37998724
21187500000 -0.027551575 -0.18973155 -1.9242689e-005 -6.6690525e-005 -0.00066058181 0.0023408008 0.095133044 0.11203846
21208750000 0.035476319 -0.38423285 0.00010293903 5.9330814e-005 0.0028367219 -0.00027194156 0.15221576 0.095343418
21230000000 0.052575219 -0.22683807 -0.00015641036 -2.2123684e-005 0.00092894363 -0.0012349521 -0.11905596 0.058885284
21251250000 -0.12936246 -0.45864746 -0.00021037158 -0.00010730637 0.00059051887 -0.0024857915 -0.016926231 0.53095877
21272500000 0.17164572 -0.38609967 -0.0002051209 7.4516652e-006 -0.0021404435 -0.0019513656 0.13765502 0.028331656
21293750000 0.2520543 -0.16590868 0.0001059646 -6.6740344e-005 -0.0017323048 0.00039325593 -0.72273779 0.3648375
21315000000 0.25818798 -0.29577661 -5.7711663e-005 -0.00013980897 -0.0018618878 -0.00099095935 -0.08183746 0.54196
21336250000 0.32626513 -0.26625434 1.7380657e-005 2.8571392e-005 -0.0015875368 0.0043715835 -0.25379905 -0.02445906
21357500000 0.19089124 -0.21410698 0.0001358427 1.0275321e-005 0.0038783611 -0.0010616458 -0.66106313 0.28861612
21378750000 0.080833785 -0.29303038 2.7645709e-005 -1.2087343e-005 -0.0028195868 0.00031023251 -0.37092659 0.35058764
21400000000 0.29760724 -0.24551867 -3.1393309e-005 -3.1443822e-005 0.0048195333 2.8163944e-005 -0.60786092 -0.086635441
21421250000 0.19667746 -0.102709 -0.0001068053 -0.00015511716 -0.0051089809 -0.0029449579 -0.73289216 0.11327758
21442500000 0.3113074 -0.2172581 0.00011210309 0.00021063206 0.0013945098 0.0030329805 -0.59989834 0.16355881
21463750000 0.33841431 -0.017897217 -0.0001011217 -3.081718e-005 -0.0026852072 -0.0012304578 -0.29486433 0.059412621
21485000000 0.069405466 -0.053791285 -6.7862193e-006 -9.0433168e-005 0.00040269055 0.005096409 -0.6311723 -0.35479885
21506250000 0.19179688 -0.11078203 0.00019081378 8.7627894e-005 0.0036713113 -0.00063659652 -0.53189212 0.073032632
21527500000 0.067942254 0.069217637 -7.0938449e-006 7.7105127e-005 -0.00065402553 -0.0005437372 0.060059991 -0.25125611
21548750000 0.023076309 -0.083735496 4.0316481e-006 -8.1312595e-005 0.003037316 8.3377992e-005 -0.80489987 -0.52068526
21570000000 0.18835539 -0.073063672 6.8674774e-005 6.8178291e-005 6.587687e-006 -0.003245994 -0.19589652 0.079759382
