!Keysight Technologies,N5242B,MY47200105,A.14.00.23
!Date: Friday, May 10, 2024 11:17:55
!Correction: S11(C  2-Port  ) 
!S21(C  2-Port  ) 
!S12(C  2-Port  ) 
!S22(C  2-Port  ) 
!S2P File: Measurement: :
# Hz S  RI   R 50
18000000000 0.1458036 -0.028577751 1.1426549e-005 -0.00023211674 -0.00076156796 0.005323845 0.87351322 -0.42135265
18021250000 0.067069292 -0.21142542 4.3795837e-005 -5.519508e-005 0.0016333481 0.001622128 0.32045105 -0.19648005
18042500000 0.22862111 -0.095418885 -0.00012493528 -7.6836594e-005 0.0021505556 0.0019171162 0.49606556 -0.055912208
18063750000 0.1554819 0.020871911 -8.9779081e-005 -1.3873582e-005 0.0051709032 0.0004604859 0.40841728 -0.19232441
18085000000 0.20827417 -0.050500475 7.1747956e-005 8.5509382e-006 0.0018258608 -0.0062903152 0.42372358 0.088476829
18106250000 0.33916807 -0.010124775 -2.3098832e-005 -0.00013116165 -0.00093307282 -0.00097422977 0.47852793 -0.092279956
18127500000 0.20518659 -0.040929034 -2.8040011e-005 -9.4239389e-005 -0.0034308583 -0.0033093865 0.56457317 -0.2092877
18148750000 0.19420332 -0.04199513 1.2284312e-005 6.9788521e-006 -0.00099601387 0.0020438356 0.30358189 -0.36604387
18170000000 0.30285761 0.084080726 -4.289022e-005 9.9449797e-005 -0.00098058605 0.0020007768 0.099294245 -0.12993701
18191250000 0.15340677 0.19692229 5.9465903e-005 2.1197489e-005 0.002566088 -0.0012709361 0.27108118 -0.092106059
18212500000 0.23906447 0.067828849 4.9164129e-005 4.726378e-005 -8.9452682e-005 0.00057415297 0.099142119 -0.12754945
18233750000 0.16467232 0.14559464 -2.3298413e-005 -0.00015389307 0.001787995 -0.003414867 0.32330862 -0.15617022
18255000000 0.025448885 0.06753578 -3.4504643e-005 -9.242849e-006 -0.0044333106 -0.0021969953 0.42859975 -0.54300421
18276250000 0.13810419 0.0086829308 -7.6782693e-005 -7.5770447e-005 -0.0023023936 0.0011972034 0.15122549 -0.46621162
18297500000 0.064874768 0.156894 -2.2239108e-005 0.00013420779 -0.0024880345 0.0010371679 0.077821568 -0.46454656
18318750000 0.017586801 0.12440781 -7.6210886e-006 7.722804e-005 -0.0015980257 0.0043476797 0.11625525 -0.34667978
18340000000 0.068592347 0.079807118 4.2878015e-005 -0.00012112542 0.0034129214 0.0025362466 0.1410635 -0.24808785
18361250000 -0.12177657 0.10747506 1.6941262e-006 -5.1506526e-005 0.0007386806 0.00025606109 0.36197171 -0.47551507
18382500000 -0.085118979 -0.02513344 -1.3095841e-005 3.861207e-006 0.0032677781 -0.00054035179 0.39764467 -0.4151122
18403750000 0.0070695579 -0.023194058 5.2833369e-005 -0.00012261361 -0.0012968606 -0.0030632496 0.28272259 -0.67375278
18425000000 -0.033741903 0.015757406 -0.00012872124 9.7110933e-005 -0.0015660078 0.0021515249 0.074836574 -0.56321579
18446250000 -0.027396061 -0.12878332 -0.00019012876 -2.7736964e-005 -0.00013570926 -0.00043044699 0.49808919 -0.42405844
18467500000 0.023060489 -0.0031204962 -7.8071804e-005 5.6013328e-006 0.00084740185 0.0045679077 0.26452434 -0.54709768
18488750000 -0.19008455 -0.0363998 3.3412627e-005 6.3109724e-006 0.0038072318 -0.0011661983 0.35537848 -0.38822523
18510000000 -0.085788533 -0.16097032 -6.5132532e-005 3.2126106e-006 0.0019065794 -0.00042920391 0.5058437 -0.53968114
18531250000 -0.025065638 -0.022221062 -6.0064638e-005 -1.7306036e-005 0.0025543715 -0.0028445462 0.37613836 -0.54310811
18552500000 -0.062501438 -0.19108628 3.0485113e-005 -6.262122e-005 -0.0016429288 -0.0047880756 0.28356281 -0.52700323
18573750000 0.082637757 -0.19279994 -3.0987383e-005 -0.00012015649 -0.0024822755 0.0015128718 0.15923344 -0.1995074
18595000000 0.091411345 -0.069380276 2.3575618e-005 -3.7084283e-005 -0.00072032609 -0.0029153284 0.42701298 -0.11714467
18616250000 0.049485441 -0.13910069 1.7737377e-005 -3.3025444e-005 -0.0028408228 0.003176284 0.37593135 -0.46226954
18637500000 0.17447795 -0.10347664 -8.7275403e-006 -4.0425944e-005 0.001868302 0.000360512 0.26305625 -0.16601865
18658750000 0.082171418 -0.063034445 -3.7809874e-005 -2.4776689e-005 0.00018131014 -0.00056053081 0.48382235 -0.49265841
18680000000 0.084724717 -0.20208155 3.8930611e-005 4.6793717e-005 0.00055389159 -0.0010719589 -0.032435972 -0.44764504
18701250000 0.24072613 -0.09036354 0.00010279843 -3.3060984e-005 -0.0022747763 -0.0030181017 0.22146149 -0.11423277
18722500000 0.14450788 -0.050527699 6.0898976e-005 -8.0256723e-006 -0.0028836168 0.0018210141 0.16602738 -0.29834747
18743750000 0.22621481 -0.14813253 -9.7602822e-007 1.8303112e-005 -0.0015434936 0.0010022948 0.14995395 -0.25484329
18765000000 0.21635504 0.082270123 3.8046543e-005 1.7443685e-005 -0.0010411872 0.0026465848 0.18566461 -0.35651514
18786250000 0.079094343 -0.011076967 -5.0855891e-005 1.1897268e-005 0.0013481535 0.0049521183 0.054781772 -0.34870729
18807500000 0.22723526 -0.092535228 -1.6333659e-005 2.4867804e-005 0.0051272181 -0.0012844226 0.031771921 -0.43384343
18828750000 0.13710128 -0.041765925 6.7443863e-005 0.00015097921 -0.0019685961 -0.0010112458 -0.022247834 -0.46372807
18850000000 0.14771435 -0.052854404 3.539807e-006 2.3083956e-005 0.0042369696 0.00057107635 0.10188871 -0.12806082
18871250000 0.23772666 0.086817168 -2.5039546e-005 -6.0921334e-006 -0.0038489727 -0.0029387113 0.1253043 -0.58998817
18892500000 0.13596012 0.23246959 5.7203342e-005 -1.1165257e-005 0.0010735901 0.0037889413 0.050157536 -0.43387777
18913750000 0.1016778 0.02579885 -1.9082805e-005 -7.2858071e-005 0.00051139813 -0.0012799925 0.20338777 -0.61030149
18935000000 0.082370751 0.0011960979 -8.7859633e-005 9.4893992e-005 0.00090724474 0.002108617 -0.066825949 -0.68023658
18956250000 -0.036933836 -0.0065824701 3.8943323e-005 -3.845603e-005 0.0038812931 -0.0014989941 -0.012299255 -0.50406903
18977500000 0.028588742 -0.069308028 -8.6249929e-006 9.4138108e-005 -3.0358244e-005 -0.0033896782 0.12980376 -0.41913673
18998750000 0.075778835 0.16532433 -2.7912372e-005 -2.7254739e-005 6.2143037e-005 -0.0013669085 0.2475569 -0.52849609
19020000000 -0.04688843 0.13113004 3.8633014e-005 3.5394758e-005 -0.0019634964 -0.0030190444 0.13417141 -0.59276038
19041250000 -0.10080953 0.0040913993 -1.4651095e-005 2.6521844e-005 -0.00245856 0.00046049731 -0.001579748 -0.48927489
19062500000 -0.097703092 0.07307899 -2.1876804e-005 -0.00013470993 -0.0023772544 0.0017725547 0.28005862 -0.61381525
19083750000 -0.075239964 -0.1781937 9.0073103e-005 -0.00012472109 0.0018227122 0.00098316267 -0.04075399 -0.60468483
19105000000 0.089291014 -0.059480917 2.080901e-005 -6.6001194e-005 -0.0014833949 9.1848706e-005 0.020316411 -0.22548179
19126250000 0.059301559 0.052675825 -4.3888781e-006 -4.6799742e-005 0.00218889 -0.00078283239 0.44916403 -0.54342353
19147500000 -0.061286468 -0.043230362 -0.00013690586 -7.2882998e-005 -0.0021402759 -0.0012950079 0.10532077 -0.58054072
19168750000 -0.11428341 -0.10049272 1.1659073e-005 2.6283884e-005 -0.0015326955 0.00023721621 0.1575374 -0.46551642
19190000000 -0.16431907 -0.18828698 2.8664947e-005 0.00018547046 -0.0018864303 0.001166729 0.13475706 -0.48361632
19211250000 -0.10603373 -0.29425883 0.00011183 -6.2758707e-005 -0.00095451204 0.0035661212 0.18987772 -0.44913304
19232500000 0.1339045 -0.15818778 -4.771756e-005 3.6656427e-005 0.0026460802 0.0015839558 -0.098030262 -0.33867159
19253750000 -0.011689515 -0.10431205 0.00013672101 -7.05567e-005 0.00028387929 0.0019883926 0.2991811 -0.27724645
19275000000 0.044379093 -0.19046064 -8.7102089e-005 -0.00019035078 0.0044500865 -0.001166232 0.17989518 -0.52228862
19296250000 -0.0026020452 -0.12961145 -0.00017855497 4.9405819e-005 -0.0011428432 -0.0018762368 0.025001159 -0.39776856
19317500000 -0.1315407 -0.2307982 6.7520967e-005 -4.257137e-005 0.00080691389 -0.00045051923 0.19956912 -0.36462674
19338750000 0.18961291 -0.29954073 -4.6211039e-006 -0.00010874758 -0.00079069234 -0.0007883425 -0.12928475 -0.53402609
19360000000 0.17488769 -0.20819867 -3.0938336e-005 2.1347865e-005 -0.00096828118 0.0014727764 -0.10853093 -0.20304616
19381250000 0.15687877 -0.23218128 -7.1388553e-005 -4.1054405e-005 0.0023805352 0.00015732698 0.15705366 -0.30974326
19402500000 0.20227239 -0.13976775 6.4855667e-005 1.6558661e-006 0.00063359982 0.00083176076 -0.052862935 -0.37249523
19423750000 0.027127786 -0.1603324 3.2188789e-005 -3.5875673e-005 0.0030812167 -0.0031784945 0.057295877 -0.47078028
19445000000 0.091196857 -0.16961013 -2.2725806e-005 3.6158195e-005 -0.0012656344 -0.0030804782 -0.21330246 -0.37097898
19466250000 0.26103044 -0.11434285 0.00010650405 -3.3047134e-005 -0.0017114849 -0.00012558 -0.077959836 -0.36725295
19487500000 0.19213679 -0.063394621 -2.5602467e-005 -3.1929238e-005 -0.0012816914 -0.0032911743 -0.27244201 -0.4710069
19508750000 0.22950652 -0.16580726 -0.0001027843 -3.4791294e-005 -0.0041930052 0.0033923932 -0.1968547 -0.087173171
19530000000 0.15737624 0.030543737 -3.5259669e-005 5.1819221e-005 0.0010712655 0.0008897066 0.11536946 -0.41595796
19551250000 0.059573617 -0.02731763 6.3592333e-006 -0.00010034222 0.00094951963 0.00021019098 -0.43510094 -0.71962708
19572500000 0.22315541 -0.040284589 -0.00018052451 2.7497004e-005 -0.00064046204 0.0010251093 -0.18389708 -0.23179063
19593750000 0.16191612 0.097601578 -0.00010604688 2.7332906e-005 0.0020233428 -0.0025975863 -0.17603678 -0.62504262
19615000000 0.084522739 -0.021891739 -0.00013177401 6.5092878e-005 -0.0041809278 1.2482619e-006 -0.34481943 -0.41028515
19636250000 0.11367868 0.053395029 0.00020709742 -1.2376093e-005 0.00044963544 0.0022046769 -0.12756367 -0.36407423
19657500000 -0.093112879 0.10394049 -0.00015052575 -0.0001003875 -0.0021605359 -0.0012978732 -0.17941494 -0.41397324
19678750000 0.0030381815 0.0067154192 0.0001099083 -2.3592367e-005 -0.00081799238 0.0075516994 -0.078178473 -0.73821205
19700000000 -0.0045145415 0.093857087 -7.0301132e-005 -0.00014678699 0.0057291714 -0.0020349359 -0.3756443 -0.50427061
19721250000 -0.022029791 0.063931055 2.571227e-005 0.00010762821 -0.0012642354 0.00049881171 -0.084800214 -0.33686948
19742500000 -0.13536829 -0.03692035 -4.0916995e-005 -0.00012636739 0.0035749136 -0.00023473235 -0.14698377 -0.69187975
19763750000 -0.1675999 0.02900739 -0.00020017398 3.0837018e-005 -0.00089108321 -0.0034718323 -0.28801638 -0.34310961
19785000000 -0.21721624 0.061711051 -4.6334604e-005 -8.1357985e-006 -0.00090962631 0.0017176515 0.2145765 -0.29249373
19806250000 -0.077172086 -0.073816985 -5.3925232e-005 -1.3954715e-005 -0.00030817289 -0.0016389132 0.012872075 -0.81394213
19827500000 -0.09909039 0.027435148 9.9205638e-005 0.00010273022 0.00045853716 0.0032501875 -0.05585628 -0.35884461
19848750000 -0.21602069 -0.11894922 0.00014239554 9.6486423e-005 0.0023679079 -0.0015989962 0.05934963 -0.41330758
19870000000 -0.12765093 -0.12611341 6.1760627e-005 -8.3504849e-005 0.0010729848 -0.0012411741 -0.025150154 -0.40999129
19891250000 -0.25091681 -0.17369944 1.539762e-006 5.6175475e-005 0.00041695291 -0.0014051043 0.13406652 -0.2855303
19912500000 -0.10212474 -0.32383037 5.9236936e-006 1.0110944e-005 -0.0012852903 -0.0040514353 0.11419547 -0.017199861
19933750000 -0.010422727 -0.14813703 0.00012365427 0.00010374602 -0.0027938511 0.00057129888 0.26310489 -0.47449994
19955000000 -0.11256172 -0.21336329 4.83605e-005 -0.00017326522 -0.0029898621 -0.00074410811 -0.29550135 -0.35892409
19976250000 -0.15588233 -0.24582829 8.9168017e-005 8.3416111e-005 0.00029106924 0.0036029927 0.055693056 0.028741961
19997500000 -0.18090548 -0.22711079 0.0001387045 -0.00023640152 0.00021358811 -0.00043801064 0.032499462 -0.15380676
20018750000 -0.065919317 -0.28395504 -2.1422398e-005 -9.1142274e-006 0.00094113126 0.00080648577 -0.15112156 -0.0036137791
20040000000 0.16628437 -0.31429163 5.6796889e-006 -0.00010082848 0.00035507418 -0.00033187665 0.041141734 0.2314464
20061250000 0.30506948 -0.080883875 -3.2985801e-005 -3.1461874e-005 -0.00022226191 -0.0029468874 0.012406355 -0.26165578
20082500000 0.11157867 -0.053703673 -0.00010979226 0.00014389567 -0.0043622628 0.0022441875 -0.35019577 -0.20431393
20103750000 0.14846833 0.01017589 -8.5386862e-005 -0.00017202293 0.00091853581 0.002085316 -0.33933896 -0.08912722
20125000000 -0.12292417 0.053803518 1.4930025e-005 -4.4325789e-005 -2.1078942e-005 0.001027219 -0.35530847 0.10513418
20146250000 0.061129596 -0.17844044 5.335933e-005 7.2532798e-006 0.00060652167 0.0035043405 -0.2923834 -0.27813664
20167500000 0.28653747 -0.073206231 6.2067302e-005 6.648511e-005 0.0047760652 -0.0015623849 -0.79452491 -0.15898432
20188750000 0.21679565 0.01571274 0.00017932248 1.4870203e-005 -0.0001665372 0.00035063794 -0.044882737 -0.12049783
20210000000 0.22832662 0.10955641 6.9286471e-005 -0.00012225741 0.0025074715 -0.0026679379 -0.57347435 -0.83800346
20231250000 0.032115258 0.37291411 0.00012434841 7.8058503e-005 -0.0023822433 -0.0020141969 -0.75477076 -0.15454516
20252500000 -0.1187173 0.18999696 -8.5640444e-005 -2.6396633e-006 -0.00011108988 0.0028992966 -0.44823468 -0.43388623
20273750000 0.041281454 0.12408677 -3.457057e-005 -9.9173914e-005 0.00059905212 -0.0022297085 -0.40255579 -0.38035491
20295000000 0.085539758 0.21767181 -5.8162204e-005 -5.7533482e-005 -0.00020864456 0.0030104732 -0.4422386 -0.47296235
20316250000 0.032394312 0.18622582 1.4188447e-005 0.00016654849 0.0039934418 -0.0010965389 -0.17695791 -0.5599001
20337500000 -0.10907666 0.25883088 0.00022554021 -1.8643221e-005 -0.00096698804 -0.0050624562 -0.066839494 -0.79809839
20358750000 -0.31506264 0.36447775 0.00011221302 6.6941568e-005 -0.00058061333 0.0013224203 -0.56683064 -0.6906532
20380000000 -0.33809522 0.091155827 2.7793237e-006 0.00011750971 -0.00095442939 -0.0042276983 -0.30416903 -0.36306265
20401250000 -0.16194122 0.089882366 -4.9377628e-005 9.8766403e-005 -0.0042054788 0.0015991648 0.29450673 -0.6723851
20422500000 -0.25101525 0.055513848 4.0256706e-005 -5.6846191e-005 0.00052326295 0.0017180891 -0.1907216 -0.62816638
20443750000 -0.13895135 0.035387836 -0.00011689203 -3.3210075e-005 -0.00078956428 0.0005110249 0.15820321 -0.19832826
20465000000 -0.26679745 0.21991658 8.7945191e-005 -1.8974104e-005 0.0016688483 0.0022376738 0.39053121 -0.81759691
20486250000 -0.3922815 0.064442217 -3.2673575e-005 3.4493027e-005 0.00035762161 -0.0025759977 -0.30485085 -0.32215795
20507500000 -0.1907399 -0.033339374 -0.00014984739 -9.7865974e-005 -0.0017668779 -1.4860226e-005 0.23160498 -0.099123232
20528750000 -0.15265597 -0.10758644 5.2827796e-005 6.5755754e-005 3.8813447e-005 0.00096980052 0.21953069 -0.15311441
20550000000 -0.10162818 -0.2938945 -4.7656606e-005 6.469286e-005 -0.002373216 -0.0016488953 0.20127682 -0.042744447
20571250000 -0.085603818 -0.15097173 -5.0519287e-005 0.00010454041 -0.00070310925 0.0062924023 -0.0086120954 0.05263545
20592500000 -0.11807724 -0.098149441 -6.3227562e-005 6.0633261e-006 0.0037414252 -0.0018815028 0.36050868 0.22817554
20613750000 -0.087325335 -0.19048294 9.4233947e-005 0.00011145796 -0.0016693849 0.0035539696 -0.23879661 -0.16061831
20635000000 0.25802761 -0.26549554 1.5722477e-005 -3.4464894e-005 0.0065698074 -0.0025808236 -0.4155086 0.58130091
20656250000 0.10362309 -0.26056233 -7.5607721e-005 -4.1945397e-005 -0.0030517206 -0.0022488683 0.21528581 0.48353985
20677500000 0.2087867 -0.35998267 2.5026111e-005 -9.8595301e-005 0.0026068855 0.0001808465 -0.30298498 0.037137359
20698750000 0.26186606 -0.086200267 3.4230798e-005 -0.00019706142 -0.0038156915 -0.0014315831 -0.55837983 0.49696001
20720000000 0.11702719 -0.13910581 -0.00017338758 -1.7585447e-005 0.0012479157 0.0029753337 -0.29797256 0.30639982
20741250000 0.36146039 -0.10995694 -0.00010327328 -0.00021162281 0.0011667756 -0.0014283165 -0.8022936 0.24767035
20762500000 0.36099228 -0.032092348 -4.2729509e-005 -0.0001657487 0.00046949074 0.00097910082 -0.69969022 0.29186583
20783750000 0.25124747 -0.076037914 -0.0001089802 7.0889968e-005 0.0015458815 -0.0023400255 -0.49737158 0.33692992
20805000000 0.41615316 0.06176161 8.2577817e-006 -6.5341257e-005 -0.00014973005 -0.001603319 -0.44018689 -0.063837051
20826250000 0.26264319 0.2355184 -3.0334591e-005 -0.00012151525 -0.0022900496 -0.0023088893 -0.90994036 -0.22922243
20847500000 0.21076494 0.097756848 5.1586092e-005 -2.5316047e-006 -0.0015680778 0.00043380313 -0.59463799 -0.036318067
20868750000 0.28022689 0.16500685 9.6099029e-005 -1.6630316e-005 -0.0029698734 0.00084119948 -0.45213389 -0.75231576
20890000000 0.16518681 0.19264841 6.0696715e-005 0.00015356374 -0.00018681803 0.0021970109 -1.0472857 -0.35577017
20911250000 0.22095954 0.10387705 8.9639805e-005 -5.7174781e-005 0.0026148749 0.00055200583 -0.38963023 -0.20304228
20932500000 0.19701101 0.29939318 0.00018588301 0.00027178242 -0.0025041311 -0.00057372532 -0.46273232 -0.74916118
20953750000 -0.053718407 0.35084724 -0.0001434689 -0.00027736524 0.0035775905 -0.00026766051 -0.42809933 -0.62125766
20975000000 0.1591979 0.04212334 2.960683e-005 2.5399919e-005 -0.0040766071 -0.0023150982 -0.19461647 -0.5562588
20996250000 0.053576376 0.11079402 -0.00013724211 -0.00016142539 -0.00014322053 0.0036383988 -0.16288328 -0.5709061
21017500000 -0.11953922 -0.021303233 3.9813229e-005 -0.00014436372 -0.0001878101 -0.0015902088 -0.1403005 -0.71083087
21038750000 -0.020827392 0.048479371 2.2754743e-005 8.1344377e-005 -0.001980514 0.0062509123 -0.20663519 0.15998645
21060000000 -0.21940005 0.15961164 -0.00012974463 0.0001723974 0.0065023974 -0.0011466841 0.58404869 -0.30698073
21081250000 -0.22780484 -0.036384527 -0.00034481089 -2.8278233e-005 -0.0031016557 0.00075865421 0.075847276 -0.59908628
21102500000 -0.083011791 -0.067681745 0.00011326429 8.1435101e-005 0.0065971101 -0.0010793664 0.11357301 0.028003724
21123750000 -0.11874114 -0.14543447 0.00024758812 0.00012487543 -0.0049947337 -0.0044258381 0.44911739 -0.24389979
21145000000 -0.041633312 -0.36344501 0.00032790095 0.00013206084 0.0008107943 0.0037345646 -0.068160452 -0.34124061
21166250000 0.065000519 -0.16816309 4.2333882e-006 -4.0480489e-005 -0.000388766 -0.0034013514 0.13652228 0.38158727
21187500000 -0.028103953 -0.19793858 4.7931007e-005 0.00013536618 -0.0012474047 0.0041264175 0.095842734 0.11541919
21208750000 0.041184328 -0.38702759 5.1281197e-005 8.5164698e-005 0.0030505413 -0.0016798183 0.14973348 0.099647053
21230000000 0.053955067 -0.2293818 -2.86743e-005 -0.00012419155 0.0011082349 0.00023525667 -0.1193058 0.064007774
21251250000 -0.11931204 -0.46057838 0.00010990961 0.00015322785 -0.00072645087 -0.0041994518 -0.020459091 0.5281294
21272500000 0.17859697 -0.39327571 0.00020802645 8.8926303e-005 -0.00081668777 0.00072629657 0.13010719 0.032381039
21293750000 0.25313231 -0.1733496 4.4829452e-005 0.00016911853 -0.0021368426 -0.0029399078 -0.72208822 0.36492956
21315000000 0.25893292 -0.29534078 2.124441e-005 -0.00012756418 -0.002918605 0.0030182961 -0.087465324 0.54108214
21336250000 0.32657778 -0.25799531 -9.1836366e-005 -0.0001667443 0.0018246295 0.0001450354 -0.25760037 -0.020170547
21357500000 0.18884516 -0.20745796 6.0924624e-005 0.00012695222 -0.0016521622 0.0030765468 -0.66241264 0.28781441
21378750000 0.089156859 -0.29264301 -5.0100181e-005 1.8960422e-005 0.0030259879 -0.0018636046 -0.37355107 0.34808856
21400000000 0.29801816 -0.23970351 2.2978086e-006 -0.00014289808 -0.0020481655 0.00047988823 -0.60910517 -0.087669007
21421250000 0.19543824 -0.10108515 -1.0925815e-005 -6.8630259e-005 0.0011944985 0.00014996389 -0.73350501 0.11010347
21442500000 0.3096225 -0.20795842 0.00015788287 -8.5863059e-005 -0.0027934404 -0.0024068223 -0.60009527 0.15808398
21463750000 0.33247861 -0.0095140757 9.0323854e-005 7.0734495e-005 -6.5170258e-005 0.0056381929 -0.29854986 0.055836353
21485000000 0.069356441 -0.051696833 0.00022531682 -4.2288546e-005 0.00058969419 -0.0015843585 -0.62791824 -0.3546612
21506250000 0.18950629 -0.10770863 1.2144282e-005 0.00010817086 0.0019126621 0.0042495984 -0.52977687 0.068383321
21527500000 0.064615585 0.069167316 0.00018531404 -0.0003059649 0.0034998173 -0.0030446618 0.05469317 -0.25245118
21548750000 0.0169066 -0.084543645 -0.00011968173 0.00020523861 -0.0015804636 0.00047246346 -0.79636037 -0.51686919
21570000000 0.1812287 -0.069076806 -5.0641785e-005 -8.5684202e-005 0.0038512491 -0.0019642722 -0.1946899 0.07632412
