!Keysight Technologies,N5242B,MY47200105,A.14.00.23
!Date: Friday, May 10, 2024 11:00:00
!Correction: S11(C  2-Port  ) 
!S21(C  2-Port  ) 
!S12(C  2-Port  ) 
!S22(C  2-Port  ) 
!S2P File: Measurement: :
# Hz S  RI   R 50
18000000000 0.12405152 -0.011351809 -0.00010571344 8.7653068e-005 -0.0016628824 -0.012155453 0.89586765 -0.42895111
18021250000 0.044639777 -0.22998099 0.00012192085 -6.3800617e-005 -0.0062147775 0.015858345 0.31265 -0.18745221
18042500000 0.21586213 -0.075199775 -5.9246704e-005 -8.7619577e-005 0.016626749 -0.0068423091 0.50515717 -0.039557878
18063750000 0.13506688 0.02244704 -6.7233418e-006 0.00016410017 -0.011449122 0.0016840731 0.41802594 -0.18559319
18085000000 0.20540735 -0.059458099 -0.00026127879 -4.9099232e-005 0.016572924 0.0011261189 0.43572843 0.10030559
18106250000 0.33588496 0.0010778417 1.5517671e-005 9.7796372e-005 -0.010778226 -0.01446554 0.48544651 -0.088047445
18127500000 0.18742783 -0.056262746 9.6505173e-005 -4.2509117e-005 -0.0010651803 0.013185219 0.58106279 -0.20231463
18148750000 0.18427628 -0.047063418 2.325957e-005 0.00015860765 0.0043407944 -0.012630507 0.30578285 -0.36819172
18170000000 0.30236733 0.09101741 -7.3832183e-005 -9.8124525e-005 -0.012669858 0.011446998 0.095098376 -0.10630184
18191250000 0.13696466 0.19731453 6.4416468e-005 9.8271312e-006 0.017515523 -0.0032450235 0.28776896 -0.071219824
18212500000 0.25248 0.072977528 3.6533049e-005 6.928332e-005 -0.014084896 -0.0055644661 0.10480679 -0.1129223
18233750000 0.14908284 0.15494332 -6.6905894e-005 0.0001396163 0.010765363 0.0086853532 0.33232421 -0.14686388
18255000000 0.0094956318 0.060777754 6.9387468e-005 -0.00011834216 -0.0067579793 -0.018015217 0.44024485 -0.53698921
18276250000 0.14451021 0.01353825 0.00010727948 1.9490564e-005 -0.0078427922 0.015406827 0.15557554 -0.45934147
18297500000 0.058108348 0.17576739 -3.0820549e-005 -0.00011834439 0.0088668847 -0.008709874 0.076558702 -0.45809427
18318750000 0.042879745 0.13611013 -2.3542212e-005 -1.748861e-005 -0.016168769 0.0071391417 0.11578664 -0.33397815
18340000000 0.093671747 0.096198112 0.00010264928 0.00020459451 0.016702896 0.0077992044 0.14272694 -0.23428994
18361250000 -0.12287796 0.11107697 -2.8258519e-005 6.8323621e-005 -0.0082125431 -0.011151854 0.36046627 -0.47974405
18382500000 -0.076146178 -0.024220064 1.92852e-005 8.3075523e-005 0.005163468 0.013883017 0.39420068 -0.40134352
18403750000 0.0049396567 -0.0052867681 7.5718868e-005 0.0001475005 0.004128973 -0.016539294 0.27780637 -0.67573035
18425000000 -0.031841673 0.035210054 -0.00012387286 -2.1366774e-005 -0.012536857 0.010754056 0.062031515 -0.5638361
18446250000 -0.015577451 -0.12125279 3.3102286e-005 -5.1594016e-005 0.014740698 -0.0023486384 0.50938922 -0.41833282
18467500000 0.018396314 0.019601397 -2.5620324e-005 -0.00015079809 -0.012404836 -0.0011747988 0.26671216 -0.55073792
18488750000 -0.21137114 -0.0277123 -9.2892624e-006 -3.748055e-005 0.012360081 0.010673144 0.36497253 -0.39507744
18510000000 -0.087848149 -0.14975862 1.4438433e-006 0.00015201008 -0.00047202405 -0.015962806 0.50799644 -0.55718791
18531250000 -0.032792404 0.00031664822 -1.4843241e-005 9.2267862e-007 -0.0033409609 0.010920795 0.37980366 -0.55040044
18552500000 -0.052999951 -0.19563502 -2.3859177e-005 -0.00014241248 0.0099860812 -0.01356814 0.288515 -0.53879756
18573750000 0.092501931 -0.19344583 7.3408322e-005 6.4201085e-005 -0.017366227 0.002942184 0.15781684 -0.19330014
18595000000 0.079874732 -0.081811666 -0.00022542356 9.1505157e-005 0.013677756 0.002798982 0.44648814 -0.10802056
18616250000 0.027494263 -0.15706412 -4.6475932e-005 0.00012599232 -0.01299459 -0.0083024595 0.3888413 -0.47383687
18637500000 0.16200012 -0.10561686 -6.5907079e-005 6.6990877e-005 0.00485325 0.01520671 0.27312109 -0.15489702
18658750000 0.065694012 -0.063215174 2.8110302e-005 -4.8196365e-005 0.0045159399 -0.015015465 0.51045877 -0.49825796
18680000000 0.079948835 -0.21008301 3.84501e-005 -0.00010563232 -0.0096235415 0.0087446198 -0.030059149 -0.44331673
18701250000 0.23333126 -0.090065807 -3.9492064e-005 3.633439e-005 0.011689164 -0.0065609543 0.24513353 -0.098402597
18722500000 0.12265407 -0.055740453 4.023849e-005 3.481071e-005 -0.016844027 -0.0018150349 0.18489668 -0.29061127
18743750000 0.22228697 -0.16432336 -6.3698884e-005 -6.8240355e-005 0.0086607458 0.010538374 0.1664069 -0.24869516
18765000000 0.20991853 0.089664966 -2.6343625e-005 -6.9274196e-005 -0.005768979 -0.010226857 0.19484854 -0.35416967
18786250000 0.081428327 -0.019326529 -9.3284616e-005 4.9238617e-005 -0.0010458215 0.017653748 0.054346688 -0.33562717
18807500000 0.24379012 -0.094236329 2.8584884e-005 4.4110515e-005 0.013508707 -0.010775249 0.031976175 -0.42430699
18828750000 0.12750688 -0.048339073 4.0148978e-005 -9.3264309e-005 -0.013873806 0.0028556886 -0.025083074 -0.45376363
18850000000 0.14077374 -0.046924029 0.00014122557 -3.3891185e-005 0.016072651 0.0034266843 0.10781474 -0.099256516
18871250000 0.24622919 0.11246868 1.7112576e-005 -3.1459604e-005 -0.012618077 -0.010256076 0.12734446 -0.59199989
18892500000 0.14478737 0.25233027 4.222456e-006 4.1985975e-005 0.0044864374 0.014274187 0.044104818 -0.42601961
18913750000 0.12619665 0.036061414 -6.3712258e-005 -7.8991849e-005 0.0031596748 -0.012524664 0.20278907 -0.61347675
18935000000 0.09743356 0.0034707123 -0.00011590248 -0.00010332878 -0.0065969201 0.010365711 -0.081872255 -0.68181419
18956250000 -0.048285063 -0.010018392 -5.5985594e-005 -1.5586545e-005 0.014626603 -0.0040254318 -0.018721983 -0.5016731
18977500000 0.021620307 -0.063682921 -3.8795974e-005 5.0025421e-005 -0.010511295 -0.006751203 0.12681217 -0.41229004
18998750000 0.071680441 0.18878874 6.5281594e-005 -4.510373e-005 0.0073381253 0.0071929954 0.25558907 -0.53156728
19020000000 -0.032621082 0.143874 -4.2441745e-005 -3.0762771e-005 -0.0039091692 -0.014187937 0.13180275 -0.60231662
19041250000 -0.092378877 -0.013534844 0.00010073091 -2.2824168e-005 -0.0066377856 0.011466557 -0.010315076 -0.49180374
19062500000 -0.12500548 0.072129622 5.8057136e-005 8.8405635e-005 0.0067508915 -0.0066651162 0.29306892 -0.62184489
19083750000 -0.096016303 -0.18605095 0.00012006448 -0.00017138351 -0.010179854 0.0031482566 -0.040715069 -0.61747628
19105000000 0.073550545 -0.042904269 -4.8928501e-005 6.4512053e-005 0.010617423 0.0044600642 0.027818246 -0.219641
19126250000 0.055471383 0.063451387 2.0535435e-005 -3.4396351e-005 -0.0063849567 -0.010131696 0.4744564 -0.57063437
19147500000 -0.065411158 -0.050356291 -5.3135747e-005 -0.00022255535 0.00088223588 0.0098628802 0.10867787 -0.59772104
19168750000 -0.13730313 -0.10749604 1.319368e-005 8.4514373e-005 0.0015843789 -0.010090797 0.16364001 -0.47517899
19190000000 -0.17995474 -0.1932303 -2.1458975e-005 6.7745736e-005 -0.010395694 0.008249511 0.14582229 -0.48496053
19211250000 -0.12785469 -0.29520935 1.4940122e-005 4.0899267e-006 0.0099703372 0.0019496004 0.21001041 -0.45551866
19232500000 0.14592741 -0.139449 1.2818735e-005 -8.2737761e-006 -0.0077309948 -0.0028396926 -0.10002187 -0.33507541
19253750000 -0.0029319595 -0.11548567 -6.4480162e-005 -1.8067281e-005 0.007227005 0.011408057 0.32801202 -0.27002457
19275000000 0.049503207 -0.20620438 -3.6705667e-005 0.00010691411 0.0031984372 -0.012099417 0.19402793 -0.53132927
19296250000 -0.00094097306 -0.13541593 2.9409959e-005 9.0050315e-005 -0.0067278459 0.0086837886 0.029674644 -0.39509088
19317500000 -0.15010498 -0.23869871 -0.00027353552 -0.00010861315 0.011632581 -0.0066317427 0.21509007 -0.35637957
19338750000 0.20477517 -0.28245491 8.4127001e-005 5.4019591e-005 -0.012733695 -0.00092496374 -0.12717152 -0.53401512
19360000000 0.1945198 -0.19989242 9.8246746e-005 7.7874618e-005 0.010307793 0.0082973875 -0.10793655 -0.19051628
19381250000 0.17656624 -0.23730831 7.7230536e-005 2.0678479e-005 -0.0039707758 -0.011237795 0.16835295 -0.30426705
19402500000 0.20497669 -0.13814434 -4.6472171e-005 4.6766363e-005 -0.00038999479 0.014449065 -0.05366113 -0.36874732
19423750000 0.019667296 -0.15895353 -4.5495221e-006 4.4204171e-005 0.011168222 -0.014736827 0.059490375 -0.47678587
19445000000 0.098388679 -0.15463622 -0.00012510212 2.1132595e-005 -0.014945476 0.0029180422 -0.22612007 -0.36232927
19466250000 0.27559781 -0.11498006 3.0558145e-005 -3.8455335e-005 0.01335226 5.6345492e-005 -0.07073921 -0.36286098
19487500000 0.1913719 -0.059825815 -0.00012690036 -1.0854298e-005 -0.013601674 -0.011364389 -0.27783397 -0.47967729
19508750000 0.22420309 -0.17468584 0.00012101355 -5.3172513e-005 0.0024248227 0.017600637 -0.20036249 -0.075326674
19530000000 0.1290873 0.038634021 8.9479603e-005 -0.00012004083 0.0019615781 -0.014633759 0.13020347 -0.42618403
19551250000 0.036393926 -0.0090814773 0.0001416508 -3.5767131e-005 -0.0088196741 0.013092001 -0.45374981 -0.7406401
19572500000 0.22103624 -0.022237547 0.00011613312 -5.016027e-005 0.014494641 -0.0063074408 -0.18331084 -0.22644672
19593750000 0.15904479 0.11669682 0.00024903592 0.00018039423 -0.014751262 -0.0029136033 -0.17770517 -0.6353128
19615000000 0.087767571 -0.028006278 7.4702339e-006 4.2612875e-005 0.0095397988 0.0096356645 -0.34360057 -0.41228729
19636250000 0.10201847 0.04117376 -9.7996945e-006 -5.2425894e-005 -0.0070303543 -0.013418934 -0.12693353 -0.36528453
19657500000 -0.12721109 0.093076698 3.1322204e-005 3.8456095e-005 -0.0035053373 0.016081328 -0.17601912 -0.40837672
19678750000 -0.0078321276 0.0075710011 0.00012487466 -9.4421128e-005 0.0085731847 -0.0063028913 -0.065357707 -0.74954325
19700000000 -0.009757787 0.089782849 2.786868e-005 -8.5031774e-005 -0.0092333909 0.0051814062 -0.38502505 -0.50376654
19721250000 -0.011837666 0.054825976 7.2280454e-005 8.7514316e-005 0.016012488 0.0017544718 -0.070837446 -0.32326043
19742500000 -0.15031885 -0.051558506 -7.2232084e-005 5.4403718e-005 -0.010299108 -0.010377156 -0.1426926 -0.70175779
19763750000 -0.17457376 0.017310532 4.3889355e-007 1.704201e-005 0.0062463642 0.012638677 -0.2924408 -0.33417192
19785000000 -0.22729348 0.063462347 7.5884411e-005 0.00012550074 -4.0589337e-005 -0.016342252 0.23029622 -0.28271967
19806250000 -0.063718572 -0.081372797 -0.00013372535 -3.4195989e-005 -0.010704866 0.011828191 0.016637545 -0.82901078
19827500000 -0.078686103 0.021917807 -0.00017649289 -2.1274263e-005 0.016194792 -0.0039773379 -0.058046654 -0.35331336
19848750000 -0.21479657 -0.12923157 -0.0001706201 -2.3086295e-005 -0.015234982 -0.0035167981 0.063628942 -0.41121835
19870000000 -0.12691392 -0.12279691 -0.00015655029 -0.00022363722 0.015471698 0.009930958 -0.024509776 -0.41241091
19891250000 -0.25966841 -0.16483386 6.0568149e-005 1.6292477e-005 -0.0071327314 -0.018155448 0.13610195 -0.29736903
19912500000 -0.079156443 -0.31856376 -0.00012540436 1.9239702e-005 -0.0029747842 0.015534307 0.1079533 -0.0085593276
19933750000 0.013026851 -0.13614652 0.00010666073 4.1255298e-005 0.0083032828 -0.014344865 0.265719 -0.49271995
19955000000 -0.080951653 -0.21636823 0.00019865831 5.3406784e-005 -0.020113517 0.0063412604 -0.31773165 -0.37811413
19976250000 -0.14884013 -0.24975622 0.00010425561 0.00010808249 0.019300913 0.0054292623 0.056260429 0.029190116
19997500000 -0.19362062 -0.22831286 2.0629242e-005 -0.00011774027 -0.015445459 -0.010693453 0.033966444 -0.16638494
20018750000 -0.07198678 -0.26747066 8.3911698e-005 -0.00012498506 0.0098437704 0.017401023 -0.1496976 -0.013757352
20040000000 0.16680309 -0.30970269 0.00013803069 -0.0001228107 0.0011797561 -0.019702466 0.048852969 0.22728504
20061250000 0.31769529 -0.074300066 6.2338157e-005 -8.9115085e-005 -0.010990376 0.011858498 0.024781648 -0.27857882
20082500000 0.090062395 -0.064267263 -0.00014769188 -0.00017036479 0.01342392 -0.0055884519 -0.34248608 -0.22198275
20103750000 0.13070764 0.0080082724 0.00022318805 0.00013382641 -0.018112451 0.0010162621 -0.32930258 -0.098751307
20125000000 -0.1657268 0.049975906 -0.00010612369 -1.2464658e-005 0.015327821 0.011563824 -0.33928934 0.1075864
20146250000 0.041565109 -0.18704312 7.2434545e-005 0.00014604749 -0.0064913323 -0.012782629 -0.26737952 -0.2961612
20167500000 0.27973911 -0.070826963 -3.5612822e-005 3.0297775e-005 0.00165687 0.017361265 -0.80147564 -0.15926398
20188750000 0.21173978 0.00065439357 0.00012762212 7.5878859e-005 0.010181297 -0.013868362 -0.0050625661 -0.1134143
20210000000 0.22299272 0.088228434 -0.00015543991 0.00011530997 -0.013808261 0.0024828233 -0.5640198 -0.8511132
20231250000 -0.010496889 0.34937784 -0.00025886568 -9.890701e-005 0.014256989 0.0016217026 -0.74537933 -0.13319826
20252500000 -0.15374054 0.17357968 0.00012694694 5.3276031e-005 -0.012485837 -0.0085583851 -0.43572831 -0.4300918
20273750000 0.035776272 0.12691601 7.9518621e-005 -2.5985792e-005 0.0055896863 0.014262731 -0.38531515 -0.36829621
20295000000 0.093377151 0.20967263 -6.2250529e-006 -6.1598286e-005 0.0037106343 -0.013085861 -0.45356265 -0.46781829
20316250000 0.043423906 0.17732702 5.7707217e-005 1.9085971e-006 -0.0058648642 0.011198113 -0.1738589 -0.54548883
20337500000 -0.11295525 0.24099042 -3.9137358e-006 1.7628938e-005 0.014505736 -0.0073298253 -0.067568071 -0.79272419
20358750000 -0.31524894 0.36392546 3.5452496e-005 -2.5719437e-005 -0.015940616 -0.0044134706 -0.59782499 -0.68215919
20380000000 -0.31919721 0.078502901 5.9651251e-005 0.00027512107 0.010051172 0.0082094716 -0.32121009 -0.33857876
20401250000 -0.13335708 0.087978199 -6.9888374e-005 1.411826e-005 -0.0069442801 -0.015114877 0.29679158 -0.6724453
20422500000 -0.22554538 0.047793869 -0.00014073902 0.00011566678 -0.0049214289 0.016778599 -0.2166367 -0.6342594
20443750000 -0.11849526 0.0334296 6.3124542e-005 -4.1976666e-005 0.010825687 -0.010354487 0.14592533 -0.18448384
20465000000 -0.26690382 0.24014892 -1.5724701e-005 -2.9143746e-005 -0.014252434 0.0035433883 0.39162716 -0.84401691
20486250000 -0.38114059 0.080355614 -5.7795529e-005 -4.2076026e-005 0.015530962 0.0028731802 -0.3387855 -0.33363333
20507500000 -0.1724963 -0.0057891854 -2.6140597e-005 -3.6689984e-005 -0.012046473 -0.011326008 0.22831859 -0.11117987
20528750000 -0.13807099 -0.096019 -9.5262592e-005 0.00012074415 0.0028266641 0.015451926 0.21753195 -0.17562847
20550000000 -0.097930975 -0.28989089 0.000219115 -5.5674929e-005 0.0019982301 -0.014862849 0.19399473 -0.070852473
20571250000 -0.12188444 -0.13081387 2.8774801e-005 -0.00011784791 -0.011936665 0.014938938 -0.021642797 0.029144244
20592500000 -0.13433948 -0.079774968 -4.4772045e-005 0.00015762709 0.01725941 -0.0029639157 0.37527058 0.21760406
20613750000 -0.10460375 -0.17649534 1.5158525e-005 8.2506172e-005 -0.014657211 -0.0028678391 -0.23974697 -0.20165055
20635000000 0.26579314 -0.26181373 0.00017458604 4.409529e-005 0.015957288 0.0099173505 -0.41123369 0.58065277
20656250000 0.069307163 -0.26161674 -0.00016021391 -3.4057219e-005 -0.0028530245 -0.016196031 0.25743523 0.46924067
20677500000 0.17081968 -0.35551083 2.126652e-005 8.0735488e-005 -0.0051595839 0.013181037 -0.28600916 0.004300457
20698750000 0.22437412 -0.06948965 -0.00019513548 2.1389484e-005 0.011123213 -0.010355239 -0.53721285 0.49548227
20720000000 0.084794477 -0.15057474 -7.4995085e-005 -9.423833e-006 -0.015499462 0.0031384248 -0.26337427 0.30220497
20741250000 0.35216051 -0.1073414 -0.00016898247 4.0414168e-005 0.017957639 0.005768531 -0.77654445 0.23588851
20762500000 0.34196898 -0.040275559 -1.5064456e-006 -9.7324446e-005 -0.0085004084 -0.013929255 -0.68069649 0.30264455
20783750000 0.22809687 -0.084311977 -7.7221332e-005 8.9963478e-006 0.0017659109 0.013772169 -0.46430945 0.36215991
20805000000 0.40435141 0.056232128 6.3216437e-005 3.0971478e-006 0.0086986646 -0.016485378 -0.40608376 -0.054638542
20826250000 0.25280571 0.22669199 -5.3066626e-005 -0.00025683141 -0.017902151 0.0066084568 -0.91261148 -0.20990987
20847500000 0.22892725 0.067386113 -0.00010247434 0.00020524841 0.016018251 0.00049872516 -0.58596277 -3.2381642e-005
20868750000 0.29808301 0.12394878 -8.0323029e-005 9.0250232e-006 -0.018862642 -0.0090890871 -0.42699453 -0.73456395
20890000000 0.17386553 0.15620165 5.8481135e-005 -5.4824228e-005 0.0077549038 0.019791959 -1.0793394 -0.32198372
20911250000 0.23471753 0.078710593 8.7928202e-005 -0.00013192804 0.0022753573 -0.017713517 -0.38680798 -0.17034146
20932500000 0.20907836 0.29057857 -0.00015538784 2.5622336e-005 -0.012298732 0.01525448 -0.48770583 -0.74568927
20953750000 -0.041059215 0.34400216 -7.8594392e-005 -6.7414825e-005 0.019366371 -0.0080561666 -0.4623321 -0.61855924
20975000000 0.21102063 0.028640339 0.00011584391 -1.9775427e-005 -0.021462843 -0.0044486653 -0.23162782 -0.55014551
20996250000 0.095035255 0.10710926 -0.00012235885 -7.3458752e-005 0.015147579 0.014610071 -0.19170024 -0.55819339
21017500000 -0.099510051 -0.021733444 1.5202014e-005 -0.0001061753 -0.0058005285 -0.018609144 -0.17544408 -0.73415107
21038750000 -0.013944485 0.069872618 -0.00012683589 5.9490239e-006 -0.0032695006 0.024501951 -0.24291931 0.18123487
21060000000 -0.2181012 0.18804421 0.00010967111 4.9231607e-005 0.017851172 -0.01516143 0.58470434 -0.32830831
21081250000 -0.20150229 -0.024211213 0.00029367604 7.6095734e-005 -0.019060092 0.0084601641 0.043684982 -0.64287692
21102500000 -0.058179565 -0.06000236 8.7273467e-005 -6.2561179e-005 0.023518214 -0.00031758746 0.091855243 0.011818167
21123750000 -0.11774825 -0.12658732 -1.179394e-005 -6.272093e-005 -0.018729281 -0.015927862 0.44426334 -0.28705698
21145000000 -0.065627091 -0.33939859 2.7563123e-005 -8.328227e-005 0.0065234029 0.0210848 -0.089271344 -0.3975879
21166250000 0.026318926 -0.11878315 -7.5539399e-005 0.00010630824 0.0029273452 -0.022013528 0.12358124 0.36413142
21187500000 -0.058731329 -0.15303013 1.6723829e-005 -0.00011135348 -0.014269631 0.017963216 0.09447246 0.086511217
21208750000 0.027484907 -0.37522301 -7.7341232e-005 0.00010242679 0.021284053 -0.0077298186 0.15917249 0.066170707
21230000000 0.039937325 -0.20706286 -1.7873495e-005 -6.3517378e-005 -0.018557232 -0.0033205887 -0.11611614 0.029705375
21251250000 -0.1614743 -0.45227885 8.1941747e-005 -1.3976735e-005 0.014704709 0.0090391124 0.003375351 0.53134143
21272500000 0.14330226 -0.36429235 6.9734233e-005 1.0128108e-005 -0.0078354711 -0.019641349 0.17392151 0.0030310769
21293750000 0.21915016 -0.13759241 -0.00017072893 5.5783188e-005 -0.0043858611 0.019610332 -0.71437883 0.36214861
21315000000 0.24054939 -0.29755834 -0.00014275769 9.465585e-005 0.009979723 -0.014396078 -0.050393362 0.54214203
21336250000 0.325223 -0.28319156 -5.608776e-005 1.8575698e-005 -0.019252885 0.010048788 -0.22711264 -0.040627122
21357500000 0.19441012 -0.23708452 7.5795804e-005 -7.9671709e-006 0.023218218 0.0028305494 -0.65163475 0.29570165
21378750000 0.063771002 -0.32621491 -8.1977436e-005 -0.00010264661 -0.017054776 -0.012659987 -0.35386327 0.36832204
21400000000 0.28949448 -0.2603581 4.715451e-005 8.6337022e-005 0.011319438 0.0194117 -0.5949015 -0.076016657
21421250000 0.17881751 -0.11236797 0.0001436406 0.00012829063 -8.0693871e-006 -0.02312793 -0.7287907 0.13794561
21442500000 0.31318009 -0.24687093 0.00011984899 -8.0504928e-005 -0.012280488 0.017490027 -0.59327918 0.19320735
21463750000 0.35647228 -0.041915432 -1.1672669e-006 4.2178472e-005 0.017229773 -0.0065827882 -0.2803089 0.081216134
21485000000 0.066687085 -0.081278749 0.00012306093 -0.000131804 -0.021478003 -0.0011234118 -0.64384896 -0.33873922
21506250000 0.20371023 -0.1244622 -0.00012134336 0.00014318107 0.019815693 0.013857003 -0.53788602 0.099820189
21527500000 0.071656004 0.073447406 0.00019907868 -0.000100706 -0.0065527353 -0.022845458 0.067380637 -0.23599719
21548750000 0.035363108 -0.082582638 -6.9337482e-005 0.00015417072 -0.0011891397 0.023070028 -0.84189105 -0.52142447
21570000000 0.22025114 -0.074611165 0.00020082682 4.8924492e-005 0.013985034 -0.01855932 -0.21056031 0.095588401
21591250000 0.013967907 -0.040248644 0.00024206938 7.8191122e-005 -0.024094488 0.0070909858 0.11363273 -0.37475443
21612500000 -0.099472977 -0.16912028 7.9574194e-005 -6.6643282e-005 0.023150217 0.0044419239 -0.32544062 -0.54920048
