!Keysight Technologies,N5242B,MY47200105,A.14.00.23
!Date: Friday, May 10, 2024 11:00:21
!Correction: S11(C  2-Port  ) 
!S21(C  2-Port  ) 
!S12(C  2-Port  ) 
!S22(C  2-Port  ) 
!S2P File: Measurement: :
# Hz S  RI   R 50
18000000000 0.12266914 -0.010617862 -0.00011661355 0.00011202993 0.012723899 0.0061822119 0.89432365 -0.42857328
18021250000 0.044859737 -0.22977869 3.8170556e-006 1.0770805e-005 -0.009540719 -0.0052691698 0.31296489 -0.18802695
18042500000 0.21581684 -0.076255322 4.0557356e-005 -4.4802589e-005 0.0084413206 0.014039498 0.50478965 -0.040524881
18063750000 0.13485093 0.022922877 6.0016514e-006 0.00013883458 0.0050901915 -0.012660663 0.41807115 -0.18678834
18085000000 0.2053415 -0.060910389 -1.80364e-005 -7.1133451e-005 -0.0053352313 0.0055234982 0.43517283 0.098729812
18106250000 0.33528522 0.00065152335 0.00017100976 3.8041799e-005 0.011042814 -0.0080249822 0.48476294 -0.088897854
18127500000 0.18805261 -0.055719472 0.00013738323 0.00011179792 -0.017515913 -0.0034471159 0.58082992 -0.20272633
18148750000 0.18321733 -0.048616014 0.00016257496 0.00013326926 0.010919728 0.0089380341 0.30631918 -0.36827308
18170000000 0.30346757 0.09088219 -7.2203344e-005 -0.00020267503 -0.0075375326 -0.010003518 0.096353039 -0.10785853
18191250000 0.13757259 0.19651192 -0.00013727901 -0.00012797416 0.0022596857 0.012916557 0.28798088 -0.072494261
18212500000 0.25128213 0.072366953 9.4378929e-006 4.0271716e-005 0.0067909015 -0.011255502 0.10521612 -0.11398602
18233750000 0.15103936 0.15526667 6.2647407e-005 -0.00014221479 -0.010260399 0.0034954655 0.33219761 -0.14738499
18255000000 0.0083663212 0.060357787 -0.0001402372 -4.1019492e-005 0.0099918433 -0.0029753696 0.4400385 -0.53606218
18276250000 0.14610842 0.013633248 6.0393766e-005 -3.3719869e-005 -0.014532187 -0.0055157896 0.15672034 -0.45921293
18297500000 0.059390385 0.17445654 -5.6020544e-005 1.4178927e-005 0.0040592444 0.01247433 0.077735662 -0.45770752
18318750000 0.042545032 0.13682199 5.3130952e-007 -2.1786132e-005 -0.00091036176 -0.008632496 0.11682023 -0.33396965
18340000000 0.096027263 0.095053017 -1.017475e-005 -1.462657e-005 -0.0044599567 0.01360028 0.14277273 -0.23469023
18361250000 -0.124331 0.11129369 -9.2126487e-005 7.7914927e-005 0.013876915 -0.0062932917 0.35978752 -0.47886753
18382500000 -0.074483983 -0.023941601 -3.9669118e-005 2.3090492e-005 -0.011251412 -0.001140341 0.39358866 -0.40086386
18403750000 0.0051938449 -0.0072096097 9.7396362e-005 8.8671579e-005 0.010634772 0.004157132 0.27769941 -0.67463559
18425000000 -0.031313416 0.037147172 -8.06268e-005 0.00016472142 -0.0080568511 -0.0097983163 0.062536769 -0.5630641
18446250000 -0.014033558 -0.12184336 -2.9552386e-005 -0.00015529944 -0.0013069105 0.014329539 0.50805235 -0.41806272
18467500000 0.017273461 0.020565271 -9.0774622e-005 -2.8678905e-005 0.0084121479 -0.0072273114 0.26610661 -0.55033499
18488750000 -0.20913108 -0.027017212 2.1937116e-005 7.5806594e-005 -0.0084391925 0.0045569832 0.36403337 -0.39515933
18510000000 -0.08933185 -0.1507006 0.00011254864 -0.00011935889 0.015459315 0.00047587944 0.50709695 -0.5560531
18531250000 -0.032601655 0.0024051631 -2.3913259e-005 8.0869911e-005 -0.0079932008 -0.010648089 0.37946755 -0.55001378
18552500000 -0.051823631 -0.19648083 9.8648461e-006 -4.1478386e-005 0.0034147475 0.0068618702 0.28815565 -0.53862685
18573750000 0.091257587 -0.19118325 -8.320521e-005 5.8490135e-005 -0.00026267651 -0.011235025 0.15817122 -0.19439436
18595000000 0.081499189 -0.082272008 -0.00020724841 -1.9122985e-005 -0.0093417177 0.0063888156 0.44510287 -0.10938231
18616250000 0.025694141 -0.15681145 6.4261912e-005 0.00013759853 0.009214934 -0.00033191827 0.38847333 -0.47380102
18637500000 0.16202933 -0.1041737 9.8393546e-005 -9.5263633e-005 -0.010545323 -0.0032262292 0.27299228 -0.15555884
18658750000 0.065429099 -0.064844243 8.0423579e-006 4.6765222e-006 0.0092172259 0.0095124869 0.50959307 -0.49825934
18680000000 0.079154193 -0.20698474 -9.9644916e-005 6.9512236e-005 -0.0016019123 -0.013633793 -0.029159568 -0.44342497
18701250000 0.23338918 -0.090969607 1.8908269e-005 -0.00011819574 -0.0068750284 0.0093321055 0.24476108 -0.099427357
18722500000 0.12102187 -0.055549301 -2.2345308e-005 -0.00013773929 0.0073147346 -0.0065172138 0.184965 -0.29078522
18743750000 0.22271439 -0.16247213 -6.2892381e-005 4.8923037e-005 -0.014836501 0.0029914284 0.16651897 -0.24933642
18765000000 0.20785934 0.088368393 -9.0403824e-005 -2.8367207e-005 0.010942861 0.0077802301 0.19469145 -0.3540293
18786250000 0.081760742 -0.017987389 -8.7277469e-005 5.2533356e-005 -0.0067991642 -0.0059051528 0.055052824 -0.33574241
18807500000 0.24392861 -0.094474576 -5.5036988e-005 -0.00016360632 0.0065249633 0.012235509 0.032759327 -0.42438772
18828750000 0.12449902 -0.049396433 -7.0381233e-005 -7.5136873e-006 0.0037761738 -0.012691983 -0.023861889 -0.45385805
18850000000 0.14187874 -0.045140613 -3.7755522e-005 -3.5532295e-005 -0.0069917585 0.0078975558 0.1079552 -0.099946916
18871250000 0.24225749 0.1119335 -3.3245145e-005 0.00015572947 0.0094935512 -0.0046212976 0.12766024 -0.59133106
18892500000 0.14537576 0.25262612 6.0699771e-005 -3.5512239e-005 -0.010925341 -0.0021219279 0.044536322 -0.42582232
18913750000 0.12746347 0.036864754 -1.1120678e-005 -6.3246174e-005 0.0077678058 0.0088100014 0.20250905 -0.6120708
18935000000 0.094704799 0.0033133845 3.9485727e-005 6.8451329e-005 -0.00015552803 -0.0094820987 -0.080653228 -0.6804868
18956250000 -0.046090137 -0.011794683 2.9639543e-005 6.4866646e-005 -0.0020103373 0.0095220739 -0.018050831 -0.50136417
18977500000 0.019372592 -0.063739009 0.00010972197 0.00010552947 0.011184937 -0.0094925538 0.12661631 -0.41196907
18998750000 0.071142413 0.18859029 0.00010106703 3.4859826e-005 -0.012570455 -0.0014185328 0.25464284 -0.53117341
19020000000 -0.031697314 0.14195485 4.9783943e-005 -6.7562811e-005 0.0082796495 0.0024765478 0.1310629 -0.60152614
19041250000 -0.094101429 -0.01293079 2.0309304e-005 -2.4479505e-005 -0.0080210976 -0.0098617068 -0.010514083 -0.49139392
19062500000 -0.12506455 0.06933628 -5.7185378e-005 -6.7739779e-007 -0.0026125503 0.013544547 0.29197517 -0.62112999
19083750000 -0.097034104 -0.18591383 8.1643702e-005 6.0429584e-006 0.0080413464 -0.0080550155 -0.040970787 -0.61729228
19105000000 0.072394282 -0.041646849 1.4369814e-005 -3.0862098e-005 -0.012233309 0.0044736862 0.026937712 -0.22035781
19126250000 0.055551864 0.061130166 1.4591777e-005 4.6455982e-005 0.012902431 0.00094569987 0.47203448 -0.56966269
19147500000 -0.064339429 -0.048283529 6.6308899e-006 1.3369322e-006 -0.0094497669 -0.0082556829 0.10788827 -0.59721744
19168750000 -0.13791984 -0.10993276 -0.00010407947 -0.0001986797 0.0013564961 0.010937801 0.16297163 -0.47519934
19190000000 -0.18059556 -0.19353597 0.00011687599 5.1204803e-005 0.0012263847 -0.009940763 0.14531876 -0.48519227
19211250000 -0.12760386 -0.29374218 0.00010010244 -0.00013509607 -0.010019871 0.010870985 0.2091248 -0.4559201
19232500000 0.14496742 -0.14083113 -2.5736057e-005 3.6146266e-005 0.014113423 4.6534769e-005 -0.10011405 -0.33579615
19253750000 -0.00073672499 -0.11394428 -9.6710857e-005 7.6050346e-005 -0.011784679 -0.0034912138 0.32648695 -0.27129579
19275000000 0.049595237 -0.20756051 -0.00013932084 2.9715047e-005 0.01225765 0.0090845227 0.19325548 -0.53118658
19296250000 -0.0017589265 -0.1360324 0.00011334442 6.1182795e-006 -0.0025313119 -0.014752671 0.029756937 -0.39537033
19317500000 -0.14798382 -0.23793222 2.5216244e-005 -4.8252172e-005 -0.0045205648 0.012036396 0.21483602 -0.35673079
19338750000 0.2025058 -0.28193855 -0.0001620167 8.6719258e-005 0.0099879764 -0.0087277126 -0.12618664 -0.53448802
19360000000 0.1970845 -0.19973063 7.2247785e-005 2.5328636e-005 -0.015129344 0.0024772852 -0.10786627 -0.19146742
19381250000 0.17693408 -0.23818259 2.5476236e-005 -4.9678561e-005 0.015546622 0.0060100458 0.16850269 -0.3044273
19402500000 0.20284967 -0.13633607 -6.859329e-006 2.9182987e-005 -0.0079601007 -0.010488126 -0.05344484 -0.36893827
19423750000 0.022046996 -0.1598203 -0.00011050999 -3.9695286e-005 0.0051746354 0.010742736 0.059596401 -0.47633952
19445000000 0.096577235 -0.15197165 8.9167743e-006 -5.6102301e-005 0.0039844513 -0.015678933 -0.22538881 -0.36238724
19466250000 0.27732605 -0.11474641 -0.00014068818 9.3289127e-005 -0.012292482 0.0078017856 -0.070371665 -0.3626737
19487500000 0.19163035 -0.060261402 7.1791715e-007 -0.00026661655 0.011705028 -0.004264201 -0.27748877 -0.47903743
19508750000 0.2232835 -0.17242548 -3.6977785e-006 1.8703475e-005 -0.016451932 -0.0034047731 -0.20021972 -0.076157421
19530000000 0.12920825 0.035522256 -1.2845598e-005 -0.00010469705 0.0090638287 0.011850187 0.12917595 -0.42546365
19551250000 0.035222352 -0.0063065044 4.7158705e-005 9.262946e-005 0.00049372227 -0.013105507 -0.45269462 -0.74003255
19572500000 0.2220505 -0.020899575 -9.0946982e-005 3.8222279e-005 -0.0076867389 0.012933854 -0.18333544 -0.22596203
19593750000 0.15807667 0.11521479 -0.00010357874 -0.00013289369 0.013974217 -0.009648826 -0.17733847 -0.63502884
19615000000 0.088340513 -0.024264775 6.2378691e-005 -8.6249616e-005 -0.018312387 -0.0010171629 -0.34370524 -0.41208863
19636250000 0.10103382 0.039542232 -4.4364449e-005 4.7711114e-006 0.012401804 0.0091708358 -0.12683351 -0.36499602
19657500000 -0.12841058 0.09455768 4.2423275e-005 0.00013118435 -0.0087754736 -0.013338869 -0.17595625 -0.40819591
19678750000 -0.0059938622 0.0087088654 5.2581763e-005 8.7174667e-005 -0.0023574447 0.020862093 -0.065722235 -0.74900723
19700000000 -0.013249086 0.087898232 -7.2022245e-005 -1.9257261e-005 0.014514735 -0.013254352 -0.38416374 -0.50376832
19721250000 -0.010122832 0.056406189 1.0537366e-005 -0.00016836067 -0.014898824 0.0066474234 -0.070746876 -0.3236534
19742500000 -0.15338977 -0.05209728 2.1066042e-005 -0.0001461309 0.018485373 0.00084080239 -0.14227727 -0.70140213
19763750000 -0.1762435 0.018812001 0.0001494796 7.2326907e-006 -0.013635481 -0.012439896 -0.29202184 -0.33453092
19785000000 -0.22495347 0.063694648 -9.5924741e-005 -5.6197448e-005 0.0069765984 0.016193772 0.22946799 -0.28286415
19806250000 -0.066424601 -0.081272773 0.00013931117 -0.00010108752 0.0012618009 -0.017021846 0.016780395 -0.82779062
19827500000 -0.076029934 0.021782525 -6.1282866e-005 -0.00013306837 -0.0082742115 0.017341878 -0.058054596 -0.3534641
19848750000 -0.21649192 -0.13066009 0.0001418672 -3.8513059e-005 0.016536204 -0.0097009642 0.063606285 -0.41119507
19870000000 -0.12853223 -0.12073614 7.7398283e-005 7.1384187e-005 -0.015686249 -0.0012507046 -0.024364421 -0.41237304
19891250000 -0.25820056 -0.16694941 -2.6425071e-006 6.0811017e-005 0.015046426 0.0063304282 0.13542025 -0.29667845
19912500000 -0.081379011 -0.31648684 -0.00014134363 6.9636728e-005 -0.010601702 -0.018398318 0.10734439 -0.0089182686
19933750000 0.01335546 -0.1362192 8.5860367e-005 7.0256719e-005 -0.002618311 0.016087001 0.26518226 -0.49164101
19955000000 -0.082359962 -0.2180201 0.00015447997 0.00018045177 0.005477658 -0.014365592 -0.31694132 -0.37732545
19976250000 -0.1494547 -0.24539812 -0.00016144775 9.2037197e-005 -0.013179288 0.012056197 0.056145623 0.028455198
19997500000 -0.19415088 -0.23086169 -0.00021027823 -0.00014368747 0.01598216 1.4103485e-005 0.033853836 -0.1667293
20018750000 -0.072120443 -0.26484358 -0.00024829913 -2.1564627e-005 -0.013004252 -0.0078438669 -0.14970224 -0.014426798
20040000000 0.16762881 -0.3094725 2.9075605e-005 9.72411e-005 0.0096052503 0.01496924 0.047405683 0.22656295
20061250000 0.3157177 -0.076262899 -7.7287055e-005 0.00013821216 -0.00059629721 -0.019449187 0.024293527 -0.27828106
20082500000 0.091945775 -0.061445642 -6.8253132e-005 -8.6639266e-005 -0.012750756 0.016572367 -0.34245664 -0.22228086
20103750000 0.12871929 0.0058231917 6.757833e-005 -3.2713768e-005 0.015393624 -0.0056434153 -0.3292295 -0.099061273
20125000000 -0.16703284 0.051430203 -5.6781664e-006 -7.8077021e-005 -0.016714744 -0.00024480268 -0.33929527 0.10661463
20146250000 0.043460656 -0.18583061 0.00017870325 -2.2670323e-005 0.014255896 0.012792565 -0.26745015 -0.29577547
20167500000 0.2764065 -0.070999347 -2.054413e-005 -0.00011718606 -0.0020781653 -0.017211583 -0.80033123 -0.15925829
20188750000 0.21397668 0.0017593128 -9.4780342e-005 -1.4903399e-005 -0.00093154248 0.016118065 -0.0061649587 -0.11374996
20210000000 0.2215237 0.087301321 -6.7769746e-005 3.6253201e-005 0.01323827 -0.014576179 -0.56257659 -0.84958267
20231250000 -0.011642389 0.3516621 1.1058137e-006 -1.340848e-005 -0.018337699 0.0053162971 -0.74471855 -0.13382414
20252500000 -0.15178646 0.17169563 3.2298376e-005 2.4192845e-005 0.015958728 0.0034884154 -0.43477601 -0.42963371
20273750000 0.032800708 0.12808247 2.405691e-005 -9.6466458e-005 -0.012348371 -0.010109514 -0.38508865 -0.36835527
20295000000 0.094772398 0.20871468 0.0002640906 -9.0010974e-005 0.0049627996 0.016884683 -0.45329928 -0.46734715
20316250000 0.04236361 0.17735882 5.2777432e-005 -0.00013589862 0.0063514472 -0.016044894 -0.17384681 -0.54421049
20337500000 -0.11419191 0.24370284 -5.0970863e-005 0.00027529872 -0.011478881 0.0060927118 -0.067726575 -0.7916438
20358750000 -0.31327072 0.36025155 0.00010943321 -1.9310108e-005 0.013373434 -0.0036889773 -0.59658873 -0.68134385
20380000000 -0.32048294 0.079661593 -0.00010045208 0.00013736176 -0.014808493 -0.0061321263 -0.32053673 -0.33869046
20401250000 -0.13209932 0.086862758 -0.00014153477 -7.3016658e-005 0.0054674875 0.010965162 0.29678911 -0.67085373
20422500000 -0.2277948 0.045935206 6.1391402e-005 -4.7550937e-005 -0.0026039458 -0.010683404 -0.2166608 -0.63357776
20443750000 -0.11851562 0.036118999 9.918656e-005 -9.1641108e-005 -0.0044426094 0.013226182 0.14482717 -0.18445472
20465000000 -0.26837826 0.23839255 -0.00023310569 -1.4641437e-005 0.01345576 -0.0047886907 0.39023441 -0.84300458
20486250000 -0.38162923 0.081947625 -0.00034715535 4.3657397e-005 -0.013330139 -0.0014320761 -0.33883995 -0.33363846
20507500000 -0.17078625 -0.0071017239 0.00010840203 8.0305821e-005 0.011150039 0.0061331126 0.22693224 -0.11125594
20528750000 -0.14028326 -0.097426094 9.9913887e-006 -1.230866e-005 -0.0078093032 -0.011786135 0.2159759 -0.1753646
20550000000 -0.094838381 -0.28773797 4.0425875e-005 -9.98007e-006 -0.0014840704 0.012464502 0.19235353 -0.070671961
20571250000 -0.12176677 -0.13221963 1.8048855e-005 -2.8139864e-005 0.0064803511 -0.0074521047 -0.023138814 0.028679231
20592500000 -0.1340428 -0.07789775 4.8921571e-005 -9.2806833e-005 -0.0095571103 0.0056325854 0.37356508 0.21694897
20613750000 -0.10319965 -0.17954771 0.00016540052 0.00012675933 0.014242521 0.0037882333 -0.23992708 -0.201874
20635000000 0.26396337 -0.26290014 5.1244595e-005 8.1349557e-005 -0.0079284059 -0.010398808 -0.41242841 0.5791285
20656250000 0.072844051 -0.26185766 -0.00013549138 -3.8971764e-005 0.0040515256 0.01111888 0.25544304 0.46890599
20677500000 0.17035435 -0.35706016 7.8126759e-005 -2.8129074e-005 0.0020667054 -0.016007746 -0.28633416 0.0037027635
20698750000 0.22495954 -0.067206241 -8.9082234e-005 3.1302388e-005 -0.011277235 0.012627811 -0.53790909 0.49333662
20720000000 0.086423256 -0.15278877 4.1584179e-005 -0.00012506694 0.013321759 -0.0039989129 -0.26330477 0.30088463
20741250000 0.3509832 -0.10645962 2.6904881e-006 -0.00011731921 -0.014304951 -0.0016073148 -0.77667582 0.23432045
20762500000 0.34455216 -0.040574729 4.2569154e-005 -9.6020922e-005 0.012908364 0.010291701 -0.67880911 0.29995868
20783750000 0.22613949 -0.086363368 7.6271623e-005 -0.00014631613 -0.0042348495 -0.0159647 -0.46375987 0.36033499
20805000000 0.4095102 0.058560546 0.00011016858 -4.6316782e-005 -0.0023276552 0.013419637 -0.40530154 -0.054892167
20826250000 0.25400883 0.22575201 3.5024415e-005 -1.2794745e-005 0.0083299745 -0.013266817 -0.90979153 -0.20965697
20847500000 0.22749346 0.067679323 4.7137342e-005 4.8235124e-005 -0.016469894 0.004680594 -0.58384252 0.00010879508
20868750000 0.30192167 0.1239554 0.00016273477 5.6897159e-005 0.013519243 0.0054786494 -0.4251045 -0.73089933
20890000000 0.17266648 0.15693694 -0.00011760135 -6.0151201e-006 -0.010466804 -0.0098373024 -1.0753307 -0.32125616
20911250000 0.23954123 0.080737799 1.5749973e-005 1.0769171e-005 0.0047901827 0.014594113 -0.38512227 -0.16952784
20932500000 0.21162498 0.28866124 -0.00016234754 -0.00012606317 0.0057686474 -0.014627831 -0.48512566 -0.74255437
20953750000 -0.041787121 0.34742394 -2.8607206e-005 -0.0001008705 -0.010786706 0.0087284017 -0.460601 -0.61599231
20975000000 0.21440777 0.025350388 -0.00013068433 -8.0094892e-008 0.012930117 -0.0031186286 -0.23065919 -0.54743874
20996250000 0.093025126 0.11202613 7.7751727e-005 -9.3543451e-005 -0.016535429 -0.0047430135 -0.19045278 -0.55539912
21017500000 -0.09719561 -0.021507436 4.9632912e-005 0.00016968492 0.0069921869 0.013081275 -0.17535654 -0.73116857
21038750000 -0.010765027 0.068166241 -4.6820616e-005 1.2064837e-005 -0.001539187 -0.010539516 -0.2444998 0.18119827
21060000000 -0.21698406 0.19335762 9.799852e-005 -3.5813235e-005 -0.0041699647 0.012343746 0.58056295 -0.32505903
21081250000 -0.20122513 -0.025858399 2.9482893e-005 -2.9091683e-005 0.013709906 -0.0058800229 0.042671338 -0.64032745
21102500000 -0.061141472 -0.057209358 -2.8515666e-005 -0.00016109741 -0.011977074 -0.0038903835 0.090100266 0.013246847
21123750000 -0.11663003 -0.1247841 -5.644207e-005 5.3248365e-005 0.01081525 0.007774129 0.44221783 -0.28546888
21145000000 -0.067912862 -0.34074849 4.4218385e-005 -0.00011085993 -0.0067318762 -0.014277291 -0.090234399 -0.39654246
21166250000 0.028504375 -0.11443486 0.00012909857 -9.9904792e-005 -0.00095913419 0.015687708 0.12221427 0.36351576
21187500000 -0.057708487 -0.15316676 0.00011381234 -0.00010457129 0.0088290041 -0.01096339 0.092569187 0.086132921
21208750000 0.025831651 -0.37136334 0.00011255011 -0.00015090515 -0.013193073 0.0064297868 0.15824828 0.066194385
21230000000 0.043171786 -0.2059553 -9.7878736e-005 -4.1253508e-005 0.01924541 0.0011622683 -0.11658072 0.029069211
21251250000 -0.16524918 -0.45283896 -7.414104e-005 -8.5573593e-006 -0.013505192 -0.013577365 0.0023230514 0.52904445
21272500000 0.14534555 -0.36305362 -9.024849e-005 -0.0001137556 0.0046832641 0.015916854 0.17292587 0.0018611529
21293750000 0.21915126 -0.13959794 1.4458695e-005 6.4096261e-005 0.00024150552 -0.020027407 -0.71299028 0.35869163
21315000000 0.23929465 -0.2952517 -4.1582094e-005 3.1499865e-005 -0.013373324 0.015007194 -0.050976198 0.54051661
21336250000 0.32904616 -0.28297341 0.00012150022 -0.0001241648 0.017524801 -0.0048273061 -0.22660324 -0.040344376
21357500000 0.18984145 -0.23444577 0.00010706633 -0.00010709833 -0.018173296 -0.0019674026 -0.65003151 0.29388946
21378750000 0.065241829 -0.32451308 -0.00021308062 -8.0578313e-005 0.014604991 0.011113918 -0.35280135 0.36663276
21400000000 0.28907499 -0.26219416 0.00022266406 -8.3674295e-006 -0.0067134551 -0.018113364 -0.5933218 -0.076449238
21421250000 0.17837553 -0.11022983 6.9870628e-005 0.00017785044 -0.0045449655 0.018595424 -0.7278741 0.13676246
21442500000 0.31526461 -0.25001225 1.4772132e-005 -0.00010296315 0.0097907847 -0.013986561 -0.59265083 0.19245642
21463750000 0.35395214 -0.039734758 -1.3203503e-005 0.00024795366 -0.018404132 0.0091807852 -0.27899557 0.081392497
21485000000 0.068673953 -0.079693131 0.00022251124 0.00017376474 0.019812327 0.0050551859 -0.64282495 -0.33789319
21506250000 0.20292732 -0.12569703 -7.2159412e-005 -0.00017389594 -0.011351816 -0.0088982703 -0.53710246 0.10008851
21527500000 0.072402261 0.077214345 0.00013815348 -1.4321899e-005 0.0062123835 0.016582182 0.066761605 -0.23463501
21548750000 0.036176872 -0.08596012 -9.8376389e-005 0.00010739982 0.0044787154 -0.018139886 -0.8407172 -0.52062374
21570000000 0.219926 -0.072734267 9.9930592e-005 0.00022717119 -0.010760915 0.010398136 -0.21088016 0.096493691
21591250000 0.015546067 -0.038661383 -8.7046865e-005 -5.9139242e-005 0.014476161 -0.0044485759 0.11337069 -0.37299436
21612500000 -0.10177101 -0.16922112 -0.00021962923 3.693912e-005 -0.015221046 -0.0049388562 -0.32527083 -0.5478301
