!Keysight Technologies,N5242B,MY47200105,A.14.00.23
!Date: Friday, May 10, 2024 11:20:36
!Correction: S11(C  2-Port  ) 
!S21(C  2-Port  ) 
!S12(C  2-Port  ) 
!S22(C  2-Port  ) 
!S2P File: Measurement: :
# Hz S  RI   R 50
18000000000 0.14531003 -0.031141452 -0.00011470779 -0.00016367987 0.0002953661 0.0019425494 0.87124628 -0.42170456
18021250000 0.070029162 -0.21032971 6.6785498e-005 -8.8754998e-005 -0.0012718674 0.0036144478 0.32133391 -0.19693139
18042500000 0.2289397 -0.09569528 7.3122319e-005 -0.00013689973 0.0059898044 0.0012942574 0.4958427 -0.058235582
18063750000 0.15666257 0.018990681 -3.7432215e-005 5.0781866e-005 0.0012647674 -0.00070631795 0.40665248 -0.19329336
18085000000 0.2094668 -0.04994325 5.4464766e-005 5.9118869e-005 0.0042735245 -0.0034077538 0.42330885 0.088034347
18106250000 0.3364751 -0.010214363 -5.3874976e-007 -1.7207205e-005 -0.0018838911 -0.004377943 0.47878066 -0.092715308
18127500000 0.2064659 -0.042224504 1.8205821e-005 2.5890737e-005 -0.0038333989 -0.00057626812 0.56315219 -0.21034014
18148750000 0.19736508 -0.039309908 -6.3234962e-005 5.7795649e-005 0.00076588721 0.0004786326 0.30333355 -0.36592725
18170000000 0.3001391 0.08317069 -0.00015169439 -1.5083607e-005 -0.0031730353 0.0021689082 0.099274501 -0.13223611
18191250000 0.15638706 0.19394143 -1.02036e-005 2.0636058e-005 0.0046468112 0.00014902203 0.26870561 -0.093962163
18212500000 0.23831272 0.070204012 6.7930421e-005 8.6368826e-005 -0.00091970433 -0.0020283803 0.098657019 -0.12835786
18233750000 0.16296436 0.14366297 -4.2326425e-005 -1.8334977e-005 0.0011454279 -0.00062543561 0.32352227 -0.15637514
18255000000 0.029865135 0.067482159 -3.3805805e-005 0.00012653168 -0.0022789235 -0.0043305093 0.42715463 -0.54478317
18276250000 0.13776186 0.012479809 0.00021927471 -8.5401116e-005 -0.0049844114 0.0019890096 0.15045322 -0.46672195
18297500000 0.063869849 0.15473512 8.1775222e-005 -3.1556603e-005 0.00011213528 0.0014927132 0.078185163 -0.46555984
18318750000 0.020321794 0.1254583 -1.9124322e-005 1.8213579e-005 -0.0031717205 0.0027520077 0.11564989 -0.3486633
18340000000 0.064250343 0.082154199 9.9569064e-005 6.7245084e-005 0.0033660557 0.0045288582 0.14073212 -0.24895628
18361250000 -0.12123299 0.10383312 3.0054429e-005 7.4772726e-007 0.0023738563 -0.0021415332 0.36273912 -0.47446319
18382500000 -0.083230637 -0.022432404 9.0903181e-005 9.9790108e-005 0.00066644506 0.0010900723 0.39818367 -0.41698995
18403750000 0.0032301981 -0.022705281 9.6880038e-005 -6.4292566e-005 0.0012937683 -0.0030281225 0.28266031 -0.67381728
18425000000 -0.032179214 0.0126252 -4.3947734e-006 -1.4162803e-005 -0.0033819049 0.00063281436 0.075533949 -0.5628469
18446250000 -0.027134115 -0.12550251 2.1156611e-005 -5.1348245e-005 0.00037674254 0.0025139281 0.49762809 -0.42490175
18467500000 0.019626491 -0.0052344408 5.2355936e-005 0.00010446429 0.0021585431 0.00154893 0.26356539 -0.54771495
18488750000 -0.18615918 -0.03773044 -2.8860697e-005 0.00022164041 0.0011125021 0.0010052468 0.35507596 -0.38693312
18510000000 -0.086426951 -0.15753448 0.00010535854 -6.8843248e-005 0.005541109 -0.0013304759 0.50658762 -0.53997117
18531250000 -0.027301187 -0.024982994 0.00023081004 -8.7228189e-005 -0.0011311787 -0.0040417234 0.37509096 -0.54313666
18552500000 -0.059353679 -0.19014819 -9.6158192e-006 -4.7794565e-005 0.0010900527 -0.0020259386 0.28353778 -0.52582991
18573750000 0.079061046 -0.18907045 2.6659158e-005 3.8850831e-006 -0.0035269908 -0.0020220282 0.15908173 -0.19996116
18595000000 0.091411367 -0.072313584 -4.6567384e-005 -0.00011224403 -0.0013188121 0.00043523626 0.42618331 -0.11720546
18616250000 0.051017899 -0.13692164 -5.7767735e-005 -0.00010713219 -0.00057826261 0.00068219728 0.37509114 -0.46063772
18637500000 0.17085607 -0.10216116 5.9290251e-005 -4.6069177e-005 -0.001309421 0.001092872 0.26279825 -0.16627531
18658750000 0.081765272 -0.065481938 4.1008523e-005 -0.00011259101 0.0031153089 0.00051905256 0.48249596 -0.49287093
18680000000 0.084523849 -0.19840367 -3.4670014e-005 4.6716737e-005 -0.0013766404 -0.0031659431 -0.03425917 -0.44839543
18701250000 0.23741327 -0.091402821 -2.5970265e-005 2.6322283e-005 -0.0018409534 -0.0003216326 0.21996279 -0.11465251
18722500000 0.14654779 -0.052716285 -4.4004591e-006 -0.00012290504 -0.0020146335 -0.00042910504 0.16357687 -0.29985532
18743750000 0.22429052 -0.14546147 -6.4846448e-005 9.4938594e-005 -0.00348163 0.0025712927 0.14832634 -0.25362384
18765000000 0.21371438 0.079829045 1.2051773e-005 -3.3167144e-005 0.0010080789 0.0028170042 0.18562822 -0.35724995
18786250000 0.079733968 -0.010653733 -1.7401766e-005 -1.6748238e-005 -0.00025452333 0.0032140431 0.053908568 -0.35031858
18807500000 0.22401436 -0.091336697 0.0001186455 -0.0001065433 0.0053080181 0.0011373864 0.030710768 -0.43465099
18828750000 0.13526642 -0.04562737 -8.8584093e-005 9.3423259e-005 -0.0011392924 -0.0034596375 -0.02238363 -0.46475205
18850000000 0.14789715 -0.052212529 0.00010916327 -6.8998364e-005 0.0019362328 0.0022931113 0.10080689 -0.13023269
18871250000 0.23280498 0.085976467 4.7332083e-005 1.6930195e-005 -0.00080507115 -0.0034510109 0.12559107 -0.58992875
18892500000 0.13516873 0.22981369 3.1211406e-005 1.6136917e-005 -0.001888253 0.0025007864 0.050971638 -0.43468633
18913750000 0.1025383 0.027439196 -2.0836751e-005 -1.3857403e-005 0.0027979049 0.00085422385 0.20486762 -0.61171079
18935000000 0.080479793 -0.0011292835 -7.3943513e-005 1.5439309e-005 0.00015718062 -0.00064790779 -0.066905282 -0.68149328
18956250000 -0.033640821 -0.0094328187 -4.3101136e-005 3.0934076e-005 0.002844214 0.0015099103 -0.012367222 -0.50336897
18977500000 0.029086465 -0.068879016 0.00014183027 -1.2201724e-005 0.0024763928 -0.0058977567 0.13027191 -0.42049897
18998750000 0.074594498 0.16182457 6.8147863e-005 -1.023864e-005 -0.003543525 -0.00019731349 0.24625079 -0.5280382
19020000000 -0.043908812 0.12965883 0.00010905831 -4.1547653e-005 0.0012838851 -0.0028761479 0.134689 -0.59193921
19041250000 -0.10142814 0.0048434171 2.2100279e-005 -1.1666921e-005 -0.0050633517 -0.0012176845 -0.00098980463 -0.48899153
19062500000 -0.096055113 0.069540218 -1.5087112e-005 -7.5895354e-005 -0.00075875013 0.004264859 0.27846205 -0.61275482
19083750000 -0.072082251 -0.17842618 -3.4239947e-005 -0.00010218174 0.0015730159 -0.0021411527 -0.042054418 -0.60334748
19105000000 0.087914288 -0.05920399 7.4287367e-005 -8.2417508e-005 -0.0024175444 0.0028827018 0.019560827 -0.22523203
19126250000 0.060808599 0.05082161 7.2635237e-005 -2.2563814e-005 0.0033034128 -0.0024322369 0.44728142 -0.54158682
19147500000 -0.057999138 -0.040455759 -8.4085448e-005 -0.00010142659 -0.0034642741 -0.0010062166 0.10504123 -0.57885367
19168750000 -0.11472614 -0.10106079 4.140515e-005 -8.1643171e-005 -0.00036597863 0.0011036546 0.15763845 -0.46457848
19190000000 -0.16159745 -0.18935955 3.4677596e-005 -3.6299996e-006 -0.0028276236 -9.8611657e-005 0.1335566 -0.48408407
19211250000 -0.10584041 -0.29086062 -8.935368e-006 -2.1232625e-005 -0.00076406082 0.004974205 0.18820289 -0.44768006
19232500000 0.13158803 -0.15853345 0.00014237077 -6.4557309e-005 0.0030563662 0.00069393171 -0.097249679 -0.33871803
19253750000 -0.008978853 -0.10290571 -0.00014498986 -8.9330213e-005 -0.00047674665 0.0019634156 0.29634213 -0.27728969
19275000000 0.04282796 -0.18719572 3.6838712e-005 -3.512333e-006 0.005243557 -0.00042323538 0.17888743 -0.52097374
19296250000 -0.0036651464 -0.13147603 -0.00011274991 2.5561729e-005 -0.0017224901 -0.0027661379 0.024430376 -0.39769292
19317500000 -0.12961166 -0.22797915 0.00013529949 8.2902501e-005 0.00078386127 0.00079441478 0.1985915 -0.36559796
19338750000 0.18746483 -0.29732963 3.9172872e-005 0.00015520315 -4.6393277e-005 -0.0017162723 -0.13093042 -0.53433239
19360000000 0.1753477 -0.20968324 8.0298363e-005 2.8272974e-005 -0.00227434 0.0019135422 -0.10824449 -0.20265988
19381250000 0.15825365 -0.23029876 0.00011774548 5.8963102e-005 0.0039639086 0.00031228273 0.15614161 -0.31100935
19402500000 0.19877052 -0.14049385 -9.0400114e-005 -0.00011271291 -0.00076384284 -5.3101066e-005 -0.053628359 -0.37229627
19423750000 0.028980333 -0.16168219 -3.7924074e-005 1.5796673e-005 0.0040381998 -0.0016731515 0.057747096 -0.46977112
19445000000 0.091004603 -0.16710672 7.2106712e-005 -1.633791e-005 -0.0015821084 -0.004604633 -0.21165815 -0.37265214
19466250000 0.25961801 -0.11600453 0.00015287145 -4.767445e-005 -0.0018494177 0.0011189535 -0.079080261 -0.36741439
19487500000 0.19533053 -0.064593673 5.0851099e-006 -2.0031126e-005 -0.0001892499 -0.0037246312 -0.27213946 -0.47017518
19508750000 0.22758567 -0.16558075 7.7970966e-005 -6.8274217e-006 -0.0057682027 0.0033361262 -0.19703783 -0.087924235
19530000000 0.15635157 0.027127618 -4.7096968e-005 -0.00012883471 0.0027664995 0.0015232877 0.11460629 -0.41501296
19551250000 0.060778067 -0.026366534 -1.4080782e-005 0.00013407764 -0.00062820222 -0.00085998169 -0.43384472 -0.71775669
19572500000 0.22035758 -0.038616758 -2.513819e-005 -9.8270357e-005 -0.00021815933 0.0025343758 -0.18339816 -0.2317747
19593750000 0.16396111 0.095247425 -2.7088092e-006 6.2606123e-005 0.0022837643 -0.0043607294 -0.17640948 -0.62485844
19615000000 0.086029544 -0.018791053 0.00010681845 -2.1257787e-005 -0.0051030964 0.0014487098 -0.34519425 -0.40897003
19636250000 0.1119442 0.05315474 -1.5348636e-005 9.3934264e-005 0.00203867 0.00036624644 -0.12675157 -0.36421347
19657500000 -0.089148931 0.10297055 -4.0966133e-005 -0.00019121419 -0.0035021806 -0.00021836467 -0.17988954 -0.41502109
19678750000 0.0030855357 0.011190923 -5.5029041e-006 7.1787726e-005 0.00027813998 0.0071977698 -0.078905903 -0.73668826
19700000000 -0.0065735285 0.092294186 2.0911881e-005 7.9172751e-006 0.0051443106 -0.0023962646 -0.3742291 -0.50528234
19721250000 -0.019890876 0.065311387 -9.7091543e-005 -2.5123443e-005 -0.00094575988 0.0013165605 -0.086431421 -0.33857515
19742500000 -0.13756178 -0.032750838 2.815243e-005 4.7217727e-005 0.0035026697 -0.001084653 -0.14759922 -0.69078976
19763750000 -0.1679678 0.026362203 0.00010835422 4.389431e-005 -0.00069536932 -0.0032294102 -0.28846616 -0.34357059
19785000000 -0.21431872 0.06377089 5.3632826e-005 4.2983123e-005 -0.00088636769 0.001960831 0.21400471 -0.29348573
19806250000 -0.080942355 -0.072703369 8.8681227e-005 8.2855062e-005 5.5934303e-005 -0.0023786633 0.011201053 -0.81288695
19827500000 -0.099290438 0.024662124 0.00013363076 0.00010189656 -0.00025337338 0.0042256415 -0.055466447 -0.35929796
19848750000 -0.21550345 -0.11705562 5.2323201e-005 -0.00017446467 0.0037641302 -0.0022627874 0.058128849 -0.41439292
19870000000 -0.13271862 -0.1283067 -6.2369094e-007 -3.816318e-005 -0.0010483939 -0.0010712728 -0.026320687 -0.40923992
19891250000 -0.24974179 -0.17571656 0.00012155107 -2.3666185e-005 0.0024687354 -0.00076709513 0.13428055 -0.28443885
19912500000 -0.10464206 -0.3199465 0.00016839078 -0.00014250832 -0.002770409 -0.0056854384 0.11480305 -0.018029332
19933750000 -0.014938127 -0.15053506 9.4585463e-005 -1.0029905e-005 -0.0020999375 0.0029226833 0.26279411 -0.47269273
19955000000 -0.10915219 -0.21488447 7.1630871e-005 -0.00011583306 -0.0023555874 -0.0031537211 -0.29388639 -0.35743865
19976250000 -0.15946233 -0.24358082 0.00021774115 -9.819898e-005 -0.0013109829 0.0056046639 0.055002656 0.028976269
19997500000 -0.18126808 -0.23271693 -6.7754721e-005 -1.2451476e-005 0.0027573186 -0.0011475256 0.031850968 -0.15341881
20018750000 -0.061166044 -0.28267926 -0.0001158687 -8.954847e-005 -0.0023451692 2.8869315e-005 -0.15219875 -0.0014749252
20040000000 0.16369371 -0.31241289 -6.5743414e-005 -9.3524322e-005 0.0039264373 0.0020615547 0.042429782 0.23197258
20061250000 0.30777138 -0.086557068 9.4406336e-005 0.00017406508 -0.0025980077 -0.0062434315 0.011068732 -0.26157475
20082500000 0.11456057 -0.051238611 0.00017878095 3.9415281e-005 -0.0035131278 0.0058330842 -0.351105 -0.2018076
20103750000 0.14468254 0.0075602732 6.5337372e-005 1.145695e-005 0.0018242853 -0.0012783513 -0.34053966 -0.088798083
20125000000 -0.11737021 0.049401999 7.9118465e-005 -0.00011920012 -0.0026841655 0.0028939578 -0.35762462 0.1056555
20146250000 0.062204439 -0.17118868 8.1146602e-005 -0.00021415629 0.004051263 0.0030996923 -0.29504788 -0.27602446
20167500000 0.28431559 -0.074418277 5.9968093e-005 -0.00014377551 0.001326269 -0.0026607495 -0.79456764 -0.15817837
20188750000 0.22298358 0.016922386 3.6886173e-005 6.0915176e-005 0.0019184839 0.0025071192 -0.047889009 -0.12124968
20210000000 0.22735308 0.11428341 -3.1714277e-005 -0.00014760419 0.0025514495 -0.0054473765 -0.5752604 -0.83776081
20231250000 0.032149006 0.36912256 7.0202994e-005 0.0001277069 -0.0043035923 0.0012716835 -0.7548117 -0.15663493
20252500000 -0.11485641 0.19390815 -0.000109435 -5.9216527e-005 0.0022802697 0.00060467224 -0.44897696 -0.43409818
20273750000 0.038265035 0.12791893 0.00020405545 -8.0087419e-005 -0.0020072537 -0.0011351756 -0.40447 -0.38074571
20295000000 0.085315675 0.2176528 -7.0263588e-005 7.8393641e-006 0.00150625 0.0036347033 -0.43961343 -0.47214362
20316250000 0.033831578 0.19174403 2.4045685e-005 4.5869954e-005 0.0034290014 -0.0026648978 -0.17820691 -0.56267196
20337500000 -0.11329624 0.26015061 -4.9139606e-005 8.7404987e-006 -0.0016981098 -0.0024489756 -0.067864396 -0.79894519
20358750000 -0.3125965 0.36386701 -4.3041204e-005 5.0238326e-005 0.0011214317 -0.00084794516 -0.56414038 -0.69214952
20380000000 -0.33867633 0.09538684 -4.7822745e-005 0.00015046474 -0.0032897068 -0.0029926032 -0.30279917 -0.36462328
20401250000 -0.16685283 0.088520736 -1.8110137e-005 -0.0002204279 -0.0021122268 0.0019569364 0.29340604 -0.67169809
20422500000 -0.24986118 0.056522261 -1.7884111e-005 -0.00012311531 -0.00079152937 7.5095442e-005 -0.18830134 -0.62685686
20443750000 -0.14359573 0.03725858 0.00018704415 8.2286417e-005 -0.00078693521 0.0026652412 0.16025428 -0.1995782
20465000000 -0.26922736 0.21699201 -0.00010247462 4.2808347e-006 0.0034329291 0.00062898191 0.39019299 -0.81731284
20486250000 -0.39280245 0.064631283 -1.397853e-005 -5.0139501e-005 -0.0021889154 -0.0021970887 -0.30224144 -0.32132727
20507500000 -0.19573168 -0.034641337 0.00011651199 -0.00015991769 0.001054812 0.0012031168 0.23339798 -0.098320872
20528750000 -0.15370664 -0.11179926 3.7208483e-006 5.0514689e-005 -0.0021002651 -0.0018903137 0.21906038 -0.15104023
20550000000 -0.10296008 -0.29322913 -2.6011446e-007 -2.188452e-005 -0.0015711649 0.0021010539 0.20234701 -0.039368808
20571250000 -0.086956821 -0.15412113 -7.390594e-005 -3.6545382e-005 0.00059888128 0.0019617241 -0.0071662436 0.053575024
20592500000 -0.11475554 -0.10106844 -9.7386066e-005 0.00010061149 0.00057536055 0.0012570977 0.35938779 0.22877267
20613750000 -0.086105287 -0.18994315 -5.6141311e-005 -0.00025010816 0.002659023 0.0019835678 -0.23849449 -0.15779518
20635000000 0.25629359 -0.26861751 -9.6066024e-006 -8.7192231e-005 0.0017933359 -0.0031256857 -0.41540822 0.58260185
20656250000 0.10493203 -0.26196554 -0.00013159674 -8.1196995e-005 0.00060531567 0.00079024222 0.21249795 0.48418891
20677500000 0.207075 -0.35971886 -3.6978752e-005 -9.4270414e-005 -0.00036663387 -0.004062966 -0.30450618 0.039238345
20698750000 0.26114544 -0.089335606 -6.7245477e-005 5.2009553e-005 -0.0026862256 0.0030267073 -0.55983716 0.49752012
20720000000 0.11946575 -0.1389868 0.00020299139 -0.00012711535 0.0019297297 -0.00040318043 -0.3004019 0.30565956
20741250000 0.36214963 -0.10951781 -5.4228844e-005 2.4323421e-005 -0.0011568741 0.0005630622 -0.80615038 0.2488772
20762500000 0.36284456 -0.033655122 2.4856285e-005 0.00011959515 0.0034628741 0.0009512555 -0.700279 0.29191005
20783750000 0.2533834 -0.075175263 -6.0986349e-005 0.00014473373 -0.00069363718 -0.0033922347 -0.50086278 0.335536
20805000000 0.41670716 0.060864773 -4.5184159e-005 0.00019917756 0.00086991553 -4.7422211e-005 -0.44263762 -0.062814921
20826250000 0.26382819 0.23556326 -8.7512686e-005 -4.0616669e-005 -0.001664114 -0.0031608134 -0.9104687 -0.23092109
20847500000 0.20992267 0.098957688 1.3762639e-005 5.0015697e-005 -0.0032003184 0.00021092501 -0.59551436 -0.038714651
20868750000 0.27959323 0.1649452 0.0002161345 0.00019900998 -0.00042530699 0.0020245502 -0.45389843 -0.75510019
20890000000 0.16712609 0.1933665 0.00010023855 1.4957947e-005 -0.0013908395 0.00083469803 -1.0460342 -0.35901335
20911250000 0.22097407 0.10512558 -7.5595584e-005 -7.1147893e-005 0.0017284991 0.0023890182 -0.38938701 -0.20631664
20932500000 0.19555841 0.29847631 9.5328891e-005 0.00027066621 0.00063209975 -0.0022998014 -0.4617064 -0.74974769
20953750000 -0.051935371 0.34952801 9.1048205e-005 0.0001226832 -0.00044350498 0.0006962833 -0.42486259 -0.62177211
20975000000 0.15441227 0.043136187 3.4482688e-005 0.00012095524 -0.000189474 -0.0015567284 -0.19137961 -0.55837595
20996250000 0.052423012 0.1105912 -3.388495e-005 -2.1479922e-005 -0.0030492272 0.0010519839 -0.16185479 -0.57323807
21017500000 -0.11924247 -0.022070602 3.4633191e-005 0.00010184638 0.00051814981 0.002130846 -0.13680179 -0.70931095
21038750000 -0.019931955 0.045455534 0.00016202882 -0.00013143847 -0.00055430509 0.0025781796 -0.2037296 0.15791173
21060000000 -0.21664974 0.15479825 -0.00010459049 7.8370131e-006 0.0026684473 0.0011633385 0.58521992 -0.30481505
21081250000 -0.22852801 -0.035750795 0.00014392693 2.4322437e-005 0.0023301283 0.00056090218 0.079155259 -0.59505439
21102500000 -0.084138237 -0.069334611 -4.0477898e-005 6.2940402e-005 0.0011597481 -0.0026382005 0.1148481 0.029331379
21123750000 -0.11758731 -0.14756291 -0.00018360114 -0.0001848832 -5.6347704e-005 -0.00054063217 0.44960651 -0.24120811
21145000000 -0.041523088 -0.36417308 -0.00022209916 0.00010205692 -0.0014948997 -0.0013445728 -0.067977607 -0.33591241
21166250000 0.06588009 -0.17114322 8.465111e-005 -1.2620451e-005 -8.5126681e-005 0.0015276527 0.13867286 0.38348773
21187500000 -0.024150925 -0.19688496 0.00013017497 5.3050881e-005 0.00042999291 0.00041175727 0.095357642 0.11770882
21208750000 0.042396214 -0.38403541 -2.9978686e-005 2.2271231e-006 3.4334531e-005 0.00056019163 0.14876586 0.10351522
21230000000 0.056488406 -0.23025276 0.00013208517 9.2695664e-005 0.0043527028 -5.739052e-005 -0.11997032 0.06645304
21251250000 -0.11668044 -0.45947176 -0.00023829326 0.00018144542 -0.0024056786 -0.0052336114 -0.023913059 0.52806151
21272500000 0.17998654 -0.39431837 -0.00011790177 -0.00014098163 -0.00089563726 0.0026625921 0.12488858 0.03539953
21293750000 0.25544035 -0.17192203 6.0482354e-005 5.6045486e-005 -0.0010510214 -0.00458897 -0.72281581 0.36452064
21315000000 0.25953189 -0.29150772 -4.2966469e-005 4.8324509e-005 -0.0048296386 0.0035004362 -0.091879152 0.54144281
21336250000 0.32649189 -0.25544822 -0.00016927584 -0.00010172086 0.0038705869 0.0015206696 -0.26109773 -0.01850366
21357500000 0.18946646 -0.20479566 -9.7416232e-006 0.00025409501 -0.0026847576 -0.00084000191 -0.6637736 0.28665683
21378750000 0.087774925 -0.28976777 -0.00019382019 -2.1470858e-005 0.0029010901 0.0027513669 -0.37504458 0.34562793
21400000000 0.29646862 -0.23943676 8.5451837e-005 -0.00011801287 0.00021147143 -0.004488945 -0.61126077 -0.088801332
21421250000 0.19564782 -0.1001134 -0.00022622835 7.2178242e-005 -0.0029795144 0.0032850334 -0.733464 0.10876209
21442500000 0.30541357 -0.20575409 -2.8050659e-005 -2.2055632e-005 0.0023045079 -0.0027064148 -0.60069996 0.1536134
21463750000 0.3285453 -0.0098733995 -0.00015809019 -3.7897051e-005 -0.0055614081 0.0034187858 -0.30029479 0.054140467
21485000000 0.065754615 -0.048646469 1.3495709e-005 7.7565557e-005 0.0049413773 0.0028121783 -0.62488794 -0.35563099
21506250000 0.18406877 -0.10695703 -3.8276732e-005 -4.472276e-006 -0.00049363158 -0.00069318793 -0.52991211 0.064930327
21527500000 0.063318357 0.065504067 -0.00017378484 -0.00015180362 0.0020136575 0.0023488554 0.054644864 -0.25285697
21548750000 0.014085299 -0.084316976 -8.7011576e-005 -0.00013409188 0.0020260415 -0.0039377739 -0.79288626 -0.51699269
21570000000 0.17539206 -0.072648175 0.00016310117 -0.00018076148 -0.0011169402 3.3837616e-005 -0.19306338 0.075849883
