!Keysight Technologies,N5242B,MY47200105,A.14.00.23
!Date: Friday, May 10, 2024 11:19:58
!Correction: S11(C  2-Port  ) 
!S21(C  2-Port  ) 
!S12(C  2-Port  ) 
!S22(C  2-Port  ) 
!S2P File: Measurement: :
# Hz S  RI   R 50
18000000000 0.1440268 -0.029133407 7.997819e-006 -9.5134947e-006 -0.00039074232 0.0035548434 0.87153596 -0.42127064
18021250000 0.070408665 -0.2118451 -5.3360029e-005 -8.3344741e-005 -0.00024511779 0.0025526111 0.3207441 -0.19672367
18042500000 0.2290954 -0.093458846 0.00014175734 8.0582606e-005 0.0043638092 0.0019591779 0.49557999 -0.057623353
18063750000 0.15471306 0.019041449 7.7047203e-005 -8.6150896e-005 0.0030757957 -0.00069363741 0.40685925 -0.19286506
18085000000 0.2102883 -0.05055533 -8.5162601e-006 -6.6581066e-005 0.0026432793 -0.0041568503 0.42296311 0.087963656
18106250000 0.33718169 -0.008628807 -6.1240404e-005 -0.0001575628 -0.0006623317 -0.0032396733 0.47846976 -0.09236218
18127500000 0.20492943 -0.042330593 3.216762e-006 0.00016167908 -0.0047750711 -0.0015524601 0.56302655 -0.21020557
18148750000 0.19701411 -0.040236562 6.6532848e-005 6.6149158e-005 0.00094934303 0.0015049658 0.30316442 -0.36607954
18170000000 0.301164 0.084131412 2.4696961e-005 6.3165885e-006 -0.0026996927 0.0012047722 0.098928116 -0.1318094
18191250000 0.15504071 0.19385712 -3.1986438e-005 -1.7999007e-005 0.0036917885 0.00089382642 0.26888415 -0.093732513
18212500000 0.23958994 0.069171384 -7.9669881e-005 2.7784692e-005 -0.00026430559 -0.0020671289 0.098665908 -0.12852831
18233750000 0.16322567 0.14462017 -1.6185169e-005 -2.2878015e-005 0.00060344388 -0.001090438 0.32335886 -0.15635385
18255000000 0.028174931 0.066500142 9.3571434e-006 4.202456e-005 -0.0021620283 -0.0035338667 0.4272235 -0.54457372
18276250000 0.13888747 0.010783589 5.8582758e-005 -5.7107729e-005 -0.004894211 0.0010901886 0.15052424 -0.46679524
18297500000 0.064273424 0.15586512 2.6085796e-005 5.0340306e-005 -0.00035188807 0.0024723767 0.077963166 -0.46577218
18318750000 0.019530334 0.1249167 -0.00011933265 -4.8340762e-006 -0.0021374365 0.002082953 0.1156923 -0.34848234
18340000000 0.066801719 0.081627302 -5.8687956e-006 3.646484e-005 0.0023830906 0.0048210681 0.14084834 -0.24895233
18361250000 -0.12203755 0.10628864 -7.3092648e-005 -7.8417703e-005 0.0032977562 -0.0017871624 0.36271331 -0.47472894
18382500000 -0.083513305 -0.023963733 2.5525449e-005 -5.501289e-005 5.8128051e-005 0.00040543545 0.39775923 -0.41730368
18403750000 0.0051700766 -0.021890454 -1.5598604e-005 -8.5118205e-005 0.0014207243 -0.0024910131 0.28248462 -0.67407483
18425000000 -0.033486072 0.014642666 1.7265835e-005 3.0125582e-005 -0.0032744973 0.00013444065 0.07582435 -0.5629456
18446250000 -0.027342018 -0.12778462 0.00015033098 -1.0480181e-005 -0.00016128743 0.0026186951 0.49783981 -0.42490417
18467500000 0.022023095 -0.0033003204 -1.5154969e-005 -7.6828997e-005 0.0026011756 0.0016746561 0.26387045 -0.54728073
18488750000 -0.18861012 -0.036215268 4.4794808e-005 -0.00016146348 0.0009797106 0.00045337499 0.35535669 -0.38704464
18510000000 -0.086579755 -0.15956496 -9.9420267e-006 -2.5233354e-005 0.0052851513 -0.00062319241 0.50649953 -0.54021853
18531250000 -0.025815394 -0.022912521 6.8152076e-005 4.2461437e-005 -0.00027453867 -0.0044859895 0.37534338 -0.54303467
18552500000 -0.062444784 -0.19065167 9.8038472e-005 -5.8277878e-006 -5.2812917e-005 -0.0017615806 0.28320804 -0.52592111
18573750000 0.080718555 -0.19085193 -2.7095544e-005 5.5436311e-005 -0.0023758351 -0.0018919654 0.15911952 -0.19968778
18595000000 0.090576336 -0.07054434 -0.00014152657 7.3856354e-005 -0.0024051783 -0.0003970915 0.42608544 -0.11637565
18616250000 0.049323827 -0.13822848 -0.00010316582 -2.716539e-005 -0.00032373841 0.0017542238 0.37541023 -0.46050483
18637500000 0.17250553 -0.10349857 3.9758514e-005 -1.4550338e-005 -0.0010984837 0.00022904685 0.2628428 -0.16573973
18658750000 0.080751546 -0.064028427 -8.4073923e-005 6.7971982e-006 0.0024137676 0.00092349597 0.48230222 -0.49260139
18680000000 0.083670773 -0.20121062 3.873332e-005 7.8806988e-005 -0.00050952454 -0.0032694861 -0.033850681 -0.44802722
18701250000 0.23932323 -0.091095574 4.0560742e-005 0.00016258942 -0.0026438311 -0.00099715346 0.21996257 -0.11525095
18722500000 0.14532268 -0.051453423 -3.7838738e-005 -3.7905033e-005 -0.0017608831 0.00073411636 0.16369794 -0.2996318
18743750000 0.2245234 -0.14843723 -1.7430395e-005 -1.6958174e-005 -0.003072392 0.00097029092 0.14852199 -0.25439161
18765000000 0.21574706 0.080609471 -0.00010729087 -1.363919e-005 -1.5039141e-005 0.0042423992 0.18554433 -0.35757777
18786250000 0.077836432 -0.010907971 7.1870127e-005 -2.2713592e-005 0.0013625927 0.0024647354 0.053990941 -0.35005507
18807500000 0.22521888 -0.094185181 -7.4253854e-005 0.00016724812 0.0037102508 0.0010158524 0.030996954 -0.43451437
18828750000 0.13639309 -0.042623196 2.2519935e-005 -3.3968008e-005 0.00047985677 -0.0022962731 -0.022584876 -0.46450925
18850000000 0.14740816 -0.053208869 -3.2976412e-005 -4.038008e-005 0.0010673582 0.00049680279 0.10093599 -0.13017514
18871250000 0.23601565 0.086017907 -3.8808677e-005 -0.00011770677 -0.00073711207 -0.001224756 0.12552725 -0.59013855
18892500000 0.13576485 0.23063967 0.00013967569 5.9553736e-006 -0.00076672062 0.00057158578 0.050848771 -0.43444452
18913750000 0.10182949 0.025408907 6.3554566e-005 -5.4524062e-005 0.0010174632 0.0020631377 0.20466059 -0.61217338
18935000000 0.081678368 -0.00018159531 2.1461867e-005 1.2878279e-005 0.0022165454 -0.00071912038 -0.067025922 -0.68166405
18956250000 -0.034586828 -0.007623117 6.0089464e-005 -4.5153534e-005 0.0013530434 0.00024277916 -0.012206202 -0.50378931
18977500000 0.029242264 -0.06986814 2.8185306e-005 8.1409424e-005 0.0035046716 -0.0035970935 0.12989509 -0.42061493
18998750000 0.076056711 0.1626182 1.0585711e-005 5.3110067e-005 -0.0031854983 -0.0026765312 0.24641931 -0.52827609
19020000000 -0.045700878 0.12914045 -8.8042516e-006 -9.2158101e-005 -0.00039770192 -0.00073068816 0.13467632 -0.59238666
19041250000 -0.10098281 0.0055067427 2.3383505e-005 7.9440819e-005 -0.002361242 -0.0020474512 -0.00080182403 -0.4894177
19062500000 -0.095712893 0.071270004 3.0125126e-005 9.0052636e-006 -0.0036539689 0.0039970446 0.27922159 -0.61338872
19083750000 -0.07299497 -0.17874314 -9.520795e-005 -5.5955592e-005 0.0040152008 -9.834113e-005 -0.0411347 -0.60353869
19105000000 0.090104625 -0.060398821 7.1550516e-005 6.0137496e-005 -0.0034562505 0.00013173769 0.020461401 -0.22570896
19126250000 0.059614383 0.051110614 -0.00011659804 -3.697638e-005 0.0035266674 0.00063772238 0.44707653 -0.54185754
19147500000 -0.059671689 -0.042357162 -0.00017567931 0.00015983732 -0.0020195185 -0.0034325866 0.10504049 -0.57952517
19168750000 -0.11326411 -0.10005854 -2.8472534e-005 3.0361374e-005 -0.0027616662 0.0023950301 0.15717857 -0.46519113
19190000000 -0.16254875 -0.1883041 -3.0528361e-006 -2.4301065e-005 -5.4297525e-005 -0.00011759627 0.13347723 -0.48415124
19211250000 -0.10464581 -0.29282224 1.5847218e-005 3.5858408e-005 -0.0029498849 0.0033371653 0.18838722 -0.44796982
19232500000 0.13383 -0.15909757 -1.2995397e-005 -8.1048902e-006 0.0042109508 0.0031774947 -0.097321853 -0.3388198
19253750000 -0.010499955 -0.10353583 9.17203e-005 -0.00018187509 -5.0465293e-005 -0.00087578717 0.29715747 -0.2773675
19275000000 0.044686776 -0.1879482 0.00016218801 6.4243606e-005 0.0037667975 0.001682066 0.1790476 -0.52157891
19296250000 -0.0025867531 -0.12953879 -0.00012344401 -6.9894719e-005 0.00074166438 -0.0038889064 0.024867037 -0.3977865
19317500000 -0.1294868 -0.22855234 -2.5117713e-005 -8.2408427e-005 -0.0019438271 0.00041789302 0.19840142 -0.36545521
19338750000 0.18947743 -0.29857525 -3.2150561e-005 1.4812028e-005 0.0020770847 -5.7960391e-005 -0.13047011 -0.53412789
19360000000 0.17499369 -0.20887935 1.151681e-005 3.1994878e-005 -0.003043392 -0.00066826871 -0.10835086 -0.20276538
19381250000 0.1574672 -0.23107749 9.8087257e-005 0.00014313481 0.0034887246 0.0025899236 0.15601686 -0.31091753
19402500000 0.20170504 -0.13940762 -5.291155e-005 3.1075313e-005 0.00078001979 -0.0016929649 -0.053682853 -0.37238729
19423750000 0.029249979 -0.15974662 -0.0001345839 0.00011276911 0.0017560503 -0.0013458011 0.057568025 -0.46978581
19445000000 0.091647565 -0.16926779 8.1757556e-005 0.0001437469 0.00048618545 -0.0033466904 -0.21213506 -0.37223256
19466250000 0.2607837 -0.11469364 -9.3259405e-005 1.9761266e-005 -0.003381958 -0.00080480456 -0.079039581 -0.36719611
19487500000 0.19306575 -0.064011462 3.8446717e-005 -2.9287192e-005 -3.1154046e-005 -0.0014290618 -0.27207834 -0.4703759
19508750000 0.22818854 -0.16456631 -3.2760421e-005 6.0841488e-005 -0.0043839645 0.0016411679 -0.19691014 -0.087838337
19530000000 0.1572322 0.029674642 9.8049859e-005 8.3381463e-005 0.00051791046 0.0022358783 0.11475775 -0.41546485
19551250000 0.059770081 -0.026765028 -3.0961834e-005 0.00013172363 0.0016448795 6.8649926e-005 -0.43478319 -0.71862543
19572500000 0.22199714 -0.039610844 0.00010087636 1.46667e-005 -0.0018671893 0.0004801524 -0.18355694 -0.231814
19593750000 0.16225538 0.097417258 -0.00021022039 0.00012039852 0.0028892248 -0.0015783129 -0.17658198 -0.62542993
19615000000 0.084289007 -0.020820661 -0.00010467684 7.1746123e-005 -0.0041612457 -0.00075832196 -0.34510508 -0.40935457
19636250000 0.11394886 0.0533254 -9.7404309e-006 -0.00014759308 -0.00019310377 0.0024898979 -0.12689388 -0.36478746
19657500000 -0.091403216 0.10484262 0.00016934928 -3.0183988e-005 -0.0008661251 -0.00075280556 -0.17984135 -0.41496837
19678750000 0.0025804662 0.0066100638 3.4102206e-005 -7.7362754e-005 -0.0022163873 0.0059055728 -0.07889685 -0.73712921
19700000000 -0.003938349 0.093647674 -4.9753937e-005 -0.00021132414 0.0066050324 -0.00022309362 -0.37466377 -0.50514269
19721250000 -0.023607537 0.063997544 -2.6301264e-005 -5.9920494e-005 -0.00091892335 -0.0012210476 -0.08588662 -0.33836257
19742500000 -0.1354616 -0.03656888 -6.6107925e-005 0.00011163655 0.0019718751 0.0011635772 -0.14759603 -0.69076401
19763750000 -0.16616391 0.0296147 8.531678e-005 -1.3455206e-005 0.0018309293 -0.0040448862 -0.2875182 -0.34301338
19785000000 -0.21740416 0.061422445 2.5400463e-005 1.3832013e-005 -0.0035630066 0.0012761353 0.21423003 -0.29358706
19806250000 -0.076952554 -0.075319603 -0.00020807429 -3.8820683e-005 0.0018204871 0.00022171432 0.011840826 -0.81206489
19827500000 -0.099961139 0.027365327 6.4564076e-005 0.00017833833 -0.00082288712 0.0010861272 -0.05510335 -0.35886815
19848750000 -0.21710451 -0.11966643 1.1969433e-005 -5.7426427e-005 0.0017627898 0.0009760111 0.058673508 -0.41420028
19870000000 -0.12699534 -0.12740894 -0.00011652553 5.9200753e-005 0.0025361371 -0.002969424 -0.025750779 -0.40940654
19891250000 -0.25119266 -0.17200339 -4.7335856e-005 3.7599919e-005 -0.0016413433 -0.00074789632 0.13442579 -0.2850439
19912500000 -0.10490169 -0.3244057 -3.4008826e-005 2.3999437e-005 0.0012395433 -0.0036058489 0.11457846 -0.018649414
19933750000 -0.010480717 -0.14848462 -1.4914312e-006 -6.8047011e-005 -0.0045144758 -0.0011959298 0.26218686 -0.47302189
19955000000 -0.11367442 -0.21248464 -6.5110762e-005 -1.5071972e-005 -0.0022264475 0.0020840538 -0.29426736 -0.35723844
19976250000 -0.15652955 -0.24715456 0.00019189564 -3.3382483e-005 0.00090939045 0.0009877882 0.055385549 0.028871657
19997500000 -0.17854081 -0.2267731 0.00011082254 -1.3041894e-005 -0.0018096914 0.0019225582 0.032360949 -0.15345156
20018750000 -0.065213338 -0.28329793 0.00019437273 -1.4271142e-005 0.0033145226 -0.00046238748 -0.151177 -0.0018325495
20040000000 0.16627784 -0.31500882 0.00010330942 4.3212658e-006 -0.0019766311 -7.5537823e-006 0.04281088 0.23144464
20061250000 0.30652887 -0.08095064 -3.68576e-005 -0.00010352056 0.0013369101 -0.0021241063 0.010968557 -0.26128033
20082500000 0.11120611 -0.053949721 -1.4206238e-005 -9.8701472e-005 -0.0046903673 0.00030377353 -0.3504017 -0.20165095
20103750000 0.14902863 0.0083998684 -8.4381652e-005 -5.1459342e-006 0.00051747594 0.0040196902 -0.33999076 -0.088871904
20125000000 -0.12134609 0.054284271 -7.5744763e-005 2.1723419e-005 0.0010280424 -0.00064843032 -0.35682386 0.10516024
20146250000 0.059063558 -0.17727441 -5.0978044e-005 0.0001799607 -0.00057827827 0.0041050063 -0.29437858 -0.27668396
20167500000 0.28733057 -0.072309725 0.00012592706 -7.5809825e-005 0.005996624 -0.00049557048 -0.79418182 -0.15785308
20188750000 0.21769927 0.017973177 -2.1193966e-005 -0.00016376092 -0.00093849271 -0.0011725801 -0.047152746 -0.12075775
20210000000 0.22812481 0.10996687 -0.00012963453 5.1667548e-006 0.0026936405 -0.00071890891 -0.57495254 -0.8371833
20231250000 0.033982228 0.37178919 -0.00025947188 -1.8561102e-005 -0.0019467433 -0.0029020696 -0.75517792 -0.15515876
20252500000 -0.11895286 0.19233349 -0.00021784219 4.9464044e-005 -0.0013138799 0.0030334541 -0.44910136 -0.433734
20273750000 0.040184364 0.12461644 0.00010790594 -8.3816434e-005 0.0020405699 -0.0013462878 -0.4042007 -0.3801198
20295000000 0.085596286 0.21890599 -8.0259335e-005 -2.501402e-005 -0.0021037452 0.0014284573 -0.44005784 -0.47226271
20316250000 0.032262653 0.18854025 4.3388307e-005 7.0464943e-005 0.0053217579 0.00065671693 -0.17776924 -0.56277019
20337500000 -0.10925079 0.25841331 0.00010928651 -1.5351534e-005 -0.0009905881 -0.0060929228 -0.06842465 -0.79882681
20358750000 -0.31378055 0.36487672 2.8189668e-006 -1.8589251e-005 -0.0014674892 0.0020128724 -0.56505269 -0.69192922
20380000000 -0.3384887 0.092257977 1.0964165e-005 -4.1971212e-005 0.00062216731 -0.0040470469 -0.30351415 -0.3642185
20401250000 -0.16322182 0.088707745 -8.702081e-005 -1.2862893e-005 -0.0057837316 0.00079315103 0.29307541 -0.67174965
20422500000 -0.2496765 0.056815609 1.896345e-005 -0.00016500674 0.0013517526 0.0031566471 -0.1893018 -0.62742269
20443750000 -0.14115924 0.034998506 0.00018147724 0.00018342974 -0.0013118647 -0.001094359 0.16009222 -0.19964327
20465000000 -0.26677105 0.21854044 -0.00016254 -5.823126e-005 0.0012948908 0.0037882535 0.39004642 -0.81741267
20486250000 -0.39271781 0.065347724 -0.00015572929 -6.2678417e-005 0.001067715 -0.0041053896 -0.3028689 -0.32108471
20507500000 -0.19312817 -0.034233682 0.00013838825 1.0713224e-005 -0.0029163214 0.0011621932 0.23279685 -0.098633677
20528750000 -0.15205175 -0.10911953 6.7798828e-005 -6.7201567e-005 0.0012916146 0.00033239461 0.21898636 -0.15157616
20550000000 -0.10162071 -0.29307318 7.9693724e-005 -6.284612e-006 -0.003499635 -0.0016263203 0.2019126 -0.040450905
20571250000 -0.085609503 -0.15293674 -8.4817177e-005 1.1688618e-005 0.00055247277 0.0067280815 -0.0074313581 0.053220086
20592500000 -0.11531363 -0.097957999 0.00013924131 -2.1679255e-006 0.0029269431 -0.0024298804 0.35994819 0.22844999
20613750000 -0.086737402 -0.18874039 0.00022923331 0.00019376902 -0.0010525541 0.0036613604 -0.23856616 -0.15853226
20635000000 0.25804868 -0.26591983 0.00013387015 1.4864545e-005 0.0060347323 -0.0029260081 -0.41555899 0.58293831
20656250000 0.10558552 -0.26099512 -9.3417861e-005 0.00012128961 -0.0026366175 -0.0019144692 0.21340232 0.48397076
20677500000 0.20651913 -0.36008161 3.0760781e-005 -0.00011226295 0.0013934304 -3.3086311e-005 -0.30405489 0.039690614
20698750000 0.2612038 -0.087590925 1.1447441e-006 8.1184116e-005 -0.002133783 -0.0013001661 -0.55823588 0.49795899
20720000000 0.11750561 -0.13849662 -6.3530249e-005 0.000116267 -0.0007120847 0.0026946848 -0.29972738 0.30608568
20741250000 0.3608411 -0.10722864 0.00010658112 -0.00014423898 0.0027773511 -0.0011657844 -0.8038072 0.25058916
20762500000 0.3618691 -0.03325868 -2.4595834e-005 0.00019796718 -0.00049343379 -0.00014063441 -0.69967026 0.29245242
20783750000 0.25332445 -0.074161381 2.2958913e-005 -0.00014114723 0.0019243796 -0.0010633039 -0.50009364 0.3360787
20805000000 0.41460192 0.062061295 0.00012756385 5.2342075e-005 0.00019709543 -0.0036470103 -0.44210178 -0.062625796
20826250000 0.26287565 0.23461497 0.00021945963 -9.925328e-005 -0.0029413963 -0.0001722391 -0.91038692 -0.2297648
20847500000 0.21043903 0.10004002 -0.00018572775 1.539322e-005 -0.00043869382 -0.0012004562 -0.59514266 -0.038168393
20868750000 0.2800931 0.16473947 3.2350927e-006 3.8975813e-005 -0.0040276493 0.0012582142 -0.45499349 -0.75336862
20890000000 0.16585544 0.19328122 -0.00024828644 -0.00015135408 0.001180757 0.0031429506 -1.0462981 -0.35765997
20911250000 0.2199605 0.10376022 9.2700329e-006 3.6664098e-006 0.0012199171 -0.00070821692 -0.38984129 -0.20664218
20932500000 0.19506226 0.29945263 5.7887697e-005 3.0003301e-005 -0.0013331656 0.0011519867 -0.46250889 -0.74930793
20953750000 -0.053855982 0.35195181 -5.0014511e-005 -6.3827931e-005 0.0031137802 -0.0011786969 -0.42498609 -0.62097579
20975000000 0.1574613 0.04274448 -9.1057627e-006 -3.1733998e-005 -0.0044114543 -0.001890347 -0.19301333 -0.55779153
20996250000 0.052903891 0.1107626 -9.6692702e-006 0.00016062977 0.00061890314 0.0035152326 -0.16250321 -0.57232225
21017500000 -0.11958066 -0.022634909 0.00014970756 -8.4380605e-005 -0.0012348877 -0.0019075543 -0.1377662 -0.70940143
21038750000 -0.021622445 0.046512574 -0.00011981328 7.3028576e-005 -0.0010567169 0.0067180549 -0.20404164 0.158125
21060000000 -0.21799123 0.1560069 -0.00016910958 0.00010580737 0.006245424 -0.0020687107 0.58579063 -0.30606753
21081250000 -0.22821665 -0.036229663 4.4438017e-005 9.7165521e-006 -0.0029383786 0.0017072518 0.079044312 -0.59650964
21102500000 -0.084707752 -0.068957478 2.3508223e-005 0.00023887152 0.0062671313 -0.0018486258 0.11577617 0.029590983
21123750000 -0.11892124 -0.14566161 -5.8850369e-006 -1.3745131e-005 -0.004414245 -0.0043122922 0.45032778 -0.24181813
21145000000 -0.042472571 -0.36544365 -0.0001237723 6.1951039e-005 0.00039672502 0.0038422558 -0.067230113 -0.33610141
21166250000 0.065695092 -0.1688682 -1.1206335e-005 -0.00012182618 0.00086369971 -0.0037869969 0.13872275 0.38237458
21187500000 -0.026147613 -0.19791016 -1.7549717e-005 5.8016532e-005 -0.0029109174 0.0041073691 0.095211379 0.11742766
21208750000 0.041033775 -0.38564894 5.4292036e-006 -3.6870902e-006 0.004656693 -0.00083063194 0.14966618 0.10297168
21230000000 0.055643354 -0.22931734 -3.0121217e-005 0.00011769415 -0.00043045008 -0.0016046587 -0.11936216 0.066741362
21251250000 -0.11915697 -0.46082744 -8.3564672e-005 7.2418356e-005 0.00050673517 -0.0016787949 -0.023113441 0.52879876
21272500000 0.17808203 -0.3939772 -0.00012133686 0.00013983935 -0.0010915435 -0.0023328664 0.12641449 0.034960117
21293750000 0.25359496 -0.17357154 0.00016987219 0.00012072292 -0.002785 0.00046090453 -0.72188663 0.36516461
21315000000 0.25853381 -0.29337373 -0.00011339383 -8.4180254e-005 -0.0010359621 0.00074348738 -0.090624049 0.54024976
21336250000 0.32758468 -0.25733158 -5.1862455e-005 -0.00011428364 -0.0012812288 0.0017806172 -0.26040784 -0.018922681
21357500000 0.18883237 -0.20674568 4.0794668e-005 7.0647795e-005 0.0021728012 0.0019007499 -0.66324967 0.28731772
21378750000 0.088507339 -0.29225346 -2.8350842e-005 -3.6461628e-005 9.0036665e-005 -0.0018472347 -0.37509614 0.34598476
21400000000 0.29661572 -0.24110366 -9.2929651e-005 5.3708187e-005 0.00039514049 0.0012231816 -0.61196065 -0.087851718
21421250000 0.19609916 -0.10285484 7.1418392e-005 5.2097603e-005 -6.6422086e-005 -0.0017440971 -0.73327488 0.10888559
21442500000 0.30802974 -0.20678723 6.2006657e-005 -1.9182673e-005 -0.0024268976 -0.00036187412 -0.60102558 0.15541594
21463750000 0.32901481 -0.01108831 0.00025150937 0.00013944517 3.7267448e-005 0.0040300665 -0.30018988 0.054686449
21485000000 0.06927184 -0.050512228 7.3146795e-005 2.765404e-005 5.0686616e-005 -0.0011269094 -0.62558615 -0.35588637
21506250000 0.18677467 -0.10727935 6.1259118e-005 4.6313016e-005 0.0020286208 0.0047367751 -0.5294472 0.065409116
21527500000 0.064538576 0.066901959 -0.00012608929 -9.5738586e-005 0.0035076314 -0.0043227677 0.054273799 -0.25483242
21548750000 0.016149372 -0.0850638 9.3335468e-005 5.1421037e-005 -0.0021842965 0.0017023223 -0.79409504 -0.51770616
21570000000 0.17934388 -0.070892297 0.00025516254 5.4347041e-005 0.0047912141 -0.0024102954 -0.19271418 0.075477093
