!Keysight Technologies,N5242B,MY47200105,A.14.00.23
!Date: Friday, May 10, 2024 11:05:07
!Correction: S11(C  2-Port  ) 
!S21(C  2-Port  ) 
!S12(C  2-Port  ) 
!S22(C  2-Port  ) 
!S2P File: Measurement: :
# Hz S  RI   R 50
18000000000 0.13159452 -0.021911677 5.4968172e-005 8.4920684e-006 0.0023272291 0.0026107945 0.88493824 -0.4255361
18021250000 0.064171247 -0.21709129 3.9115945e-005 -6.0381622e-005 -0.0027082725 0.0015120731 0.31645292 -0.18956338
18042500000 0.22225748 -0.085738346 3.1346415e-005 -3.247285e-005 0.0058192653 0.0045147119 0.50294816 -0.045070816
18063750000 0.1412539 0.016035134 2.8928345e-005 -0.00013854285 0.0032247349 -0.0032455991 0.41561657 -0.18791716
18085000000 0.20805901 -0.049471818 3.0226367e-005 -1.1200703e-005 0.00082250731 -0.0022306459 0.43205762 0.094921798
18106250000 0.33321875 0.0023237865 6.0751183e-005 4.583905e-005 0.0022197622 -0.0036709395 0.4816314 -0.09006606
18127500000 0.20394978 -0.049130775 1.9539732e-005 6.0195929e-005 -0.0073327841 -0.0029810253 0.5741362 -0.2036349
18148750000 0.19764975 -0.043061905 -2.679237e-005 6.424982e-005 0.0025194536 0.0041884994 0.3053773 -0.3662917
18170000000 0.30047631 0.087234065 -0.00012779435 6.5859902e-005 -0.0024828678 -0.0019680639 0.097727127 -0.11462033
18191250000 0.15501373 0.19194457 -3.6871854e-005 3.4005618e-005 0.0015023742 0.0033640489 0.28264457 -0.079644561
18212500000 0.2491388 0.074342534 1.1728964e-005 1.8657207e-006 0.0034728488 -0.0032245084 0.10309232 -0.11905249
18233750000 0.16087501 0.14604485 -7.4532283e-005 -9.5681688e-005 -0.0031521756 -0.0018666401 0.32786062 -0.15095435
18255000000 0.030649783 0.058627032 5.4087315e-005 -4.1693176e-005 0.000435205 -0.0010241972 0.4332172 -0.53716803
18276250000 0.14586493 0.010819043 -2.1706859e-005 -0.00012304954 -0.0053382586 -0.0025968312 0.15430409 -0.45938364
18297500000 0.064013526 0.15323099 -9.2342143e-006 -0.00019747742 -0.002116695 0.0058083348 0.077724442 -0.45917079
18318750000 0.031313449 0.12665592 -2.3958744e-005 -3.5964731e-005 0.0009002937 0.00025633443 0.1169433 -0.33768404
18340000000 0.074255817 0.09027496 7.5002034e-005 4.0683084e-005 -0.0011043078 0.0042031663 0.14269954 -0.24049437
18361250000 -0.1232169 0.10407817 -3.6584061e-005 0.0001080728 0.0059282272 0.0010316678 0.35948148 -0.47848067
18382500000 -0.077734329 -0.021287963 0.00011787 -0.00011949585 -0.00071731437 -0.0036380452 0.39326167 -0.40545252
18403750000 -0.00077055243 -0.018396944 1.7149696e-005 0.00011501859 -0.00014200409 0.0014868219 0.2789686 -0.67306811
18425000000 -0.035317477 0.018646916 -1.4099809e-006 0.00015132749 0.00045018745 -0.0018336829 0.067728907 -0.56285596
18446250000 -0.025727078 -0.11588325 1.2931229e-005 5.812772e-005 -0.0046728961 0.0020306429 0.50522649 -0.42126107
18467500000 0.010119992 0.0089589134 -6.2635241e-005 6.8293004e-005 0.0063986094 0.004824888 0.26570094 -0.54975796
18488750000 -0.19591267 -0.031209853 9.1612301e-006 2.0018622e-005 -0.00035617701 -0.0039981455 0.360971 -0.39361364
18510000000 -0.091753565 -0.14732198 -8.0347985e-005 1.348852e-005 0.0035957745 0.004023362 0.50545579 -0.55016887
18531250000 -0.036200393 -0.014719233 4.6870136e-005 7.7820412e-005 0.0040326458 -0.0074548493 0.37919927 -0.54653478
18552500000 -0.054567564 -0.19107223 -0.00010467031 -4.074119e-005 -0.0055707446 -0.001623048 0.2876294 -0.53415787
18573750000 0.077636182 -0.18438451 -7.1665003e-005 -3.7475784e-005 0.002652307 0.00097958953 0.16021347 -0.19590209
18595000000 0.083353169 -0.07559716 -7.9856138e-005 2.6768221e-005 -0.0049919477 -0.0053329105 0.44079667 -0.11256324
18616250000 0.044863701 -0.14119655 -0.00014102263 7.0742572e-006 -0.00056029105 0.007410849 0.38397056 -0.47002634
18637500000 0.16335401 -0.10206742 0.00020635768 9.8227283e-005 0.0026275748 -0.0044314815 0.26940483 -0.1586328
18658750000 0.078530811 -0.067330293 -2.3202523e-005 -0.00012960835 -0.0028883067 0.0034691319 0.50037396 -0.49520394
18680000000 0.088223577 -0.19675034 1.4854078e-005 -5.934868e-005 0.0048839441 -0.0020443788 -0.029194497 -0.44318587
18701250000 0.2376208 -0.093706228 -7.193887e-005 -5.5051114e-005 -0.0063373898 -0.0050451802 0.23830542 -0.10456008
18722500000 0.1460384 -0.061056171 -1.1790098e-005 -2.2261345e-005 -0.00083324051 0.00584138 0.1785963 -0.29286677
18743750000 0.22820349 -0.15155245 -9.4761141e-005 3.1968157e-005 -0.0011385382 -0.0036238313 0.16139384 -0.25125167
18765000000 0.21560366 0.07543762 -9.1086076e-005 -5.4196869e-005 -0.0043264334 0.0063166232 0.19084688 -0.35440469
18786250000 0.090211049 -0.020496959 4.2700631e-005 -6.8318666e-005 0.0058625187 0.0037451286 0.055345673 -0.33872387
18807500000 0.23229051 -0.094770879 0.000107169 2.4726502e-005 0.00012682687 -0.00301071 0.033869833 -0.4271962
18828750000 0.132486 -0.053250752 3.3662418e-005 -5.5428452e-005 0.0013539696 0.0030298003 -0.023274858 -0.45725724
18850000000 0.1536383 -0.047474373 -4.705173e-005 3.8728758e-005 0.0038264999 -0.0045472574 0.10573822 -0.11055985
18871250000 0.23830013 0.096597023 -2.4136758e-005 -1.3493124e-005 -0.0058655981 0.0017482274 0.12563384 -0.59114575
18892500000 0.14281321 0.23349467 -5.5057943e-005 -0.00011248826 0.0054103704 0.0011179785 0.04580256 -0.42892188
18913750000 0.11427215 0.033343296 2.2274624e-005 -1.6225553e-005 -0.0041148597 -0.0012192057 0.20158064 -0.61173558
18935000000 0.079158507 -0.00030656601 -8.7899556e-005 6.2087318e-005 0.004555882 0.0045762407 -0.076232441 -0.67925793
18956250000 -0.03753693 -0.010382862 9.8628429e-005 0.00011951121 0.0027183306 -0.0052596373 -0.0148312 -0.50271565
18977500000 0.0213861 -0.061060432 2.2312641e-005 -1.5562047e-005 -0.0010058306 0.00041581612 0.12771888 -0.4154259
18998750000 0.064395167 0.17128849 6.9380127e-005 5.2334228e-005 0.0027313977 -0.0036090412 0.25176227 -0.5310151
19020000000 -0.041128781 0.13712046 5.1811066e-006 -2.151869e-005 -0.0053356453 -0.0036136596 0.13153142 -0.59832108
19041250000 -0.10849431 0.0044358028 3.8632515e-005 4.9853301e-005 8.4652056e-005 0.0033777673 -0.0072966674 -0.48968011
19062500000 -0.11300156 0.070933357 8.3795567e-005 6.2255618e-005 -0.0030610799 -0.0024825747 0.28811291 -0.61800337
19083750000 -0.081240252 -0.17655243 -1.5427791e-005 9.6105949e-005 2.352318e-005 0.0048716324 -0.039489664 -0.61294097
19105000000 0.078019187 -0.050146058 7.8381709e-005 0.00016047085 0.0026516246 -0.0018266061 0.025532819 -0.22324701
19126250000 0.059445128 0.047000654 0.00016836998 -3.7216589e-005 -0.0029383744 -0.0011376415 0.46314201 -0.56159067
19147500000 -0.065259874 -0.0491178 4.0985378e-005 -7.6667224e-005 0.0020821444 0.0013776344 0.10675683 -0.59119177
19168750000 -0.13445923 -0.11040504 8.4623025e-005 -7.4217445e-005 -0.0036823025 -0.0037457114 0.16116184 -0.47172531
19190000000 -0.16966826 -0.19696595 2.8952551e-005 -6.9650465e-005 -0.0025670819 0.0051366333 0.14230324 -0.48446563
19211250000 -0.11651446 -0.29281455 7.081341e-005 -4.6533391e-005 0.0020973089 0.00093865575 0.20346329 -0.45422822
19232500000 0.13565266 -0.16040997 4.8383088e-005 7.7524353e-005 -0.0019885849 0.0021412908 -0.098845564 -0.33684421
19253750000 -0.0043398663 -0.11456096 9.5786905e-005 -3.6543563e-005 0.0043407287 0.0033305052 0.31706634 -0.27345353
19275000000 0.043247279 -0.19843182 -5.7819684e-006 -0.00016073708 0.0026586785 -0.0037747589 0.18821365 -0.5279305
19296250000 -0.0026224791 -0.14197794 6.5371823e-005 9.7566655e-005 -0.0017708284 0.0016419403 0.027627081 -0.39542073
19317500000 -0.13222386 -0.23396963 -1.5489924e-005 0.00012061709 0.0037194123 -0.003161405 0.2093326 -0.35805783
19338750000 0.19571081 -0.29270056 -1.1440521e-005 -0.00010371654 -0.0045242626 -0.0001496879 -0.12639329 -0.53246367
19360000000 0.18998189 -0.21043378 -7.6494951e-005 8.77641e-005 0.0022399533 0.0029866511 -0.10665265 -0.19564968
19381250000 0.17213763 -0.23251165 6.0003371e-005 -0.00010722739 0.0012189961 -0.0031916872 0.16387005 -0.30653882
19402500000 0.20404771 -0.14082161 -8.8682915e-005 3.8860868e-005 -0.00091017073 0.0042327153 -0.053077009 -0.36965522
19423750000 0.037009805 -0.16365454 0.00019621172 0.00023211776 0.0064362334 -0.0055537415 0.058511138 -0.47445682
19445000000 0.10111511 -0.16217224 6.7238092e-005 -1.4708653e-005 -0.0056151813 -0.002900912 -0.22138359 -0.36479908
19466250000 0.26908901 -0.12115097 8.8537757e-007 5.5749093e-005 0.0019153819 0.0021376542 -0.072835304 -0.36414561
19487500000 0.20099486 -0.06381008 -7.876083e-005 4.4099561e-005 -0.0026072871 -0.0073310994 -0.27553964 -0.47617042
19508750000 0.22330315 -0.16236018 -4.3518176e-005 7.1978386e-005 -0.0053532757 0.0077466141 -0.19831671 -0.080731265
19530000000 0.14891584 0.031037899 -0.00014586608 0.00019716946 0.0044011204 -0.0022441885 0.12280246 -0.42225733
19551250000 0.059169583 -0.013632476 -0.0001726464 2.2889306e-005 -0.0043658162 0.00081529288 -0.44658324 -0.73041046
19572500000 0.22323337 -0.029655181 5.9463331e-005 -1.0394389e-005 0.0039500124 0.0031937421 -0.18312263 -0.22867301
19593750000 0.16663449 0.1032521 -1.3530593e-005 -0.00011646343 -0.00082225743 -0.006556036 -0.17716955 -0.63002217
19615000000 0.091272943 -0.016014187 -6.5526565e-006 -5.3747735e-005 -0.0044324812 0.0045223148 -0.34246716 -0.41089091
19636250000 0.10836555 0.047545794 2.4806282e-006 -4.1714109e-005 0.0035118917 -0.0019225037 -0.12752059 -0.36539856
19657500000 -0.10017676 0.09788879 0.00012499208 -0.00012004536 -0.0068211309 0.00073217851 -0.1772321 -0.40980074
19678750000 -0.00071636942 0.012549584 -2.0712016e-005 2.4341696e-005 0.0032045129 0.0080370344 -0.070807397 -0.74512374
19700000000 -0.0090693673 0.089284852 7.9342035e-006 4.5897938e-005 0.0033460369 -0.0047285119 -0.38071579 -0.50275236
19721250000 -0.011684671 0.065228239 -7.7114222e-005 0.00011430712 -0.0015457303 0.0045073675 -0.074580207 -0.32879946
19742500000 -0.14130127 -0.035856619 5.805097e-005 3.8889866e-005 0.0062346235 -0.0039310283 -0.14350624 -0.69795477
19763750000 -0.16624884 0.021287534 -3.242568e-005 9.9429672e-005 -0.0048929444 -0.0020365412 -0.28940424 -0.33837548
19785000000 -0.2130426 0.064596094 -0.00019169804 0.00025771465 0.0034096793 0.0024284485 0.22350198 -0.28749406
19806250000 -0.077365629 -0.079967074 5.288138e-005 -0.00015407491 -0.0025013075 -0.0052809971 0.01516194 -0.82208753
19827500000 -0.090687528 0.022920519 2.6450434e-005 4.1664789e-005 0.00093261141 0.0081229862 -0.056598976 -0.35574314
19848750000 -0.21679829 -0.1168877 0.00020388888 -0.0001468273 0.0039525833 -0.0061440407 0.062407475 -0.4119657
19870000000 -0.13519211 -0.1265424 5.3128202e-005 -1.7774835e-006 -0.0029903988 0.0010900707 -0.02315235 -0.41161942
19891250000 -0.25599635 -0.17078274 0.00021415825 3.5163772e-005 0.0050655338 -0.0011354185 0.13544419 -0.29437646
19912500000 -0.10239421 -0.31135461 -5.5107379e-005 0.00022718887 -0.005141322 -0.0072285393 0.1095995 -0.012688333
19933750000 -0.0081752362 -0.14108139 4.9381106e-005 -2.7181772e-005 -0.0013091998 0.0049348916 0.2648012 -0.48516566
19955000000 -0.10124017 -0.20833223 -2.3600385e-005 3.6343248e-005 -0.0013588233 -0.0049169697 -0.30759138 -0.37034336
19976250000 -0.1622649 -0.23868693 -9.4347619e-005 4.9878807e-005 -0.0029086457 0.0061502093 0.057557032 0.027354527
19997500000 -0.19000214 -0.22970922 6.6858287e-005 -8.4846224e-006 0.0043901582 -0.00032425494 0.034427293 -0.16236974
20018750000 -0.073853537 -0.27226976 1.099104e-005 0.0001246661 -0.0027793753 -0.0016525317 -0.14837475 -0.011117917
20040000000 0.15114062 -0.30778772 5.4178923e-005 6.0505031e-006 0.0023882149 0.0036375541 0.045340803 0.22676958
20061250000 0.30092257 -0.073394231 8.3344174e-005 5.9429269e-005 0.00058353448 -0.0064793923 0.019744996 -0.27140835
20082500000 0.099916622 -0.041404732 2.460521e-005 -2.1079604e-005 -0.0076352675 0.0041316212 -0.34418312 -0.21409835
20103750000 0.13497885 0.011456702 -3.4052071e-005 0.00019272442 0.0044554253 0.0025169959 -0.3311806 -0.094811246
20125000000 -0.13305457 0.05022075 -1.0489483e-005 -4.3193042e-005 -0.0026841422 -0.0018439601 -0.34321141 0.1063754
20146250000 0.053082231 -0.17994443 -5.7252124e-005 3.490959e-005 0.00090107555 0.0076300767 -0.27640885 -0.29032478
20167500000 0.27696696 -0.081850678 -1.1430381e-005 0.00015403744 0.0073794788 -0.0054339701 -0.79821897 -0.15876439
20188750000 0.2181112 0.0069333492 7.84243e-006 -7.6033997e-005 -0.0042633624 0.0025769169 -0.020528823 -0.11620293
20210000000 0.2212745 0.098466486 0.00013530775 1.0795066e-005 0.0078704143 -0.001431087 -0.56856608 -0.84484607
20231250000 0.014302484 0.35154042 -3.6934533e-005 2.4111027e-005 -0.0070605981 -0.0051443921 -0.74731654 -0.14034796
20252500000 -0.12336975 0.17904234 6.1649414e-005 -0.00022194232 0.001863544 0.0075731399 -0.43924814 -0.43126345
20273750000 0.035140656 0.11619557 0.0002214252 0.00011830315 0.0011498223 -0.0066882465 -0.39063343 -0.37353924
20295000000 0.094886228 0.19764015 2.4409755e-005 3.4066703e-005 -0.0037230756 0.0058364398 -0.45006466 -0.46998623
20316250000 0.039651189 0.17821091 -3.234531e-005 -0.00015651355 0.0088490788 -0.0011830948 -0.17571701 -0.54844892
20337500000 -0.11905527 0.24109153 -3.3005657e-005 4.4235057e-005 -0.0045624478 -0.0075139934 -0.067422263 -0.79317087
20358750000 -0.30656308 0.35270435 -7.7372781e-005 -2.0512394e-005 0.00090062153 0.0052199597 -0.58568496 -0.68399638
20380000000 -0.33240071 0.086574234 7.6540062e-005 7.3250812e-005 0.00033139889 -0.0076823141 -0.31331423 -0.34802285
20401250000 -0.15316953 0.082547322 4.5140769e-005 -0.00014675681 -0.0078130718 0.0033015048 0.29468617 -0.67349023
20422500000 -0.23003866 0.056077585 -5.2862833e-006 5.8350329e-006 0.0048370375 0.002137884 -0.20812434 -0.63184106
20443750000 -0.13106857 0.045524009 -0.00018657578 -5.5713899e-006 -0.0047904351 -0.0022135582 0.14906994 -0.1905669
20465000000 -0.26210734 0.22593652 -7.4280455e-005 -7.170652e-005 0.0026646305 0.0071691712 0.38957527 -0.8329612
20486250000 -0.37914455 0.079647429 -9.0207002e-005 0.00024699231 0.0023576587 -0.0076669324 -0.32448083 -0.32910281
20507500000 -0.18576689 -0.016091954 -2.1155902e-005 -5.2512059e-005 -0.0058311578 0.0040486893 0.22893743 -0.10873258
20528750000 -0.14074701 -0.10908876 2.1158474e-005 -0.00017423202 0.0060198512 -0.00045313049 0.21746831 -0.16725132
20550000000 -0.099334165 -0.28378069 0.00014391996 7.5720811e-005 -0.0076894462 -0.0029886151 0.19613773 -0.061154585
20571250000 -0.11230776 -0.14275415 1.9684694e-005 0.00014262905 0.0024308653 0.010257958 -0.01692895 0.037749417
20592500000 -0.12442931 -0.090904154 -2.5702468e-005 0.00011769494 0.0034337535 -0.0062966486 0.36992809 0.22071645
20613750000 -0.10242488 -0.17463629 -2.3647106e-005 -7.9608333e-005 -0.0041647204 0.0070806704 -0.23802482 -0.1853727
20635000000 0.25018939 -0.26507589 -5.1986259e-005 -1.0653129e-005 0.010788268 -0.0042961468 -0.41010016 0.57963794
20656250000 0.08857514 -0.25368211 -7.4500595e-006 -0.00011413906 -0.0070157237 -0.0031073242 0.24175914 0.47260529
20677500000 0.18345365 -0.34892637 0.00010301462 -0.0001104578 0.0050821882 0.0030686536 -0.29193765 0.016979046
20698750000 0.23895578 -0.08606793 5.9092807e-005 4.9257214e-005 -0.0038352539 -0.0061090426 -0.54300421 0.49601567
20720000000 0.099362686 -0.14361872 -0.00017404412 -2.3490718e-005 -0.0017702228 0.0065461337 -0.27549261 0.30280885
20741250000 0.34125453 -0.10506463 5.8515183e-005 3.685926e-006 0.0057734642 -0.0035253509 -0.78266937 0.23916347
20762500000 0.34804749 -0.039362401 0.0001924731 -0.00015528515 -0.0039196475 -0.00045552279 -0.68433321 0.29636431
20783750000 0.24045961 -0.075225979 0.00014021317 8.9366338e-005 0.003826489 0.0017183038 -0.47546354 0.35062069
20805000000 0.40292215 0.055256266 -6.5683191e-005 4.0090181e-005 0.00053118513 -0.0068851775 -0.41863045 -0.058816653
20826250000 0.25801748 0.22568598 -4.874769e-005 -0.00011987811 -0.0056204177 0.0023334755 -0.91060311 -0.21603236
20847500000 0.21393354 0.086359493 -1.3922113e-005 3.9961451e-005 0.0038140945 -0.0019734316 -0.58811581 -0.012399753
20868750000 0.28471869 0.13933729 2.3508164e-006 6.8556724e-006 -0.0085716825 -0.00068358076 -0.43486026 -0.73782206
20890000000 0.17808941 0.1722794 -0.00018113236 8.3735722e-005 0.003662711 0.006973472 -1.0652375 -0.33371893
20911250000 0.22897837 0.095570579 1.6813727e-005 -4.7892379e-005 0.0013555868 -0.0050272858 -0.38708773 -0.18279709
20932500000 0.20784035 0.28401089 -8.2150174e-005 2.4441266e-005 -0.0046629445 0.0048771431 -0.47670624 -0.74611419
20953750000 -0.031026034 0.34364748 0.00011578259 7.9061152e-005 0.0081218313 -0.0027159294 -0.44752625 -0.61877799
20975000000 0.18220191 0.029607786 4.084481e-005 0.00011949249 -0.0089562284 -0.0032562702 -0.21636869 -0.55205679
20996250000 0.077792294 0.095790565 5.0413677e-005 0.0003673624 0.0038090451 0.0071468507 -0.17687273 -0.56223941
21017500000 -0.10378082 -0.020357586 1.632573e-005 -0.00019262974 -0.0011193305 -0.0065815216 -0.15873379 -0.72636336
21038750000 -0.017754974 0.052097831 0.00015833676 -0.00013405288 -0.0032238392 0.010443286 -0.22670905 0.17057501
21060000000 -0.20793381 0.16081898 -9.2958999e-006 4.4986416e-005 0.010307382 -0.0031430442 0.5841921 -0.32235193
21081250000 -0.21655075 -0.029282697 2.9469587e-005 9.1022783e-005 -0.0068676122 -3.2217777e-005 0.055254553 -0.62581557
21102500000 -0.080196016 -0.067976929 -0.00013939162 -0.00013358421 0.0092827147 0.0019482929 0.10082926 0.017334158
21123750000 -0.11128144 -0.13315421 0.00013294646 -7.2294756e-006 -0.0044370643 -0.0091365539 0.44673818 -0.27078763
21145000000 -0.053849906 -0.34622243 -0.00015496292 6.8725894e-005 -0.0023226182 0.0077633648 -0.079643764 -0.37501529
21166250000 0.049412917 -0.15419739 6.2589555e-005 -5.0290288e-005 0.0046790363 -0.0053554601 0.12950675 0.37016258
21187500000 -0.037180573 -0.17813741 -0.00017953482 -0.00013815818 -0.0072015198 0.0026109964 0.095400617 0.097881176
21208750000 0.021909546 -0.37923858 -2.3729574e-005 -2.9557148e-006 0.0076668374 0.0027058921 0.15701866 0.079874128
21230000000 0.042342346 -0.22225419 7.3990304e-005 4.7468242e-005 -0.00063546159 -0.0061576008 -0.11605402 0.044566058
21251250000 -0.14303526 -0.44643959 -0.00012793372 -8.9625304e-005 -0.0020945491 0.0017493325 -0.0035273002 0.52980125
21272500000 0.15770537 -0.37928015 0.00028096646 5.9136761e-005 0.0035656944 -0.0032702407 0.15708357 0.01414496
21293750000 0.2420444 -0.16185792 9.4601564e-005 4.1712883e-005 -0.0080088777 -0.0017878894 -0.71514577 0.36479333
21315000000 0.24789059 -0.29369798 -0.00036422376 0.00010148698 0.0020613517 0.0048225238 -0.062976241 0.54122686
21336250000 0.32151091 -0.27530468 -2.3630311e-005 -5.3135667e-005 -0.0016016413 -0.0038427662 -0.23911603 -0.031218283
21357500000 0.1921736 -0.21771222 0.00018765323 5.4568278e-005 -0.0013640013 0.0072676982 -0.6531741 0.29355258
21378750000 0.073963255 -0.30187437 1.5826859e-006 -3.9102284e-005 0.005659061 -0.0048605888 -0.36075011 0.3607592
21400000000 0.29526612 -0.25733638 -8.1292885e-005 -0.00015482695 -0.0058264807 0.0011530749 -0.60014129 -0.078680947
21421250000 0.19658162 -0.1047364 8.2418017e-005 -1.4502023e-006 0.0047426587 0.0019122931 -0.73074472 0.1270698
21442500000 0.3083882 -0.22883126 5.5695979e-005 0.00010996754 -0.0042654653 -0.0058723204 -0.59710085 0.18033904
21463750000 0.3464765 -0.027947575 1.5401905e-005 -1.5975789e-005 -0.0017405426 0.0092812544 -0.28858212 0.071209788
21485000000 0.077116728 -0.052942641 -0.00019485623 3.1585671e-005 0.0050664255 -0.004141415 -0.64061701 -0.34365773
21506250000 0.19987257 -0.11717322 -0.00022413307 -0.0002101196 -0.0035991517 0.0040747607 -0.53465194 0.088170409
21527500000 0.08336217 0.065222658 0.00011800121 -3.2085278e-005 0.0080533642 0.0008077586 0.060553566 -0.24390942
21548750000 0.031562265 -0.084922053 -8.806683e-005 -0.0001253121 -0.0038445946 -0.0054183938 -0.82733119 -0.51801419
21570000000 0.19518748 -0.078814067 5.168757e-005 5.5855566e-005 0.0026118292 0.00353962 -0.20658399 0.087887399
