!Keysight Technologies,N5242B,MY47200105,A.14.00.23
!Date: Friday, May 10, 2024 11:15:48
!Correction: S11(C  2-Port  ) 
!S21(C  2-Port  ) 
!S12(C  2-Port  ) 
!S22(C  2-Port  ) 
!S2P File: Measurement: :
# Hz S  RI   R 50
18000000000 0.14159131 -0.026815841 -0.00017246039 -9.3486497e-006 -0.0020613379 0.0040726857 0.87570727 -0.42283806
18021250000 0.061696313 -0.21684712 8.3408682e-005 -8.6766806e-005 0.0017927341 0.0027517211 0.31955889 -0.19491741
18042500000 0.22621432 -0.093808204 -6.5667409e-005 5.6086639e-005 0.0027079356 0.00054524327 0.49809369 -0.053681567
18063750000 0.15005845 0.020991368 2.9595074e-005 3.5024543e-005 0.0037999048 0.0015608534 0.40917844 -0.19128507
18085000000 0.20794398 -0.051795367 0.00011083489 -0.00011161826 0.0032803002 -0.006877915 0.42528775 0.090908475
18106250000 0.34117651 -0.0083684372 3.4283728e-006 3.4353739e-005 -0.0028727711 -0.00065398344 0.47946024 -0.09155646
18127500000 0.20417811 -0.043826386 3.2716205e-005 -9.2302202e-005 -0.0016785939 -0.0033836965 0.56716144 -0.20828453
18148750000 0.1951568 -0.043835778 3.9618557e-005 7.443747e-005 -0.0026165121 0.0019241595 0.30418098 -0.36613065
18170000000 0.30739728 0.084581785 -3.5724184e-005 -1.9415093e-005 0.00037661151 0.0018458841 0.098825209 -0.12676679
18191250000 0.15462855 0.19688226 -0.00012202084 6.4834072e-005 0.0017193165 -0.0011128332 0.27337131 -0.089945123
18212500000 0.24445048 0.066584438 -1.2179023e-005 -3.3872228e-005 0.00067334366 0.0002287223 0.099422432 -0.12526974
18233750000 0.16451751 0.14725308 2.5557834e-005 -0.00014126202 0.00093882182 -0.0031203907 0.325306 -0.15404958
18255000000 0.025570778 0.065106489 0.000144205 3.9013012e-006 -0.0032267699 -0.0023938324 0.43043074 -0.54282272
18276250000 0.1428422 0.007336007 6.467355e-005 0.00010786522 -0.0031974837 0.0014352167 0.15157323 -0.46516734
18297500000 0.067878716 0.15877853 1.4130578e-006 -2.357033e-005 -0.0016099655 0.0010485477 0.078307413 -0.46411872
18318750000 0.024869774 0.12431263 -0.000132102 -1.7015138e-006 -0.0019795776 0.0043126959 0.11633284 -0.34507108
18340000000 0.073778816 0.082288638 8.6458916e-005 8.8430366e-005 0.0032744401 0.0025679208 0.14171092 -0.24636202
18361250000 -0.12291581 0.10998828 3.393593e-007 -8.3861823e-006 0.0014372562 -0.0001135724 0.36258897 -0.47550362
18382500000 -0.083485022 -0.02303599 4.1606683e-005 6.8509697e-005 0.0024218229 9.6440432e-005 0.39802271 -0.41374758
18403750000 0.0086926296 -0.020169938 6.5833745e-005 4.0978648e-005 -0.00085702888 -0.003183115 0.28216776 -0.67448384
18425000000 -0.033438753 0.020540077 -9.0466077e-005 -6.9919413e-005 -0.0018568807 0.0019458034 0.073398858 -0.56293803
18446250000 -0.025227841 -0.12666236 1.2621626e-005 8.1886887e-005 -0.00060502032 0.00040895774 0.50048786 -0.42351022
18467500000 0.022189964 0.0040051374 -4.5472498e-005 -1.7554219e-005 0.0016540249 0.0035488545 0.26432082 -0.54779023
18488750000 -0.19486503 -0.030551439 -0.00012703556 -6.542584e-005 0.0025421525 -0.00037951671 0.35695076 -0.38807091
18510000000 -0.087262869 -0.15778199 8.7768385e-005 5.0114293e-005 0.0032587724 -0.0012630115 0.50694346 -0.54223388
18531250000 -0.027329076 -0.015497671 -3.3260345e-005 -0.00017339272 0.0013433151 -0.002698018 0.3765026 -0.54395878
18552500000 -0.062281281 -0.19122468 2.8530758e-005 -2.8131191e-005 -0.00060464971 -0.0045926999 0.28480083 -0.5284754
18573750000 0.081700064 -0.19012374 -4.5326531e-005 1.2258684e-005 -0.0031404812 0.00069918699 0.15922268 -0.19825095
18595000000 0.088982336 -0.066938564 -6.3932443e-005 9.039609e-005 -0.00014529216 -0.0023084369 0.43079194 -0.11532114
18616250000 0.043992132 -0.13918583 -2.3498496e-005 5.230781e-006 -0.002825141 0.0027201916 0.37763241 -0.46348345
18637500000 0.17403862 -0.10320307 0.00013478106 -2.975365e-005 0.0018461129 0.00049486634 0.26457569 -0.16361696
18658750000 0.079543956 -0.062784106 1.100867e-005 7.91532e-005 0.00023549718 -0.00021618143 0.48814023 -0.49438304
18680000000 0.083842613 -0.20344506 -3.513999e-005 6.6166504e-005 0.00054775015 -0.0016155246 -0.033247311 -0.44744965
18701250000 0.24074818 -0.090963677 -0.00015490675 -4.4063745e-005 -0.0025104326 -0.0022341388 0.22503102 -0.11179612
18722500000 0.1393275 -0.051608145 -9.9541554e-005 6.7593348e-005 -0.0029211037 0.001447189 0.16757318 -0.29819289
18743750000 0.22445297 -0.15333998 -1.216761e-005 0.0001000335 -0.0018490839 0.0010956542 0.1521056 -0.25311744
18765000000 0.21531887 0.08164908 3.2497439e-005 0.00014427085 -0.0010541264 0.0031916981 0.18748301 -0.35691062
18786250000 0.076752551 -0.014482729 2.0668305e-005 -2.2962349e-005 0.0010704029 0.0041459333 0.054569405 -0.34745079
18807500000 0.22998135 -0.09508267 7.1205824e-005 0.00010583274 0.0048431535 -0.00058310281 0.032323867 -0.43357393
18828750000 0.13468006 -0.043595009 2.3432674e-006 2.2620075e-005 -0.0017796069 -0.0014883985 -0.022473054 -0.4630872
18850000000 0.14478986 -0.053193893 1.9513316e-005 0.00015013298 0.0035861458 0.00047063085 0.10303717 -0.125239
18871250000 0.23730165 0.088299774 5.9488972e-005 -2.3822216e-005 -0.0027785441 -0.0026879101 0.12591723 -0.59129423
18892500000 0.13429558 0.23526247 -8.1694903e-005 0.00014550328 0.00036377079 0.0029890102 0.04996793 -0.43302789
18913750000 0.10425439 0.026238544 -7.4685391e-005 -8.4066978e-006 0.0014147137 -0.00060222019 0.20491004 -0.61154193
18935000000 0.083624944 0.0012285335 5.482664e-005 -0.00014596408 0.00086251821 0.0013188171 -0.068691485 -0.68060839
18956250000 -0.040110767 -0.0055115838 7.2533861e-005 -7.4353644e-005 0.0033825114 -0.00056927511 -0.01240253 -0.50325292
18977500000 0.026629874 -0.068757392 -5.764575e-005 -6.0348234e-006 0.0010584843 -0.0040921005 0.12994361 -0.41847926
18998750000 0.074558027 0.16962367 -0.00020410244 8.6182452e-005 -0.0014267715 -0.00081560836 0.24898838 -0.52858382
19020000000 -0.045767929 0.13304797 6.200809e-005 -9.0194124e-005 -0.00072587375 -0.0035767227 0.13444678 -0.59374481
19041250000 -0.10066405 0.00025182118 -8.1197446e-005 -3.5199249e-005 -0.0035756382 0.00084383122 -0.0021208099 -0.4894785
19062500000 -0.10252732 0.074202552 5.8895992e-005 -9.90013e-005 -0.0013955581 0.0015942296 0.28247002 -0.61511308
19083750000 -0.078962393 -0.18058537 -5.7998073e-005 4.932571e-005 0.00062670518 0.00086654327 -0.040704992 -0.60648394
19105000000 0.088238977 -0.056693327 -4.7686241e-005 3.6180987e-005 -0.00041338018 0.00049124251 0.021788664 -0.22444671
19126250000 0.06001769 0.053773634 -0.00010993901 -2.3084855e-005 0.00082976534 -0.0010968382 0.45226631 -0.54671538
19147500000 -0.060479481 -0.047263164 6.1562961e-005 -8.2787323e-005 -0.00081207103 -0.0012002963 0.10575848 -0.5824247
19168750000 -0.11854319 -0.10425203 7.3123574e-006 -2.7759586e-005 -0.0030233674 0.00013916517 0.15846808 -0.46736348
19190000000 -0.16740662 -0.1910108 8.4944542e-005 5.5848795e-005 -0.00081357098 0.0011626339 0.13591535 -0.48460469
19211250000 -0.11075 -0.29613587 -6.7535082e-005 7.0058748e-005 -0.0020723448 0.0031659924 0.19295302 -0.45034412
19232500000 0.13633801 -0.15617186 9.3756593e-005 -0.00015664229 0.0036017841 0.0023330208 -0.097808965 -0.33878773
19253750000 -0.011735316 -0.10828971 6.1113918e-005 0.00010437935 -0.00027349469 0.00077632081 0.30282673 -0.27651739
19275000000 0.044108253 -0.19449511 -0.00011878128 2.8742717e-005 0.0051348316 0.0001620689 0.18191367 -0.52403462
19296250000 -0.0029597562 -0.13041843 -1.9651668e-005 7.8050864e-005 -0.0014046087 -0.0030601281 0.025852242 -0.39795864
19317500000 -0.13583663 -0.23153159 -2.6573704e-005 -7.1896153e-005 0.00084645505 0.0010339705 0.20224081 -0.36449754
19338750000 0.19494477 -0.29604182 0.00010712707 1.0011665e-006 -0.00036146256 -0.0016163843 -0.12905627 -0.53483605
19360000000 0.17911792 -0.20751698 -1.8507933e-005 0.00013203315 -0.00148268 0.0022549001 -0.10753172 -0.20099798
19381250000 0.15987581 -0.23521039 6.0095641e-005 0.00012831001 0.0028373003 0.0001264977 0.15866444 -0.31046066
19402500000 0.20113035 -0.13879317 -2.1515518e-005 -6.3218517e-006 -0.0003320715 0.00072500226 -0.052956104 -0.37241861
19423750000 0.025132461 -0.15967482 -6.4379521e-005 -6.8669717e-005 0.003760248 -0.0025067921 0.058644123 -0.47190097
19445000000 0.09295813 -0.16522744 -0.00013712094 2.4274894e-005 -0.0018274375 -0.0038559709 -0.2142074 -0.37022287
19466250000 0.26610321 -0.11240991 -2.9192837e-005 6.2269188e-005 -0.0016880056 0.00062870106 -0.076365098 -0.36690825
19487500000 0.19349411 -0.061313353 1.1030752e-005 -0.00023170336 -0.00053054839 -0.0039514978 -0.27257237 -0.47289401
19508750000 0.22991167 -0.16831005 -2.8208933e-005 0.00014381856 -0.0054750228 0.0038266133 -0.19653624 -0.085761741
19530000000 0.15236042 0.031870756 -0.00013227704 8.9229259e-005 0.0030871888 0.00026729819 0.11811589 -0.41764203
19551250000 0.053812239 -0.023937559 -3.5490433e-005 -0.00013132888 -0.0013590738 0.0001694369 -0.4372142 -0.7224955
19572500000 0.22483578 -0.038594481 -0.0001099792 -2.62629e-005 0.0014246883 0.0014255046 -0.18308727 -0.23108627
19593750000 0.16074444 0.099704348 7.7589766e-006 0.00013837255 0.00096587092 -0.0037838442 -0.17561315 -0.62714553
19615000000 0.082388632 -0.023017202 -9.1265603e-005 1.1743774e-005 -0.0033481726 0.0019536505 -0.34460509 -0.41010365
19636250000 0.11157519 0.052856032 0.00011669005 2.1123295e-005 0.00043034289 -0.00016134269 -0.1269615 -0.36443704
19657500000 -0.10000733 0.10542807 -0.00017905878 -2.706279e-006 -0.0027594178 0.0012456027 -0.17920581 -0.41376212
19678750000 0.0028963683 0.0059889536 0.00013023535 -0.00017112712 0.00025989037 0.0055933474 -0.076136187 -0.74016964
19700000000 -0.0046329941 0.091625676 -1.3038692e-005 3.514731e-005 0.0045513627 -0.00033170753 -0.37660661 -0.50494659
19721250000 -0.02075031 0.061409399 -5.5428463e-005 7.9069241e-006 5.0186477e-006 -9.9568104e-005 -0.082228445 -0.33563504
19742500000 -0.13897879 -0.042112686 3.8875536e-005 4.5203498e-005 0.0019716581 -0.00056916289 -0.1456989 -0.69410765
19763750000 -0.16919565 0.02663031 -0.00018907162 2.0234713e-005 0.00031189344 -0.0034381656 -0.288423 -0.3420653
19785000000 -0.22027355 0.06059467 0.00011611346 0.00010844756 -0.0018075018 0.00095051801 0.21758623 -0.29255778
19806250000 -0.074525326 -0.078557484 4.746882e-005 -1.8050145e-005 2.1818521e-005 -0.0012472963 0.013253113 -0.81617373
19827500000 -0.095399 0.025840588 -7.1994837e-005 -4.8658898e-005 0.00024974227 0.0025508839 -0.055418476 -0.35851502
19848750000 -0.2175149 -0.12507814 9.613168e-006 6.3548243e-005 0.0024849286 -0.0015552833 0.059786845 -0.41377103
19870000000 -0.12813917 -0.12769309 4.0312618e-005 4.3429459e-006 0.0010984205 -0.0011907936 -0.024880832 -0.41052321
19891250000 -0.25560153 -0.17367969 -7.4867079e-005 8.7004752e-005 0.00050734601 -0.001641874 0.13509393 -0.28751716
19912500000 -0.10158964 -0.32778528 -1.6658259e-005 -0.00016728434 -0.00073107088 -0.0044278284 0.11412957 -0.016537156
19933750000 -0.0078094737 -0.14690813 0.00017702336 4.2330726e-006 -0.0029600731 0.0010682642 0.26444685 -0.47732276
19955000000 -0.11114489 -0.21599077 7.4757707e-005 -9.4573988e-005 -0.0020423215 -0.0007973485 -0.29791775 -0.36199585
19976250000 -0.15734808 -0.24613278 -8.1135251e-005 5.3965912e-005 -0.00034493173 0.0040915748 0.056399614 0.028561696
19997500000 -0.18353413 -0.22644639 -3.183857e-007 -0.00015714031 0.0010147984 8.4756248e-005 0.032871038 -0.1561733
20018750000 -0.068568043 -0.27950236 -2.1312106e-005 1.5049266e-005 -1.0365016e-005 -6.9409194e-005 -0.15108274 -0.0047000484
20040000000 0.16675901 -0.31276739 4.5871886e-005 0.00020163821 0.0013839328 0.0017322875 0.042646896 0.23007417
20061250000 0.30877998 -0.078030296 -8.4671628e-005 -0.00017245529 -0.00099138962 -0.0052123652 0.014317711 -0.26439202
20082500000 0.10747309 -0.054937158 0.00021568284 0.00013953062 -0.0045082001 0.0044628382 -0.34848285 -0.20621061
20103750000 0.14864457 0.0084547456 0.00026171361 0.0001705296 0.001817079 0.00018273049 -0.33781084 -0.091249913
20125000000 -0.1312207 0.054194383 9.4370349e-005 -2.1704445e-005 -0.0021886055 0.0021280798 -0.35294032 0.10490556
20146250000 0.059018817 -0.18155962 -2.9100665e-005 -0.00015800161 0.0033803724 0.0028983578 -0.28884447 -0.28154358
20167500000 0.28729069 -0.073204212 6.4891981e-005 -3.3988345e-005 0.0018608505 -0.0016467606 -0.79466575 -0.15974234
20188750000 0.21711783 0.013255898 -0.0001990454 3.293535e-005 0.0018445884 0.00075586216 -0.039287604 -0.12018596
20210000000 0.22946729 0.10464446 -0.00022745042 -6.8601359e-005 0.0020168624 -0.0038226426 -0.57163739 -0.84051704
20231250000 0.026442681 0.36895546 -0.00013299269 4.2896545e-006 -0.002478898 -0.00048603216 -0.75271243 -0.15255503
20252500000 -0.12294543 0.18452348 3.3917131e-005 -2.1666652e-005 0.00092953164 0.0013067714 -0.4460485 -0.43421829
20273750000 0.042329043 0.12046424 -9.2815781e-006 -0.00016645071 -0.00039075845 -0.0007427113 -0.39973524 -0.37888044
20295000000 0.088294983 0.21359622 -7.3280785e-006 -4.7361926e-005 0.00056197442 0.0028449621 -0.4418776 -0.47185674
20316250000 0.033587705 0.18145785 0.00016322185 -5.7986046e-005 0.003470039 -0.0011879912 -0.17600265 -0.55848545
20337500000 -0.11213699 0.25336906 7.6427612e-005 7.9941739e-005 -0.00058565615 -0.0036463682 -0.065670647 -0.79778057
20358750000 -0.3170813 0.36341885 -3.5676698e-005 -3.7648828e-005 -0.00099666382 0.00019385954 -0.56911629 -0.6903708
20380000000 -0.33714896 0.087706208 -9.0592701e-005 4.1763342e-005 -0.0009209892 -0.002880737 -0.30526534 -0.35983467
20401250000 -0.155826 0.089912102 6.1772269e-005 -4.88363e-005 -0.0046711578 0.00066407822 0.29515371 -0.67153591
20422500000 -0.24535564 0.053959869 -4.5043151e-005 4.5671473e-005 0.00058580522 0.0025036398 -0.19359089 -0.62903452
20443750000 -0.1355491 0.034452938 -0.00011614961 0.00012499753 -0.0016172193 -0.00026770876 0.15713502 -0.19713423
20465000000 -0.26752159 0.2253457 0.00011631558 -0.0001038815 0.0020745031 0.0033666329 0.39021081 -0.82149023
20486250000 -0.39197001 0.068372637 5.7890156e-006 -1.7555172e-005 6.7132285e-005 -0.004634656 -0.3091017 -0.32284585
20507500000 -0.18516029 -0.028653165 7.0097725e-005 -8.3252489e-005 -0.0013804807 0.0019703151 0.231051 -0.10061231
20528750000 -0.14750236 -0.10776514 9.0485279e-005 -4.4904671e-005 0.0011383899 -0.0016970359 0.21886063 -0.15518852
20550000000 -0.098278545 -0.29553097 0.0002009465 -0.00019256369 -0.0035919698 0.00091243186 0.19964524 -0.046066888
20571250000 -0.091921858 -0.14985748 8.6022286e-005 -0.00012560167 0.0017320486 0.0040834178 -0.010865445 0.04913884
20592500000 -0.12160579 -0.094658077 -6.2492909e-005 -9.5913856e-006 0.0010044553 -0.00029492643 0.36261353 0.22667259
20613750000 -0.091821991 -0.1872519 6.9984944e-006 7.2350726e-006 0.0014667164 0.0027949722 -0.23880082 -0.16641712
20635000000 0.26080221 -0.2646803 -0.00027457261 -2.7490256e-005 0.0038732411 -0.0028167504 -0.41502652 0.58106655
20656250000 0.097396508 -0.26110688 -6.2818879e-005 -6.2180239e-005 -0.0011194899 -0.0006277886 0.22003153 0.48013449
20677500000 0.20077112 -0.36312869 -3.1316744e-005 -0.00010043325 0.00067350519 -0.0016912546 -0.30149269 0.032477893
20698750000 0.25294867 -0.083537519 -0.00013114652 -0.00015954381 -0.0024164342 0.00042795265 -0.55575824 0.49594611
20720000000 0.10907318 -0.14213327 9.981303e-007 -0.00015553749 -2.5995598e-005 0.0016254841 -0.29382521 0.30445349
20741250000 0.36277059 -0.10972223 0.00011153039 -7.0444541e-005 0.0017841361 -0.00093337183 -0.79831934 0.24447924
20762500000 0.36003622 -0.03549169 -8.9468333e-005 -5.3695981e-005 0.00057341234 0.00036839151 -0.69588715 0.29216835
20783750000 0.24614002 -0.081102468 5.5555531e-005 -1.24528e-005 0.0010751939 -0.0017230948 -0.4932256 0.33925447
20805000000 0.41423282 0.059268471 2.7111049e-005 -3.6692185e-005 0.00046361281 -0.0029503091 -0.43559134 -0.063508317
20826250000 0.25687227 0.23597935 -0.00029327814 -0.00025496355 -0.002891016 -0.00078932446 -0.90968674 -0.2277381
20847500000 0.2103195 0.090844542 -8.9036294e-005 0.00010868756 -0.00064716931 -0.0013045265 -0.59253722 -0.031976454
20868750000 0.28494993 0.15770134 -6.4610387e-005 3.9008497e-005 -0.0040274812 0.0020721166 -0.44747308 -0.75045258
20890000000 0.16663152 0.18685691 1.2752849e-005 0.00015074875 0.0019904096 0.002651359 -1.0503643 -0.35145965
20911250000 0.22690167 0.099767126 1.9760324e-005 0.00017062189 5.135169e-005 -0.00061722769 -0.38779843 -0.19962938
20932500000 0.20302059 0.30103242 -0.00024687339 -9.1393187e-005 0.00036334441 0.0021462264 -0.46476376 -0.74763155
20953750000 -0.048389412 0.35195905 4.0494819e-005 5.8286646e-006 0.0018572864 -0.0028787644 -0.43008375 -0.62000263
20975000000 0.17370997 0.036545362 8.3934283e-005 -4.461404e-005 -0.0035911053 0.00059748697 -0.19795446 -0.55478632
20996250000 0.06271372 0.10811485 2.6357254e-006 0.00012236745 0.0010226909 0.00062684924 -0.16457359 -0.56798643
21017500000 -0.116735 -0.025868617 0.00014484099 -7.0532944e-005 -0.0030808961 3.5070658e-005 -0.14340933 -0.71320575
21038750000 -0.016899895 0.050228365 6.9517955e-005 9.1064576e-005 0.0018425959 0.0053852783 -0.21042258 0.16281378
21060000000 -0.21824345 0.16653924 9.7736927e-005 -2.002996e-005 0.0023427818 -0.0023963745 0.58453894 -0.30867431
21081250000 -0.22219095 -0.034608454 -4.0160063e-005 3.3070128e-006 0.00050508004 0.0030086921 0.071735092 -0.60375774
21102500000 -0.076318376 -0.06582094 7.1622475e-005 -0.00012848571 0.0037665991 -0.0042540259 0.11157686 0.027268024
21123750000 -0.1178645 -0.14147104 6.6445144e-005 0.00020570564 -0.0032890192 -0.001023244 0.44975114 -0.24892682
21145000000 -0.043568727 -0.36256373 -0.00013908315 5.0315848e-005 0.00071183272 0.00025291232 -0.070539191 -0.3461926
21166250000 0.060824901 -0.15910304 -0.00019616014 0.0001908627 -0.00069174019 -0.0011924999 0.13575119 0.38095742
21187500000 -0.031430293 -0.19089004 8.1583108e-005 -0.00017851937 -0.00039299601 0.0024112777 0.094870061 0.1133532
21208750000 0.038817745 -0.38592431 5.3970238e-005 0.000161925 0.0023834216 -0.00039142539 0.15077142 0.097304933
21230000000 0.052064002 -0.22414309 7.8740661e-005 0.00013807662 0.0014463225 -0.0010136511 -0.11937977 0.06013453
21251250000 -0.12982881 -0.46043506 -3.5228175e-005 -0.00017706367 -9.3859264e-005 -0.0024899796 -0.018756263 0.52869046
21272500000 0.17540327 -0.38724661 9.6567252e-005 -0.00017019067 -0.0015140851 -0.0013249631 0.13450137 0.028472336
21293750000 0.25113228 -0.16482891 3.6014433e-005 9.9882178e-005 -0.0016266999 7.8481615e-005 -0.72190714 0.36369771
21315000000 0.25792697 -0.29827201 -0.00021045002 0.0001144928 -0.0023715228 0.00044504422 -0.083934031 0.54014355
21336250000 0.32877451 -0.26357114 0.00020693374 -0.00019737256 -0.00071805541 0.0027014962 -0.25415251 -0.024108393
21357500000 0.18702693 -0.21255609 3.7979175e-005 -0.00022291786 0.0019772809 7.9489808e-005 -0.66099232 0.28755295
21378750000 0.082552455 -0.29674032 -0.00013302188 -1.8193436e-005 -0.00089353434 -0.0002277145 -0.37128142 0.34923378
21400000000 0.29937318 -0.2417583 1.0919124e-005 7.0541428e-005 0.0021319459 -0.00019918312 -0.60787243 -0.086989842
21421250000 0.19382755 -0.10399251 -3.4258992e-005 0.00026438589 -0.0022305979 -0.0016051827 -0.73238397 0.11183949
21442500000 0.31210038 -0.21782695 8.9273657e-005 0.00011732696 -0.00060504186 0.00056945847 -0.5990932 0.16156733
21463750000 0.33696637 -0.015199208 0.00014558769 3.0721574e-005 -0.0008140034 0.0016233238 -0.29550493 0.058913879
21485000000 0.067555137 -0.055510536 9.5390475e-005 -0.00011284451 -7.1666989e-005 0.0013729117 -0.62909585 -0.35314375
21506250000 0.19368641 -0.11054395 -0.00012317629 6.6803682e-006 0.0040425058 0.0023570624 -0.53048486 0.071937099
21527500000 0.065624937 0.070195541 -0.00019273252 0.00013632164 0.00051933323 -0.0026027227 0.057933342 -0.25027692
21548750000 0.021506935 -0.08605735 -0.00034071921 -0.00024131279 0.0015002214 0.0011737121 -0.80155176 -0.51769263
21570000000 0.18984838 -0.072214618 9.248584e-005 -9.0680725e-005 0.0018253364 -0.0031659065 -0.19661132 0.080096908
