!Keysight Technologies,N5242B,MY47200105,A.14.00.23
!Date: Friday, May 10, 2024 10:59:36
!Correction: S11(C  2-Port  ) 
!S21(C  2-Port  ) 
!S12(C  2-Port  ) 
!S22(C  2-Port  ) 
!S2P File: Measurement: :
# Hz S  RI   R 50
18000000000 0.12438543 -0.024114121 -1.1581184e-005 -3.4021999e-005 0.010436742 -0.0079323268 0.89561981 -0.42833444
18021250000 0.056115273 -0.21205658 -0.00013798451 -0.00010356338 -0.014272359 0.0072399308 0.31340489 -0.18798994
18042500000 0.21502405 -0.084147759 -0.00011129006 -2.6639491e-005 0.018809265 0.0048700352 0.5048371 -0.040100023
18063750000 0.13809593 0.020575501 -1.391363e-005 3.5774989e-005 -0.008061192 -0.0099070668 0.41858551 -0.18575904
18085000000 0.20329154 -0.05263247 -8.7394445e-005 1.4286943e-005 0.0073271357 0.0097587639 0.43640459 0.09933155
18106250000 0.32012084 -0.00098777842 -8.2559724e-005 -4.4199842e-005 0.0021967143 -0.018306354 0.4854497 -0.088559821
18127500000 0.19656257 -0.044533435 -0.00011991868 5.9480597e-005 -0.014613651 0.010170614 0.58143961 -0.20232423
18148750000 0.18960547 -0.046924308 -2.6541413e-006 0.00015508254 0.014983091 -0.0042979508 0.30590749 -0.36778766
18170000000 0.28873876 0.089974932 -9.0819651e-007 -6.0120394e-005 -0.017659716 -0.0011071655 0.095360875 -0.10572103
18191250000 0.14513029 0.19106507 -3.869068e-005 9.0505462e-005 0.016285224 0.010072303 0.28772345 -0.071047314
18212500000 0.23548813 0.078907669 -0.00016272494 -0.00011345804 -0.0070162104 -0.016216472 0.10514988 -0.11259018
18233750000 0.15457098 0.14892681 -6.3883886e-006 -3.063678e-005 -0.00037533624 0.015322552 0.33184302 -0.14745343
18255000000 0.018705241 0.063050754 -1.2859357e-005 3.2229764e-006 0.0062877121 -0.018917192 0.4394618 -0.53459471
18276250000 0.13837799 0.023830265 0.00016840696 0.00011029355 -0.019191928 0.009634858 0.15688111 -0.45927197
18297500000 0.061717689 0.16204152 0.00019246877 7.4820164e-005 0.015564111 0.00097439863 0.07694304 -0.45812133
18318750000 0.02800666 0.14001814 0.00011735337 -7.5558455e-005 -0.016931431 -0.0045326971 0.11586382 -0.33364293
18340000000 0.079705827 0.10327129 -2.4149005e-005 3.3700053e-005 0.012441587 0.01764999 0.14299482 -0.23467766
18361250000 -0.11506974 0.10770369 -7.8555677e-005 -2.2951517e-006 0.00048687123 -0.018239047 0.35942325 -0.47987711
18382500000 -0.074103184 -0.01627964 6.6779641e-005 6.3133848e-005 -0.0062931688 0.015479777 0.3934896 -0.40138838
18403750000 0.0055779079 -0.01455964 1.7373427e-006 1.6662249e-005 0.014058981 -0.012416366 0.27779382 -0.67522597
18425000000 -0.034258064 0.024104768 0.00015327844 0.0001450884 -0.019002229 0.0022582104 0.062318601 -0.56399566
18446250000 -0.022629136 -0.11612523 -2.6428144e-005 0.00011967715 0.015670292 0.0083751827 0.50778788 -0.4180879
18467500000 0.010484833 0.011147124 -7.4125914e-005 -1.6872747e-005 -0.0087059541 -0.010444193 0.2671693 -0.55000699
18488750000 -0.19462372 -0.025922352 -0.0001356729 -6.2089639e-005 0.0044841622 0.016854737 0.36508155 -0.39579269
18510000000 -0.086460993 -0.14781839 6.5095417e-005 0.0001611185 0.0093068602 -0.017432174 0.5072341 -0.55687135
18531250000 -0.033287268 -0.016366605 5.6626726e-005 7.5606054e-005 -0.011795352 0.0066958936 0.38008887 -0.55069953
18552500000 -0.053259872 -0.19276777 0.00014457075 -8.4205152e-005 0.015494253 -0.0068618739 0.28823364 -0.53890169
18573750000 0.08260861 -0.19074756 8.3001296e-006 -5.7392204e-005 -0.01719912 -0.005489178 0.15823314 -0.19395386
18595000000 0.084127367 -0.083645113 0.0001388447 -4.4437406e-006 0.0091220718 0.010736529 0.44646788 -0.10876406
18616250000 0.037751336 -0.15610559 -2.7326453e-006 4.1134492e-005 -0.0049268231 -0.012409432 0.38927972 -0.47367066
18637500000 0.15721093 -0.10889889 -8.8592227e-005 3.4759389e-005 -0.0049260375 0.015229338 0.27357087 -0.15549392
18658750000 0.067043491 -0.072701313 -0.000218516 9.5704585e-005 0.012862687 -0.0094837779 0.50996089 -0.49839404
18680000000 0.076529033 -0.20576255 -7.4906609e-005 8.5901142e-005 -0.014069648 0.00018636722 -0.028617986 -0.44265229
18701250000 0.23053387 -0.093844883 6.9512484e-005 -4.8070455e-005 0.01157055 0.0037353202 0.24544977 -0.099068046
18722500000 0.13671923 -0.060347728 8.8799563e-005 2.1446831e-006 -0.011487721 -0.010343409 0.18629627 -0.2898773
18743750000 0.22606677 -0.15636185 -0.00015859454 6.7196001e-005 -0.00037944547 0.015978439 0.16711421 -0.2497966
18765000000 0.20671827 0.077173568 -3.2043531e-006 -6.8249523e-005 0.0052389172 -0.010564866 0.19451562 -0.35401636
18786250000 0.083949842 -0.01326286 -1.4106296e-005 9.8587698e-006 -0.010709679 0.012029891 0.054881148 -0.3351604
18807500000 0.2334947 -0.093681686 -6.0471015e-005 -1.3716677e-005 0.019576384 -0.001436032 0.032370545 -0.42380583
18828750000 0.13302566 -0.042511668 -7.9037374e-005 -1.6931954e-005 -0.014145019 -0.0073221675 -0.0251555 -0.45332029
18850000000 0.15536021 -0.044940736 1.5950554e-005 0.00016882847 0.011405419 0.013649615 0.10779153 -0.09886656
18871250000 0.24069577 0.10439134 -3.0484289e-005 9.6499236e-005 -0.0044939676 -0.017817032 0.12711088 -0.59070015
18892500000 0.14769478 0.24283971 4.5824086e-006 4.639633e-005 -0.0066031376 0.016227126 0.044186201 -0.42590919
18913750000 0.11892589 0.035184741 -3.0986379e-005 0.00015314076 0.013283894 -0.0093421275 0.20157066 -0.61255574
18935000000 0.087013349 0.0093439519 -0.00012033209 9.2568182e-005 -0.013390565 0.0028670968 -0.08145725 -0.68053114
18956250000 -0.033033803 -0.01024684 4.8731734e-005 3.1625288e-005 0.017179854 0.0050901719 -0.018490417 -0.50204962
18977500000 0.021399915 -0.060389109 5.7977843e-005 0.00018230401 -0.0078630075 -0.016004167 0.12658279 -0.41198823
18998750000 0.072112434 0.18279038 -9.8098226e-006 -2.1015323e-005 0.00065876968 0.014152301 0.25540128 -0.53169256
19020000000 -0.036459114 0.13804702 -3.8685856e-005 -3.8294211e-006 0.0048849932 -0.017410723 0.1314383 -0.60217804
19041250000 -0.099493735 0.0043394356 2.3601198e-005 -0.00010917853 -0.014803582 0.0091897799 -0.010486162 -0.49216822
19062500000 -0.11121869 0.062570944 -3.6089386e-005 6.82463e-005 0.013725561 -0.0010352196 0.29239067 -0.62178528
19083750000 -0.091896012 -0.17796808 0.00010420878 1.6991669e-005 -0.012572446 -0.004462468 -0.040086333 -0.61759931
19105000000 0.074858911 -0.048872128 2.5002984e-005 -0.00010601722 0.0084216911 0.013087546 0.028247863 -0.220467
19126250000 0.047525935 0.050707188 4.7791753e-005 2.6329692e-005 -0.0019237085 -0.016350349 0.47367308 -0.57119334
19147500000 -0.070506714 -0.038409218 5.1218081e-005 6.0496372e-006 -0.0059915422 0.011771115 0.10869329 -0.59825182
19168750000 -0.12935036 -0.10605462 7.017924e-006 7.7165686e-007 0.0087171448 -0.0091215307 0.16334458 -0.47565034
19190000000 -0.17495114 -0.19197138 -2.0750667e-005 -2.6240654e-005 -0.015260671 0.0041359593 0.14652945 -0.48492524
19211250000 -0.11198997 -0.2919808 9.20897e-005 -8.6043343e-005 0.011685655 0.0079288529 0.21021147 -0.45599088
19232500000 0.13173255 -0.15493628 -0.00018244842 3.664038e-005 -0.0058516581 -0.0085835271 -0.099752955 -0.33543962
19253750000 -0.0011292298 -0.11023019 2.6349366e-005 3.5214176e-005 0.002702628 0.015669221 0.32804674 -0.27084559
19275000000 0.047123272 -0.2025094 -3.6763558e-005 -9.3220107e-005 0.009074254 -0.012963416 0.19418749 -0.53142399
19296250000 -0.0051320358 -0.13711697 2.2879319e-006 8.2262675e-005 -0.011501285 0.0062225717 0.030388001 -0.39558583
19317500000 -0.13077469 -0.23756838 -0.00012169227 2.3379793e-005 0.01459431 -0.001779103 0.21494207 -0.35634249
19338750000 0.19066574 -0.29079694 1.9886604e-005 3.7314156e-005 -0.012795995 -0.006475905 -0.12580986 -0.53392702
19360000000 0.18978801 -0.20109108 9.1877548e-005 -5.2289968e-005 0.0066872728 0.013236688 -0.10805357 -0.19134595
19381250000 0.17422652 -0.23262447 1.4681902e-005 5.2277264e-005 0.0021416119 -0.014224826 0.16844964 -0.30373779
19402500000 0.20366454 -0.13683064 -0.00013141088 0.00011425625 -0.0067763422 0.013436598 -0.053147264 -0.3687422
19423750000 0.033538487 -0.16250047 -3.9493192e-005 -8.3430197e-005 0.01689313 -0.010887269 0.059072424 -0.4768737
19445000000 0.095315419 -0.1593501 -2.489812e-005 3.6862602e-005 -0.016917042 -0.0034383722 -0.22593172 -0.36212006
19466250000 0.27030525 -0.11446086 0.00010466825 5.3599069e-005 0.012391622 0.0076665613 -0.070292979 -0.36270797
19487500000 0.19372436 -0.067415781 -1.6523854e-005 -3.1690033e-005 -0.009066076 -0.016929455 -0.2777268 -0.47924307
19508750000 0.21736142 -0.16170503 -0.00019461865 -8.2402854e-005 -0.0046452885 0.019922158 -0.20006536 -0.076029435
19530000000 0.1391485 0.03353186 -4.5224446e-005 0.00019957326 0.0087917177 -0.013832695 0.12939432 -0.42555577
19551250000 0.042059202 -0.011401618 3.1174113e-005 7.408933e-006 -0.014123153 0.0085450206 -0.4528434 -0.74002528
19572500000 0.21583216 -0.021239799 -2.2714083e-005 6.0426635e-005 0.017163489 0.00078675681 -0.18397103 -0.22741927
19593750000 0.15806699 0.10684175 -6.6308508e-005 -0.00012674052 -0.013479915 -0.010916987 -0.17858283 -0.63426745
19615000000 0.089763463 -0.019864699 3.9865321e-005 -0.00015670943 0.0044186525 0.015484679 -0.34330392 -0.41238853
19636250000 0.09960483 0.036877625 -8.8271387e-005 0.00011588233 0.0006749318 -0.016935125 -0.12795572 -0.36558685
19657500000 -0.11746649 0.091942385 0.00020338339 -0.00010852343 -0.011169889 0.015565585 -0.17574823 -0.40799412
19678750000 -0.0084216138 0.011949243 0.00015856259 2.15972e-005 0.015247701 -0.0012028556 -0.065845974 -0.74932039
19700000000 -0.014561567 0.086161308 -2.6802666e-006 -0.00016092019 -0.013455931 -0.0025604975 -0.38445613 -0.50386751
19721250000 -0.014094474 0.059184909 -1.2075115e-005 0.00014966284 0.015674241 0.01096164 -0.071332105 -0.32386979
19742500000 -0.14574797 -0.050860949 -0.00012586846 -3.7543829e-005 -0.0058919499 -0.017882932 -0.14296937 -0.70121294
19763750000 -0.17577779 0.013632045 1.6991049e-005 4.6091944e-005 -0.0016395873 0.017410424 -0.29156798 -0.33466104
19785000000 -0.21790975 0.06145611 -0.00018724655 -7.2137409e-006 0.0092723286 -0.016643792 0.22906278 -0.28369522
19806250000 -0.075091586 -0.08009994 4.1793795e-005 8.9048233e-005 -0.017356496 0.0076332581 0.016404629 -0.82829702
19827500000 -0.084099092 0.019659059 -2.3859537e-005 -0.00013926036 0.021274539 0.003333576 -0.058516428 -0.35413447
19848750000 -0.21414636 -0.12312599 4.5474982e-005 8.9618428e-005 -0.016455691 -0.012093193 0.063473217 -0.41136673
19870000000 -0.13111952 -0.12296043 -5.2114428e-005 4.2404488e-005 0.012184333 0.018382652 -0.024274195 -0.41313311
19891250000 -0.2440342 -0.16870147 0.0001232591 -6.1703562e-005 4.1785534e-005 -0.024132153 0.13492066 -0.29736906
19912500000 -0.084071524 -0.31029859 -0.00017757689 4.9630758e-006 -0.012589161 0.01783785 0.10741056 -0.0085368883
19933750000 0.011188488 -0.14336905 -3.7057911e-005 2.9686516e-005 0.017354315 -0.010473309 0.2654798 -0.49197841
19955000000 -0.084821269 -0.21462144 1.963726e-005 0.00013707888 -0.027140742 -0.0016568912 -0.31681326 -0.37857854
19976250000 -0.15038903 -0.24736655 -1.9258052e-005 7.6526005e-005 0.021451101 0.015865136 0.055129476 0.027512537
19997500000 -0.18637377 -0.2346326 2.6044092e-005 -5.7277004e-005 -0.012560096 -0.02173676 0.03393098 -0.1664077
20018750000 -0.06803789 -0.27040121 -2.9689527e-005 -5.7518493e-005 0.0021437646 0.025616946 -0.14878869 -0.014196456
20040000000 0.16750675 -0.31182197 1.3654811e-005 -0.00010638156 0.011877104 -0.023802379 0.048498705 0.22646679
20061250000 0.30612108 -0.084336363 9.9180048e-005 -0.00013329678 -0.021477334 0.011234338 0.024962103 -0.27782467
20082500000 0.097296908 -0.057173841 5.5676453e-005 8.4146639e-005 0.022374917 -1.3663775e-005 -0.34178838 -0.22215247
20103750000 0.12554309 0.0046438328 -0.00013263278 7.8172088e-005 -0.022772696 -0.0080334973 -0.32899284 -0.098484427
20125000000 -0.14765038 0.047341313 0.00022003771 -1.7620698e-005 0.015452229 0.021420503 -0.33826348 0.10723619
20146250000 0.045980133 -0.1874126 -3.2343138e-005 -0.00010407531 -0.0019143008 -0.021099534 -0.26676819 -0.29550278
20167500000 0.26695588 -0.078232266 0.00010641001 1.3525448e-005 -0.0073310579 0.023221662 -0.79974186 -0.15859625
20188750000 0.21550286 0.0060151531 0.00019581 7.5104508e-005 0.018826127 -0.015493904 -0.0056470437 -0.11376353
20210000000 0.21637216 0.090395838 0.00012404623 -1.9411409e-005 -0.023287591 -0.0020402584 -0.56461281 -0.84932375
20231250000 -0.00010563662 0.3475337 0.00017012941 4.5933575e-005 0.020063695 0.0094415592 -0.7446084 -0.13290669
20252500000 -0.13826804 0.173675 0.00010874967 -4.9932525e-005 -0.014286185 -0.017477497 -0.43579173 -0.42966527
20273750000 0.028326085 0.12433663 1.0931106e-005 0.00013050382 0.0035661743 0.022145072 -0.38546765 -0.36867779
20295000000 0.095277727 0.20489204 -4.0620736e-005 -0.00011715874 0.0089173932 -0.019009713 -0.45414129 -0.46794105
20316250000 0.039363194 0.1784223 -0.00019814429 -8.2174047e-005 -0.013276146 0.014443321 -0.17453949 -0.54458362
20337500000 -0.10747242 0.24878682 3.9720799e-005 8.2304832e-006 0.021867061 -0.0061784815 -0.067974627 -0.79263496
20358750000 -0.30134764 0.35349053 9.0795329e-005 0.00012976413 -0.022074997 -0.0084304865 -0.59762257 -0.68126398
20380000000 -0.31703773 0.089166768 -7.4666328e-005 2.1948947e-005 0.013983576 0.014187543 -0.32098842 -0.33846009
20401250000 -0.13739745 0.082216792 -0.0001217179 0.0001513514 -0.0062591438 -0.021545131 0.29638898 -0.6714862
20422500000 -0.22623639 0.051065631 0.00010312084 9.6024291e-005 -0.0081594652 0.022285754 -0.21658783 -0.63360846
20443750000 -0.11667375 0.046998791 6.203392e-005 6.4944892e-005 0.015614353 -0.014632077 0.1452072 -0.18529713
20465000000 -0.25283998 0.22513521 1.5726018e-005 0.00014051949 -0.020051466 0.004111906 0.39023459 -0.84446692
20486250000 -0.37302071 0.081562392 -1.1171644e-005 -9.295161e-005 0.020724056 0.0049569476 -0.33824432 -0.33450449
20507500000 -0.1801583 -0.011601107 -0.00020532752 -6.5552755e-005 -0.015421786 -0.01529758 0.22739585 -0.11257859
20528750000 -0.14601038 -0.096190549 7.0177382e-005 1.948311e-005 0.0028812259 0.019943414 0.2170867 -0.17640139
20550000000 -0.09858451 -0.27462325 0.00012490142 7.8331017e-005 0.0036911012 -0.018317441 0.19367179 -0.072366007
20571250000 -0.11145508 -0.13720278 0.00019041501 6.5197579e-005 -0.015284871 0.017296381 -0.021484116 0.028482875
20592500000 -0.12403336 -0.08218313 1.3438269e-005 5.7810925e-005 0.021432703 -0.0035170277 0.37522471 0.21580517
20613750000 -0.097273029 -0.17784691 -0.00014669889 5.048258e-005 -0.018197 -0.0056986338 -0.23893456 -0.20164865
20635000000 0.24081701 -0.25823507 4.7673271e-005 0.00022062259 0.018590342 0.014318752 -0.40915033 0.57937747
20656250000 0.073563591 -0.25328904 8.8233564e-006 5.8611371e-005 -0.0024773623 -0.020088131 0.25735798 0.46799031
20677500000 0.1688987 -0.34286577 0.00011770528 0.0001373876 -0.0077998955 0.017069008 -0.2841799 0.0041778199
20698750000 0.22971645 -0.078946598 -0.00011272101 0.00018941946 0.015297035 -0.012143522 -0.53528112 0.49403292
20720000000 0.09571746 -0.15271625 8.9906913e-005 9.2889008e-005 -0.019993495 0.0029692817 -0.2623491 0.30173633
20741250000 0.33624417 -0.10804038 -0.00018332565 0.0001833354 0.020677289 0.0080536725 -0.77499712 0.23577043
20762500000 0.34032813 -0.040934775 0.00011704652 -6.2915613e-005 -0.010295575 -0.016863396 -0.67825872 0.30254933
20783750000 0.22977617 -0.08346431 -9.3429459e-005 -1.9782447e-005 0.0010862907 0.017191725 -0.46246651 0.36201751
20805000000 0.40324906 0.051651973 0.00013528611 -8.0414495e-005 0.011046018 -0.01947749 -0.40473622 -0.054050583
20826250000 0.25740537 0.20894538 -6.2167062e-005 -2.9055509e-005 -0.021710515 0.0074714972 -0.91016656 -0.20851615
20847500000 0.21995768 0.070799872 3.4551711e-005 0.0001160433 0.020015536 0.0014611657 -0.5852288 0.0012507299
20868750000 0.29227245 0.12647384 6.8355723e-005 -0.00013693447 -0.02226967 -0.012493209 -0.42644382 -0.73016077
20890000000 0.17789179 0.16073291 -4.5311866e-005 9.7324591e-005 0.0094439471 0.024797283 -1.0781218 -0.32089424
20911250000 0.23765862 0.085586451 4.1169264e-006 0.00023962239 0.0026201394 -0.022126174 -0.38774735 -0.16985007
20932500000 0.20744324 0.27604136 -5.0199953e-005 -7.2691939e-005 -0.01565294 0.019354926 -0.48878482 -0.74330187
20953750000 -0.030754728 0.33577013 9.498898e-005 0.00014428962 0.023770023 -0.010088654 -0.46257937 -0.61728019
20975000000 0.19857849 0.034621123 -0.00013113616 -0.00013132382 -0.025519572 -0.0049645039 -0.23281306 -0.54919404
20996250000 0.089386202 0.10946935 -2.0301715e-005 0.0001849898 0.019496787 0.017442321 -0.19266151 -0.55756527
21017500000 -0.09254963 -0.014724591 -2.0074267e-005 0.00017299656 -0.0075102211 -0.022585671 -0.17684612 -0.7340045
21038750000 -0.012086367 0.065757312 -9.2715694e-005 -1.1662114e-005 -0.0030323898 0.028421525 -0.24339786 0.17979886
21060000000 -0.20517145 0.18080817 1.8566863e-005 8.6577165e-005 0.020094739 -0.018213969 0.58179837 -0.32803738
21081250000 -0.19868968 -0.024240449 -1.2145521e-005 -6.0478924e-005 -0.022917463 0.010645632 0.042729381 -0.64281088
21102500000 -0.066129327 -0.058386251 3.2098382e-005 1.063089e-005 0.028610732 -0.00033097903 0.090700313 0.010005324
21123750000 -0.11463223 -0.12716447 -3.8331793e-005 -4.2302199e-005 -0.022641644 -0.017886059 0.44180644 -0.28852576
21145000000 -0.063042685 -0.33086058 -9.7796699e-005 -9.7780845e-005 0.0081995362 0.02579641 -0.090097509 -0.39863309
21166250000 0.030951511 -0.13117813 -9.4989984e-005 2.5834208e-005 0.0032343627 -0.026884092 0.12295803 0.36138666
21187500000 -0.056238126 -0.16475974 -0.00015611264 9.1947455e-005 -0.017207598 0.022027077 0.094307952 0.085579678
21208750000 0.016977979 -0.36600506 6.9254434e-005 0.00011662165 0.026683437 -0.0095996894 0.15957864 0.064971946
21230000000 0.031303663 -0.21487728 -0.00010558438 0.00020524891 -0.024962315 -0.0036775479 -0.1151057 0.029407669
21251250000 -0.15214203 -0.44017324 -4.3271128e-005 0.00019865662 0.019595291 0.012768965 0.0049012704 0.52952594
21272500000 0.1462511 -0.36725032 5.6912828e-005 2.3420764e-005 -0.011003038 -0.025122125 0.17372051 0.002433992
21293750000 0.21969923 -0.15411 3.7116672e-005 -0.00013148235 -0.0038827164 0.026128702 -0.71131986 0.3618387
21315000000 0.23895568 -0.29213977 3.7231774e-005 7.9061167e-005 0.012819671 -0.020096324 -0.049863398 0.54069656
21336250000 0.31850287 -0.28261763 9.0367366e-006 0.00010623153 -0.024718916 0.014036105 -0.22643417 -0.039133523
21357500000 0.18820241 -0.23551056 -2.0565858e-005 -0.00026228695 0.029579356 0.0018353466 -0.64906311 0.295151
21378750000 0.075976752 -0.32554689 9.2359791e-005 7.6644814e-005 -0.022729861 -0.014349842 -0.35315931 0.36769348
21400000000 0.28282076 -0.27107063 -7.8650428e-006 -1.2915712e-005 0.0151628 0.024547767 -0.59384006 -0.074225642
21421250000 0.18452752 -0.11962184 -0.00010816823 9.5839809e-005 -0.00093240204 -0.030601822 -0.72771198 0.13905241
21442500000 0.30673656 -0.2413502 -5.3303105e-005 -7.6657321e-005 -0.014397396 0.02278157 -0.59294045 0.19448584
21463750000 0.34423393 -0.041324683 0.00024858353 -9.6253061e-006 0.022609681 -0.010012817 -0.27958897 0.082331605
21485000000 0.083279297 -0.080858514 0.0001548835 6.3773754e-005 -0.028629435 -0.00068226992 -0.64445734 -0.33707675
21506250000 0.19733316 -0.12829857 -3.7529891e-005 1.6026799e-005 0.026325788 0.016200252 -0.53736836 0.10077711
21527500000 0.081357434 0.064723477 -0.00011825546 -0.00018681912 -0.011259954 -0.029960975 0.06512665 -0.23560381
21548750000 0.038621064 -0.093943521 -0.0001089891 -3.1188851e-005 0.00083629339 0.031124147 -0.84299433 -0.52021736
21570000000 0.23650384 -0.10241668 -2.0749329e-005 -0.00024629894 0.01617411 -0.027953513 -0.21072231 0.095211901
21591250000 -0.0037743861 -0.050961293 -4.7709091e-005 0.00013899538 -0.032236256 0.013942762 0.11299154 -0.37462386
21612500000 -0.11850953 -0.17618966 -5.4334221e-005 0.00014146019 0.03334412 0.0034984052 -0.32567611 -0.54916936
21633750000 -0.0906865 -0.026744014 7.935358e-005 -0.00010998065 -0.027210524 -0.015876774 -0.18310791 -0.012334403
