!Keysight Technologies,N5242B,MY47200105,A.14.00.23
!Date: Friday, May 10, 2024 11:21:19
!Correction: S11(C  2-Port  ) 
!S21(C  2-Port  ) 
!S12(C  2-Port  ) 
!S22(C  2-Port  ) 
!S2P File: Measurement: :
# Hz S  RI   R 50
18000000000 0.14574279 -0.029629258 2.5397359e-005 -3.870326e-005 -0.011468501 -0.033975478 0.87326664 -0.42239711
18021250000 0.069565624 -0.21344678 -7.5647608e-006 1.0421748e-005 -0.007923251 0.037778519 0.32011944 -0.19675063
18042500000 0.22908916 -0.091906704 5.3441032e-005 8.4841404e-006 0.030929472 -0.024322279 0.49627194 -0.057149339
18063750000 0.15726843 0.017304922 3.5142508e-005 0.00011973869 -0.029650236 0.011522352 0.40563425 -0.19298756
18085000000 0.20908391 -0.050014175 3.7332939e-005 -5.4473725e-007 0.038064767 0.0026087961 0.4226585 0.090909228
18106250000 0.33919385 -0.0089483736 0.00016335952 7.9448248e-005 -0.029354608 -0.025198942 0.47929123 -0.092031322
18127500000 0.20445988 -0.043739166 -7.5669246e-005 5.7216123e-005 0.0095380777 0.031735178 0.56322241 -0.21034504
18148750000 0.19754979 -0.03787192 -2.8645845e-005 2.8469363e-005 0.0041843471 -0.033709597 0.30283922 -0.36638331
18170000000 0.30199197 0.082254402 -0.00016286111 4.7307469e-005 -0.023089906 0.029608004 0.097553425 -0.13227016
18191250000 0.15439731 0.19593328 -0.0001376713 -9.2523851e-006 0.036810718 -0.013028257 0.26829422 -0.093030296
18212500000 0.24128054 0.069563083 2.402395e-005 0.00021644431 -0.034876078 -0.0061762431 0.097685367 -0.12807219
18233750000 0.16071425 0.14381228 1.4899947e-005 1.2446932e-005 0.029378533 0.020372365 0.32384717 -0.15541452
18255000000 0.030238349 0.06851463 -4.932236e-005 0.00010573362 -0.01817188 -0.038364306 0.42799318 -0.54697996
18276250000 0.13817486 0.0099065285 -0.0002023705 0.00010991277 -0.0084554013 0.037776291 0.14888297 -0.46763662
18297500000 0.063221797 0.15725335 -7.4501964e-005 -0.00010698287 0.020487446 -0.02803118 0.077750087 -0.46620867
18318750000 0.02179553 0.12416311 -9.0911788e-005 -7.4508993e-005 -0.03598528 0.018870778 0.11465777 -0.34911007
18340000000 0.064414963 0.081841789 -6.1218561e-005 0.00013423341 0.040202748 0.0086703515 0.14010075 -0.24804989
18361250000 -0.120129 0.10637174 -6.8993315e-005 7.5391566e-005 -0.028828958 -0.02203133 0.36406428 -0.47477895
18382500000 -0.084684588 -0.02517367 9.9909616e-005 5.450044e-005 0.019121772 0.033684596 0.39974234 -0.41785461
18403750000 0.004499862 -0.020973219 7.5382566e-005 2.5492294e-005 0.002015929 -0.040533334 0.28309399 -0.6759671
18425000000 -0.031737071 0.013198975 5.1426334e-005 -1.182762e-005 -0.022223074 0.031805225 0.074816264 -0.56341058
18446250000 -0.028099062 -0.12547511 -6.7629466e-005 3.457108e-005 0.03488715 -0.016706191 0.49978209 -0.42525318
18467500000 0.022579942 -0.0036348156 5.352245e-005 0.00011018767 -0.037268993 0.0019784346 0.26350978 -0.54810303
18488750000 -0.18874785 -0.038452599 5.5622317e-005 -5.1511845e-005 0.034283306 0.021565814 0.35571423 -0.38549942
18510000000 -0.085639216 -0.15674616 7.8522477e-005 -6.9299989e-005 -0.015144912 -0.035883926 0.50885314 -0.54032362
18531250000 -0.026798649 -0.024655584 7.4171789e-005 -0.00011735217 -0.00041462845 0.035111502 0.37494737 -0.54316133
18552500000 -0.061875701 -0.18894918 -0.00016679417 -4.6112262e-005 0.019968057 -0.034343481 0.28381968 -0.52578515
18573750000 0.081471853 -0.18984531 -6.0882212e-005 5.4235457e-005 -0.03655247 0.016216466 0.15852913 -0.19926494
18595000000 0.090066724 -0.071550667 2.4328738e-005 4.6117621e-005 0.038372535 0.00027949983 0.42647329 -0.11567669
18616250000 0.050390497 -0.13594855 2.6154819e-005 -5.0255599e-005 -0.035432965 -0.017788256 0.37572783 -0.46080428
18637500000 0.17099164 -0.10462751 3.5681536e-005 5.81073e-005 0.019138234 0.035566103 0.26215523 -0.16567042
18658750000 0.080124952 -0.062735043 1.8461697e-005 -4.7380032e-005 0.0011121427 -0.039896987 0.48315358 -0.49318162
18680000000 0.085247412 -0.19982091 0.00010982592 -2.1494092e-005 -0.019434428 0.031640988 -0.035790738 -0.44865298
18701250000 0.23583227 -0.091247067 -5.6463767e-005 6.1745181e-005 0.032386333 -0.021247799 0.21923816 -0.11300595
18722500000 0.14682522 -0.05172177 5.7041723e-007 9.2741488e-005 -0.041532468 0.0011857807 0.16237065 -0.29969749
18743750000 0.22312905 -0.14807487 -0.00013646053 3.3960503e-005 0.03302611 0.020760357 0.14804219 -0.2526558
18765000000 0.21371379 0.082063489 -5.3998556e-006 2.1706554e-005 -0.021574704 -0.03081212 0.18626137 -0.35762352
18786250000 0.079463392 -0.012630487 1.0879675e-005 -5.5443354e-005 0.0026264777 0.043969747 0.053042963 -0.35089648
18807500000 0.22232963 -0.092147373 -3.849691e-005 1.0952098e-005 0.023406861 -0.035319209 0.030558284 -0.43501884
18828750000 0.13709494 -0.044926286 -4.1991494e-005 7.8319339e-005 -0.035178587 0.018573925 -0.022979897 -0.46516648
18850000000 0.14541918 -0.054280471 1.9850133e-005 -7.8850655e-007 0.043260567 0.00092956726 0.10105833 -0.12982938
18871250000 0.23369291 0.087811477 -4.7483914e-005 4.1877069e-005 -0.037677947 -0.019636586 0.12603451 -0.59136552
18892500000 0.13596308 0.22921894 6.3948159e-005 6.9033626e-006 0.022588477 0.035860453 0.050826676 -0.43454632
18913750000 0.10167123 0.027658235 -5.4136617e-005 -8.5858373e-005 -0.0027262846 -0.040427752 0.20617773 -0.61336261
18935000000 0.08222197 -0.0021493125 -3.0722655e-005 1.7931687e-005 -0.016624391 0.03794419 -0.067241989 -0.68342805
18956250000 -0.03591698 -0.010497418 -7.1386467e-006 -1.6030972e-005 0.037253488 -0.023540948 -0.012306439 -0.50299412
18977500000 0.030183537 -0.067980722 8.1799681e-006 -9.86499e-005 -0.041294474 -0.00068357185 0.13121641 -0.42064777
18998750000 0.074902177 0.16024937 0.00012270435 0.0001042705 0.03746558 0.017211298 0.24730638 -0.52805358
19020000000 -0.044656504 0.13097982 8.9242902e-005 5.7656518e-005 -0.024414703 -0.036599465 0.1358896 -0.59256446
19041250000 -0.099257357 0.0034093119 0.00015534484 -3.6489062e-005 0.00016055803 0.041205905 -0.00058218528 -0.48926926
19062500000 -0.097891457 0.069965042 -9.5022415e-006 4.0451891e-005 0.014830383 -0.038193315 0.28013527 -0.61341423
19083750000 -0.070167206 -0.17823888 0.00014942007 4.3638727e-005 -0.033041924 0.0257213 -0.042016398 -0.60341853
19105000000 0.087820292 -0.060541824 -0.00017775706 7.8786188e-006 0.044262327 -0.0040178695 0.020152658 -0.2233903
19126250000 0.061076425 0.0528793 8.00615e-006 -5.6888559e-005 -0.041008014 -0.017531415 0.449431 -0.54087937
19147500000 -0.056217238 -0.043163858 -7.6757162e-005 3.3223667e-005 0.024762556 0.03348849 0.10528768 -0.5785228
19168750000 -0.11688571 -0.10015538 -7.3105082e-005 2.3220753e-005 -0.0088187791 -0.041527972 0.15837815 -0.46443453
19190000000 -0.15884995 -0.18917446 -5.3262265e-005 -5.5289734e-006 -0.016704207 0.042087261 0.13279648 -0.48420984
19211250000 -0.10647048 -0.29119843 5.6319579e-005 1.8536454e-006 0.033005245 -0.024322892 0.18772398 -0.44706398
19232500000 0.13298164 -0.15654303 7.7618446e-005 5.9567534e-005 -0.04045191 0.0084765833 -0.098187409 -0.33842048
19253750000 -0.0074713533 -0.10501657 3.5858877e-005 -0.00012363569 0.044586468 0.01664285 0.29673415 -0.27607808
19275000000 0.042193003 -0.18463162 0.00011078824 3.0067626e-005 -0.025102185 -0.033042263 0.17957371 -0.52145284
19296250000 -0.0013738731 -0.13114746 -9.8333439e-005 -7.5314492e-005 0.0075799837 0.041722946 0.023926171 -0.39785683
19317500000 -0.13105796 -0.22768684 5.9402631e-005 7.9771227e-005 0.013808958 -0.043274779 0.19918285 -0.36585283
19338750000 0.19001432 -0.29435557 4.7788202e-005 8.0651633e-005 -0.032636188 0.02896853 -0.13288452 -0.53517032
19360000000 0.17572458 -0.21144848 -2.2779697e-005 0.00010538858 0.043793201 -0.0077020959 -0.1087622 -0.20139724
19381250000 0.15782762 -0.22744998 -7.2064766e-005 7.4623007e-005 -0.040401712 -0.012074421 0.15702894 -0.31168827
19402500000 0.19963226 -0.14019476 6.2829437e-005 -0.00012185993 0.031182017 0.032831807 -0.05427704 -0.3726525
19423750000 0.027704034 -0.16110937 -0.00010939549 0.0001564626 -0.0070360205 -0.046220038 0.058730245 -0.4701795
19445000000 0.093240812 -0.16469434 2.2799066e-005 -4.2223131e-005 -0.016778961 0.037882365 -0.21216893 -0.37351176
19466250000 0.25833586 -0.11751082 -4.5805032e-006 3.5502781e-005 0.031285774 -0.029657925 -0.079169326 -0.36768293
19487500000 0.19523779 -0.061994221 1.1938885e-005 3.9647453e-005 -0.043609902 0.0045995037 -0.27265111 -0.47163785
19508750000 0.22843018 -0.16609788 -1.3251419e-005 2.6625679e-005 0.038592413 0.018512901 -0.19757409 -0.085978933
19530000000 0.15371507 0.02768553 1.1416853e-006 -7.1012987e-006 -0.028186142 -0.030333344 0.11705483 -0.41563272
19551250000 0.061948147 -0.025037497 -0.00012518598 -0.00015879649 0.0075513669 0.04433056 -0.43528262 -0.71992183
19572500000 0.21939684 -0.039633874 5.3664535e-005 0.00015852522 0.015131833 -0.042682443 -0.1826853 -0.23036468
19593750000 0.16424099 0.098673582 -5.4520999e-005 -0.00025734364 -0.031285424 0.028296579 -0.17567252 -0.62686598
19615000000 0.084954873 -0.020807695 -5.0325514e-005 0.00011706712 0.041192655 -0.0076309852 -0.34623513 -0.40854597
19636250000 0.1117276 0.05437519 -2.5136602e-005 -0.00010273343 -0.0434669 -0.014260688 -0.12553304 -0.36387044
19657500000 -0.089115195 0.10340595 1.7778522e-005 -8.2827857e-005 0.026638817 0.034526478 -0.18018796 -0.4152849
19678750000 0.00068483723 0.0090328176 -0.00019524553 0.00010657379 -0.0078379977 -0.037130754 -0.077957407 -0.73773485
19700000000 -0.0049295924 0.093635388 0.00012345797 -0.00020423086 -0.011201511 0.041267071 -0.37590215 -0.50591362
19721250000 -0.021664064 0.063168399 1.9738429e-005 0.00011867938 0.035365362 -0.029614363 -0.086129852 -0.33751529
19742500000 -0.13815714 -0.033172488 -6.0652037e-005 -9.0382979e-005 -0.04153499 0.0074288854 -0.14741573 -0.69195735
19763750000 -0.16582467 0.026438156 0.00017310455 -3.6557605e-005 0.044374432 0.014408225 -0.28908086 -0.34262988
19785000000 -0.21845149 0.063093618 -0.00013119505 0.00014909712 -0.033314351 -0.034314528 0.21603811 -0.29330304
19806250000 -0.077990323 -0.073874392 -4.6555029e-005 -5.8889756e-005 0.0065259305 0.043598589 0.011412363 -0.81445241
19827500000 -0.099887468 0.024493422 -5.7165278e-005 -0.00022175023 0.014745761 -0.04211662 -0.054850072 -0.35843873
19848750000 -0.21723087 -0.11786503 0.00012879328 5.319537e-005 -0.03287483 0.030562118 0.058837663 -0.41510507
19870000000 -0.12971611 -0.13001093 -0.00019163992 0.00014645715 0.047881875 -0.011476638 -0.026593987 -0.40924111
19891250000 -0.25290751 -0.1730956 0.00010673227 -0.00016443113 -0.04678306 -0.014264638 0.13564801 -0.2841267
19912500000 -0.10357038 -0.32342604 0.0001009611 0.00013024105 0.035679147 0.03412405 0.11560281 -0.01748074
19933750000 -0.014089224 -0.15038571 8.0465426e-005 0.00013902406 -0.011990176 -0.046813671 0.26427951 -0.47361746
19955000000 -0.11117291 -0.2128811 0.00021036671 2.2475484e-005 -0.019149872 0.04644924 -0.29489738 -0.35771194
19976250000 -0.15784197 -0.2480538 3.0423755e-007 -0.00015187773 0.038046014 -0.029638136 0.055785421 0.03057253
19997500000 -0.18082042 -0.22870986 9.9456629e-005 -7.887715e-005 -0.047956225 0.0099437097 0.032506861 -0.15341316
20018750000 -0.062337436 -0.28311881 6.2355248e-005 -5.9995011e-005 0.048046615 0.013784774 -0.15246086 -0.0004175294
20040000000 0.16406216 -0.31526777 -6.6805427e-005 -4.6578443e-005 -0.038479522 -0.036309384 0.043846227 0.2340776
20061250000 0.30997285 -0.082761459 -1.2242162e-005 6.0136506e-005 0.01209606 0.045460574 0.01124671 -0.26221606
20082500000 0.11187159 -0.054513574 0.00012075408 -4.5972407e-005 0.01156051 -0.045936506 -0.352117 -0.20151335
20103750000 0.14802687 0.0088176113 -5.4673155e-006 0.00019589439 -0.034913428 0.037641719 -0.34141091 -0.089058235
20125000000 -0.11846483 0.052140824 -3.5545781e-005 -1.5161871e-005 0.051681902 -0.011593356 -0.35847381 0.10686225
20146250000 0.059787761 -0.17366101 -1.7580291e-005 -3.9303024e-005 -0.048259322 -0.011047642 -0.29446667 -0.27629352
20167500000 0.28785467 -0.072650559 8.5551597e-005 5.091964e-005 0.039530877 0.040152825 -0.79575926 -0.15886508
20188750000 0.22101967 0.016972875 -6.9114969e-005 -0.00010746309 -0.013514424 -0.049396683 -0.046594642 -0.12049627
20210000000 0.22805195 0.11460125 -9.1242291e-006 3.512661e-005 -0.017600719 0.047290433 -0.57504779 -0.84167778
20231250000 0.034076337 0.36896005 -5.7210294e-005 -4.5541325e-005 0.037005074 -0.038330212 -0.75700331 -0.15527847
20252500000 -0.11809484 0.19499408 0.00010691648 3.6066569e-005 -0.050120786 0.014512621 -0.44881499 -0.43499714
20273750000 0.039711706 0.12717703 -6.1233339e-005 -1.7382301e-005 0.04955487 0.012907406 -0.40513304 -0.38092276
20295000000 0.085233584 0.21779402 -1.4571087e-005 0.00019869096 -0.034248203 -0.033932846 -0.43951982 -0.47305948
20316250000 0.033330169 0.19332571 -0.00016080916 -2.8964689e-006 0.019701818 0.045855321 -0.17668569 -0.56487215
20337500000 -0.11203267 0.25801685 8.93744e-005 3.7685568e-005 0.014603985 -0.052237581 -0.066828802 -0.79964453
20358750000 -0.31329694 0.36582273 3.4022567e-005 8.923532e-005 -0.036855161 0.035696812 -0.56405073 -0.69400442
20380000000 -0.33760172 0.09596049 7.2237126e-005 2.8198772e-005 0.047241557 -0.017747527 -0.30388892 -0.36409596
20401250000 -0.16834007 0.086254135 -5.2396808e-005 -5.1621675e-005 -0.053477403 -0.013718802 0.29714757 -0.67254841
20422500000 -0.24657792 0.057373602 -0.00019140974 3.3423141e-006 0.034614943 0.037500542 -0.18826158 -0.62871248
20443750000 -0.1451997 0.036819484 1.5325117e-005 -7.5964108e-006 -0.015406721 -0.047909554 0.16224076 -0.19868362
20465000000 -0.27123567 0.21700767 -0.0002349428 1.271268e-005 -0.017108958 0.048554581 0.39280447 -0.81879598
20486250000 -0.390048 0.065145977 4.1677911e-005 2.3800001e-005 0.036600821 -0.037865806 -0.3037414 -0.32065138
20507500000 -0.19874954 -0.033623748 -1.0436604e-005 -1.2410668e-006 -0.049433224 0.015936548 0.23465101 -0.097030371
20528750000 -0.15097384 -0.11201414 7.6418291e-006 0.00016457627 0.049252447 0.012559862 0.21988514 -0.15139849
20550000000 -0.10284606 -0.29464135 -1.2345844e-005 -9.1363036e-005 -0.038745236 -0.031686258 0.20363423 -0.039078489
20571250000 -0.090241507 -0.152862 -0.00015982092 3.0023366e-005 0.016095879 0.051568791 -0.006758993 0.053978596
20592500000 -0.11273729 -0.10330736 -8.029092e-005 -3.6083773e-005 0.012470866 -0.047856871 0.36057368 0.22979505
20613750000 -0.088229261 -0.18679261 3.0073272e-005 -4.051016e-005 -0.03437192 0.040107645 -0.2388671 -0.15891555
20635000000 0.25851575 -0.26964003 -0.00015735959 -0.00013085485 0.055012044 -0.021807406 -0.41773814 0.58570731
20656250000 0.10562714 -0.26399696 -7.8840603e-005 -3.6242986e-005 -0.04929683 -0.012464745 0.21290819 0.48637292
20677500000 0.20654365 -0.35864493 0.00015158669 4.4960147e-005 0.040579241 0.031565048 -0.30559346 0.038911209
20698750000 0.26056641 -0.092365645 1.0621943e-005 -0.00014144035 -0.020614104 -0.05258676 -0.56153184 0.49957678
20720000000 0.11878215 -0.13673605 -4.7565027e-005 6.099424e-005 -0.010822482 0.052830271 -0.3003366 0.3062776
20741250000 0.36221689 -0.10892882 5.9890801e-005 -4.2422498e-006 0.035490066 -0.044371068 -0.80808765 0.24922468
20762500000 0.36200076 -0.035812262 0.00018749952 -9.4277566e-005 -0.049666252 0.018371645 -0.70174325 0.29200575
20783750000 0.25517952 -0.072903544 -4.6997582e-005 9.1618625e-005 0.050413847 0.007253218 -0.5010798 0.33553365
20805000000 0.41467485 0.058731891 0.00012411078 5.7960115e-006 -0.038066085 -0.036717147 -0.44184354 -0.063480116
20826250000 0.26403376 0.23654133 2.4789275e-005 -9.2117683e-005 0.014737977 0.049181435 -0.91046488 -0.23332028
20847500000 0.21101686 0.099593915 1.8904746e-005 6.0588727e-006 0.0076879277 -0.053846564 -0.59522837 -0.039562661
20868750000 0.27831468 0.16382487 -0.00014255596 0.0001243876 -0.04364888 0.044953492 -0.45364675 -0.75727987
20890000000 0.169724 0.19370736 -8.9616347e-005 4.0617673e-005 0.053722356 -0.012603457 -1.0479094 -0.3603093
20911250000 0.21848434 0.10414208 -8.8643628e-006 -7.0543814e-007 -0.050461601 -0.010192768 -0.38831574 -0.20727366
20932500000 0.19553465 0.29915556 2.9557772e-005 0.00014642681 0.040346071 0.039705932 -0.4601846 -0.75265765
20953750000 -0.051784001 0.35122058 -7.2533439e-005 3.4422697e-005 -0.011696278 -0.053503659 -0.42382571 -0.62284911
20975000000 0.15373507 0.04393426 -4.7130065e-006 -1.099926e-005 -0.017195873 0.050035577 -0.18980022 -0.55913806
20996250000 0.055532675 0.10962632 -1.4088541e-005 0.00024706224 0.039428093 -0.03883142 -0.16061924 -0.57373416
21017500000 -0.1208097 -0.022458451 2.5166939e-005 -1.0515398e-006 -0.052098379 0.0091871358 -0.13578634 -0.71015316
21038750000 -0.021813765 0.046011962 3.9433577e-005 1.4061931e-005 0.052061096 0.017239951 -0.204034 0.15913998
21060000000 -0.21654709 0.15333821 -0.00010679092 0.00016152105 -0.029862296 -0.041981902 0.58898365 -0.30386838
21081250000 -0.23079461 -0.033826061 -3.9400431e-005 -4.9105762e-005 0.012607975 0.053336352 0.080463611 -0.59803319
21102500000 -0.082400136 -0.071265355 -8.2147941e-005 1.2593562e-005 0.015275191 -0.054291014 0.11618993 0.031968109
21123750000 -0.11802801 -0.14701629 5.0069008e-005 -7.8420826e-006 -0.041932628 0.036514062 0.45368522 -0.24039254
21145000000 -0.042544801 -0.36302951 -4.3137028e-005 0.00016042299 0.053886279 -0.013671168 -0.067320339 -0.33540589
21166250000 0.065179706 -0.1724456 5.0428313e-005 -0.00012605112 -0.053545009 -0.012105069 0.13915986 0.38646758
21187500000 -0.023377547 -0.19376543 -3.3792789e-005 -0.00025091288 0.038523279 0.040919211 0.095594116 0.11870848
21208750000 0.042815201 -0.38569322 2.2879347e-005 0.00010514311 -0.012323007 -0.051783185 0.14913276 0.10504652
21230000000 0.05677535 -0.23047987 -0.00014092919 -0.00014773279 -0.0099091949 0.052431881 -0.120382 0.06635835
21251250000 -0.11661712 -0.45877522 9.3499311e-006 1.3634938e-005 0.034921717 -0.042063944 -0.025221204 0.53062463
21272500000 0.17631297 -0.39568177 0.00010079025 -6.9163725e-005 -0.052791093 0.012749692 0.12664574 0.035928648
21293750000 0.25757951 -0.16975853 2.316374e-005 -2.8042594e-005 0.05377233 0.0096460646 -0.72675216 0.3641237
21315000000 0.26018664 -0.29019862 9.1904847e-005 0.00014419598 -0.041664496 -0.032606229 -0.092473499 0.54292637
21336250000 0.32469976 -0.25685412 8.068655e-005 -3.1403779e-005 0.017956309 0.055763785 -0.26108488 -0.020560583
21357500000 0.19351663 -0.20499648 -7.3924093e-005 -0.00010542525 0.010486362 -0.05596602 -0.66593128 0.2865648
21378750000 0.08374691 -0.28821287 -0.00010121643 -1.442869e-005 -0.033344645 0.041181821 -0.37531519 0.34580523
21400000000 0.29621646 -0.23973653 0.0001779428 3.8296392e-005 0.054848179 -0.023290547 -0.61315703 -0.090719014
21421250000 0.19753908 -0.10048808 -6.0684459e-005 -9.7046977e-005 -0.059286326 -0.010547874 -0.73538131 0.10758074
21442500000 0.30323562 -0.20463516 -4.2628453e-005 0.00012618229 0.040704809 0.033459626 -0.60242057 0.15292655
21463750000 0.33046773 -0.012365102 7.2983225e-005 -0.0001599808 -0.022643521 -0.049057461 -0.299541 0.053661082
21485000000 0.063430823 -0.047273241 -3.4158955e-005 1.6696524e-005 -0.011811415 0.059705194 -0.62451029 -0.35939425
21506250000 0.18295062 -0.1055631 -3.0216318e-006 -6.0106617e-005 0.037505027 -0.040759113 -0.53117973 0.064676791
21527500000 0.063498206 0.06320966 -4.2699201e-005 0.00011099022 -0.054452341 0.015329727 0.057965927 -0.25313506
21548750000 0.01358072 -0.081913538 -0.00027168862 6.7475153e-006 0.060675222 0.010757077 -0.79338229 -0.52080441
21570000000 0.17675121 -0.07562612 0.00018175899 2.096818e-005 -0.039406534 -0.037363861 -0.19184308 0.076710157
21591250000 -0.012658278 -0.047979996 0.0001573513 1.4091441e-005 0.012849789 0.055758126 0.12978591 -0.36846542
21612500000 -0.12455829 -0.1802199 -0.00010362698 6.0185721e-005 0.015415221 -0.054775398 -0.28830811 -0.533167
21633750000 -0.098930813 -0.040055912 2.2156814e-006 8.5985688e-005 -0.037825231 0.041017037 -0.15527245 -0.014643521
