!Keysight Technologies,N5242B,MY47200105,A.14.00.23
!Date: Friday, May 10, 2024 11:01:26
!Correction: S11(C  2-Port  ) 
!S21(C  2-Port  ) 
!S12(C  2-Port  ) 
!S22(C  2-Port  ) 
!S2P File: Measurement: :
# Hz S  RI   R 50
18000000000 0.13423899 -0.020058945 1.3621728e-007 1.396388e-006 0.0061081983 0.000104379 0.89258516 -0.42720085
18021250000 0.058709104 -0.21993908 -2.7356507e-006 0.00011281158 -0.0072268452 0.0026029006 0.31346944 -0.18811215
18042500000 0.22177289 -0.0882577 -7.0026937e-005 -7.9600839e-005 0.010499658 0.00581156 0.50417727 -0.041318227
18063750000 0.13911766 0.015630104 3.0974359e-005 -2.1351858e-005 -0.00028556309 -0.0067967023 0.4168742 -0.18705955
18085000000 0.2045482 -0.050884906 7.8780149e-006 -8.2907209e-005 0.0021337559 0.0029479242 0.43405512 0.099006839
18106250000 0.33564332 -0.001330807 -1.6620577e-005 -2.4387125e-005 0.0035077317 -0.0093740141 0.48426953 -0.08831504
18127500000 0.20157912 -0.050279006 0.00010768755 0.00011243542 -0.011041258 0.0013519296 0.57908845 -0.20262399
18148750000 0.19559723 -0.047775913 -7.9702208e-005 3.9065646e-005 0.007630608 0.0020755432 0.30573013 -0.36739132
18170000000 0.30065081 0.084092438 3.0938205e-005 -8.7373897e-005 -0.0078217285 -0.0029255101 0.096014187 -0.10845169
18191250000 0.15226689 0.19331193 -0.00019939242 -1.3841953e-005 0.0058875536 0.0068577658 0.28604451 -0.073774263
18212500000 0.24975249 0.070901945 -4.2809847e-006 2.3999282e-005 0.0013419241 -0.0079930173 0.10374415 -0.11475957
18233750000 0.16145861 0.14589483 -9.1016715e-005 5.5648983e-005 -0.0039738156 0.0028488107 0.33027607 -0.14782584
18255000000 0.02895035 0.058682848 6.5478307e-005 -4.9670521e-006 0.0042346618 -0.0049208635 0.43856391 -0.53618336
18276250000 0.14477888 0.0093569476 2.5847146e-006 4.4213815e-005 -0.010540505 -0.0012139183 0.15567745 -0.45953822
18297500000 0.064712234 0.15610467 9.82524e-005 2.85642e-005 0.0029663008 0.0072643789 0.077335209 -0.45807567
18318750000 0.033592954 0.12804836 6.158235e-006 -4.9316441e-005 -0.0020691047 -0.0040596402 0.11621421 -0.33491886
18340000000 0.075233415 0.091889143 3.9139479e-005 -8.6964421e-005 -0.00082793157 0.0098025352 0.14213087 -0.23595934
18361250000 -0.1198782 0.10712957 -1.4134778e-005 -5.3828229e-005 0.0088539151 -0.0045015756 0.35950467 -0.47862694
18382500000 -0.078685343 -0.019621583 -0.00011418381 -0.00013984494 -0.0063012764 -0.00059958792 0.39346325 -0.4018946
18403750000 0.00235539 -0.014057847 -7.2869945e-005 -2.0494896e-005 0.0064908997 0.0020679219 0.27830064 -0.67479599
18425000000 -0.03454927 0.022032244 -2.6066173e-005 0.0001185282 -0.005034002 -0.0061133909 0.063515276 -0.56401432
18446250000 -0.02790335 -0.11519095 2.5837704e-005 0.00014191301 -0.0022984014 0.0091731763 0.50765115 -0.41896451
18467500000 0.012967849 0.011609415 0.0001003992 0.00013353392 0.0074584237 -0.0025567997 0.26615855 -0.55014282
18488750000 -0.20053928 -0.028537009 -1.9515081e-005 -8.2531078e-006 -0.0056348844 0.0013889534 0.3637504 -0.39466467
18510000000 -0.092686296 -0.14729255 -1.1495774e-005 -8.2071034e-005 0.011521542 0.0022242081 0.50712454 -0.55418873
18531250000 -0.03537441 -0.014203881 -2.0956168e-005 2.7551901e-005 -0.0044964217 -0.010218933 0.37954521 -0.54901552
18552500000 -0.0583831 -0.18949284 -9.8845085e-006 4.0118703e-006 0.00054463837 0.0048933816 0.28802302 -0.53718257
18573750000 0.080697738 -0.18791898 -6.4643677e-006 -6.1081104e-005 0.0010898178 -0.0077071441 0.15829979 -0.19439059
18595000000 0.082636848 -0.074953355 7.8412368e-006 -8.1296986e-007 -0.0085982475 0.0027879137 0.44414455 -0.10957691
18616250000 0.043684769 -0.14314941 -1.0015931e-005 5.2574964e-005 0.0064140363 0.0018666671 0.38721368 -0.47286126
18637500000 0.16610996 -0.10620461 7.3454185e-006 -6.8950809e-005 -0.0062505617 -0.0039847824 0.27186957 -0.15573363
18658750000 0.076714925 -0.066413119 3.3382345e-005 7.8817393e-005 0.0048823012 0.007178789 0.50753009 -0.49716115
18680000000 0.088769138 -0.2025121 -0.00012678845 -5.6056655e-005 0.0010029778 -0.0096343588 -0.029044854 -0.443124
18701250000 0.24079461 -0.094638377 -5.8356731e-005 -7.1862698e-005 -0.0073138312 0.0039845714 0.24241976 -0.10089064
18722500000 0.14576732 -0.05863281 2.7234621e-005 8.1971302e-005 0.0043846718 -0.00087459787 0.18299401 -0.29118723
18743750000 0.23172094 -0.15758693 -9.5413758e-005 -4.3739456e-005 -0.0088698016 -0.0010861305 0.16450979 -0.24949108
18765000000 0.21950006 0.077888943 -8.5852022e-005 -5.1159666e-005 0.0034057039 0.0091407066 0.19352931 -0.35378504
18786250000 0.093823418 -0.019349433 0.00011632498 4.1534397e-005 0.0010287832 -0.0031820058 0.055133507 -0.33644933
18807500000 0.23864339 -0.097447857 1.6627215e-005 -3.4153371e-005 0.00084592187 0.0061682845 0.033322815 -0.42507634
18828750000 0.13878462 -0.048169721 0.0001346083 6.0359918e-005 0.0056232964 -0.0049206689 -0.024084626 -0.45458439
18850000000 0.1562338 -0.050394714 -0.00012391638 -1.5229782e-006 -0.004806166 -0.00075073354 0.10702924 -0.10226899
18871250000 0.24282022 0.097724043 -0.00018088183 3.1819509e-005 0.0034823189 0.0023956751 0.12719835 -0.59096301
18892500000 0.14560802 0.23607904 0.00011087346 -1.0422236e-005 -0.0025336614 -0.0050100214 0.044779412 -0.42649081
18913750000 0.11327621 0.031565685 -9.9844401e-005 7.5083939e-005 -0.00052860915 0.0071995994 0.20213579 -0.61247408
18935000000 0.082702689 0.0052561746 3.6748341e-005 0.00011607294 0.0064140055 -0.0038664113 -0.079996012 -0.68053484
18956250000 -0.042534303 -0.007549033 3.897486e-005 -0.00011487506 -0.0044503589 0.00059260381 -0.017900486 -0.50170606
18977500000 0.01786756 -0.05899683 -7.7588578e-005 1.6996277e-005 0.0083710402 -0.00066740939 0.12669595 -0.41249669
18998750000 0.065182269 0.17909095 0.00010202901 3.3037755e-005 -0.0053624897 -0.0081467275 0.25392362 -0.53075993
19020000000 -0.047207929 0.14075699 -8.0656748e-005 0.00011128358 -0.0010261781 0.0053050895 0.13118815 -0.6001156
19041250000 -0.10864565 0.0069229072 6.6439796e-005 -8.7049099e-005 0.0016984657 -0.0063550794 -0.0098736221 -0.49074766
19062500000 -0.11650215 0.074561752 -0.00015822484 4.3580581e-005 -0.0099263284 0.0055954745 0.29090768 -0.62028593
19083750000 -0.087105677 -0.17444013 3.8994433e-005 -5.7003475e-005 0.0097752102 0.0022425652 -0.041193336 -0.61633575
19105000000 0.07627292 -0.048135888 -3.7769616e-005 -4.0364532e-005 -0.0076674446 -0.0058310186 0.02617657 -0.22069561
19126250000 0.053360082 0.044478573 -5.9259375e-005 -5.7184311e-006 0.0044180751 0.0079351403 0.47001079 -0.5670625
19147500000 -0.067995787 -0.048671681 -0.00014165542 9.0241934e-005 0.0009443633 -0.0096849725 0.10796574 -0.59560508
19168750000 -0.13793506 -0.11225838 9.7521814e-005 1.6684222e-005 -0.0088433698 0.0062963092 0.16272999 -0.47410348
19190000000 -0.17396379 -0.20078847 5.6660701e-005 4.8876002e-005 0.0073139379 -7.1177303e-005 0.1452032 -0.48504487
19211250000 -0.11474857 -0.29583538 -0.00014360339 8.8687513e-005 -0.0092155347 -0.00065034494 0.2074727 -0.45543826
19232500000 0.13068298 -0.16475677 -7.2049143e-006 -2.5787951e-005 0.0073882327 0.010069492 -0.1006689 -0.33550984
19253750000 -0.0045428486 -0.11941271 4.1682531e-005 -0.00013084292 0.0005987183 -0.008258461 0.32430947 -0.2710202
19275000000 0.043825679 -0.20219129 3.7016609e-005 9.5409458e-005 -0.00013044989 0.0071705817 0.19247061 -0.53014868
19296250000 -0.0032962917 -0.14411734 -5.8383899e-005 4.8268397e-005 0.0072811805 -0.005678196 0.029657772 -0.3954632
19317500000 -0.12579378 -0.23923649 8.3433093e-005 -0.000105619 -0.0084128175 -0.0019387985 0.21342702 -0.35683459
19338750000 0.195066 -0.29606941 -0.00013307706 -2.4785641e-005 0.0061907102 0.0055651781 -0.12656708 -0.53332341
19360000000 0.1907627 -0.21310686 0.00011305518 0.00014385185 -0.0029553501 -0.007783073 -0.10799458 -0.1923672
19381250000 0.17610532 -0.23318607 7.8048157e-005 -7.0744245e-005 -0.00060051499 0.0093262652 0.1670965 -0.30440751
19402500000 0.20947853 -0.13817167 -5.7535795e-005 -8.2221359e-006 0.0077685667 -0.005027215 -0.053740196 -0.36905023
19423750000 0.040237941 -0.16175744 -7.1179798e-005 1.5334704e-006 -0.0060240361 -0.002053079 0.059049532 -0.47608092
19445000000 0.1038717 -0.1651486 8.8988483e-005 9.6451195e-006 0.0071287802 0.0020474002 -0.22507524 -0.36289582
19466250000 0.27371323 -0.11713792 4.8568754e-006 3.8195256e-005 -0.0063743205 -0.0090795336 -0.071682438 -0.36343646
19487500000 0.19745722 -0.063040942 -0.00013913706 6.2736282e-005 -0.0017964771 0.0068080337 -0.27752629 -0.47883397
19508750000 0.22538459 -0.16077487 1.0479184e-005 7.396398e-005 0.0016094453 -0.0053421152 -0.20024775 -0.077100292
19530000000 0.15195291 0.03770186 -0.00014523166 -0.00012019975 -0.0076923026 0.0049485592 0.12775379 -0.42391977
19551250000 0.056133609 -0.015130447 -3.1455256e-005 0.00013891456 0.010241494 0.0024455015 -0.45094109 -0.73768789
19572500000 0.22562231 -0.029419687 -5.5919976e-005 8.3129735e-006 -0.007751903 -0.0058818772 -0.18364608 -0.2269166
19593750000 0.16200459 0.10455257 -8.314864e-005 2.3486558e-005 0.0050243796 0.0068579372 -0.17720212 -0.63336289
19615000000 0.088092685 -0.0182094 3.9528881e-005 0.00011011347 -0.0013961705 -0.0088524753 -0.34323397 -0.41233975
19636250000 0.10713646 0.046867412 -4.1832151e-005 1.232151e-005 -0.0064760861 0.0074452385 -0.12714627 -0.36526939
19657500000 -0.10853253 0.097112723 -0.0001342091 -0.00017424306 0.0070757098 -0.0013144875 -0.17580165 -0.40864107
19678750000 -0.0030770623 0.0088986801 8.779965e-005 0.00016145472 -0.0086747082 0.0024126852 -0.066773281 -0.74804789
19700000000 -0.0096678091 0.090081155 -3.4431941e-005 -9.431073e-005 0.0096265571 0.0067212591 -0.38287157 -0.50364298
19721250000 -0.016042469 0.063876867 -1.6394587e-006 7.3827352e-005 -0.00032743966 -0.0085334908 -0.071180679 -0.32495338
19742500000 -0.13806118 -0.042315289 6.5560816e-005 6.1598104e-005 -0.0027003207 0.0065265591 -0.14232843 -0.70052224
19763750000 -0.16819161 0.018680844 -8.4128451e-006 -6.1060069e-005 0.0087350374 -0.0055749994 -0.29107246 -0.33531183
19785000000 -0.21382174 0.058922093 0.00012949054 -0.00010300515 -0.010497372 -0.001133337 0.22879894 -0.28361031
19806250000 -0.074307464 -0.084742956 8.2139712e-005 0.00017270206 0.0054829973 0.0060612992 0.017176071 -0.82648498
19827500000 -0.090503946 0.022368299 -3.417442e-005 8.9778929e-005 -0.00073288201 -0.0063515804 -0.057504453 -0.35402238
19848750000 -0.21275784 -0.12016032 -0.00016717054 -0.00010647699 -0.002327983 0.0070897206 0.063802242 -0.41069597
19870000000 -0.12969595 -0.1251705 -0.00018283307 -8.1340877e-005 0.0098514613 -0.0055499258 -0.02329585 -0.41170076
19891250000 -0.25079054 -0.1700823 5.3612326e-005 -0.00011369698 -0.009762547 -0.0023878708 0.13592239 -0.29579365
19912500000 -0.094411388 -0.31434861 3.8474238e-005 2.8624841e-005 0.0080348728 0.0028003543 0.10841978 -0.0087087695
19933750000 0.00098457292 -0.1393913 0.00023032945 -9.2716386e-005 -0.0065445886 -0.0098684682 0.26544246 -0.48913896
19955000000 -0.096533656 -0.20855862 -5.1660587e-005 0.00021479071 -0.0051631662 0.01049786 -0.31462011 -0.37485421
19976250000 -0.15520957 -0.23930836 -1.1434926e-005 4.5885205e-005 0.0080576809 -0.0052290526 0.056516953 0.028914178
19997500000 -0.18624003 -0.22618024 1.5577479e-006 -1.7173807e-005 -0.010729691 0.0035296888 0.03406734 -0.16476816
20018750000 -0.072932176 -0.27396649 -3.893979e-005 2.0269692e-005 0.012223857 0.0029009529 -0.14971988 -0.013223703
20040000000 0.15567447 -0.30726263 0.00016106907 0.00011712911 -0.008143587 -0.0078275884 0.047190178 0.22726369
20061250000 0.29734153 -0.072164603 -8.1749655e-005 -1.9481447e-005 0.0022510665 0.0074949143 0.022787949 -0.27558118
20082500000 0.097145595 -0.042412333 -0.00010790108 2.1677717e-005 -0.00046739506 -0.0080199996 -0.34366831 -0.21972832
20103750000 0.13380876 0.015629467 0.00015236485 0.00015237008 -0.0076668477 0.0089505343 -0.33055869 -0.097367927
20125000000 -0.13979118 0.052891131 -6.2283427e-005 5.7681631e-005 0.010556844 -0.00054747571 -0.34116912 0.10665327
20146250000 0.052027699 -0.18576434 -0.00012573638 -3.5837311e-005 -0.007917203 -0.00078321889 -0.2709941 -0.29418811
20167500000 0.27499259 -0.081447959 0.00023210583 -2.6414141e-006 0.0086984886 0.0079034688 -0.80102193 -0.1593415
20188750000 0.21197245 0.0047751707 -1.433477e-005 6.9274407e-005 0.00057943328 -0.0089282617 -0.010499806 -0.11428402
20210000000 0.22037385 0.093216978 -0.00010497437 0.00017628819 -0.0039256569 0.0035289207 -0.56456441 -0.84871179
20231250000 0.0096693374 0.3535248 0.00011993347 -0.00020747063 0.006128395 -0.0034983347 -0.74664259 -0.13660407
20252500000 -0.12656181 0.17197406 -2.1669606e-005 0.00011100827 -0.0083007263 -0.00132983 -0.43636459 -0.43045077
20273750000 0.041065205 0.10958979 2.1551863e-005 2.3233704e-005 0.0058271056 0.006572051 -0.38683245 -0.36998135
20295000000 0.094461963 0.19615638 9.7883043e-005 -7.4602845e-005 -6.6746761e-005 -0.0073830648 -0.45266721 -0.46851653
20316250000 0.039357349 0.1675504 0.00018081264 -6.5979781e-005 -0.00073523482 0.0075621228 -0.17371729 -0.54588127
20337500000 -0.10932454 0.24140723 -0.00012729748 0.00010195573 0.0087626837 -0.0080471486 -0.065987684 -0.79304218
20358750000 -0.30552384 0.34876233 -0.00012972094 -0.00026967368 -0.011430948 -0.0013736954 -0.59290314 -0.68247557
20380000000 -0.3247827 0.077982679 4.9114871e-005 -0.00012756957 0.0078355679 0.0037769191 -0.31792983 -0.34125823
20401250000 -0.14429167 0.084014587 5.2699703e-005 0.00014924287 -0.0073881256 -0.0099807139 0.29675376 -0.67121965
20422500000 -0.22874659 0.054155972 0.00019225602 0.00014258212 -0.0022913658 0.012825644 -0.21355006 -0.63270867
20443750000 -0.11941265 0.044782072 1.831316e-005 -4.9490172e-006 0.0063121421 -0.0082912296 0.14649712 -0.18496381
20465000000 -0.24978364 0.23143515 1.9719684e-005 -0.00019780773 -0.0091307713 0.0044900379 0.39173308 -0.84016252
20486250000 -0.37731257 0.077595472 -0.00015785852 0.00010264798 0.011002072 0.00013929336 -0.33447823 -0.33219185
20507500000 -0.17761828 -0.013885079 -8.237116e-005 -1.0306764e-005 -0.0089244973 -0.0071679847 0.22805336 -0.10948519
20528750000 -0.14081997 -0.097687438 5.0629402e-005 1.8244365e-005 0.0022654955 0.01069371 0.21736032 -0.17193164
20550000000 -0.099896044 -0.27812859 -5.3066171e-005 2.6318885e-005 0.00052054913 -0.010410887 0.19438486 -0.0666769
20571250000 -0.10086913 -0.13491271 -1.7239627e-005 -4.7757549e-005 -0.0081385924 0.011631078 -0.021052076 0.033601183
20592500000 -0.12875652 -0.082697652 6.196271e-005 0.00014287551 0.012342029 -0.0018458302 0.37219772 0.21927917
20613750000 -0.10276461 -0.17603922 -4.0270043e-005 -4.0325456e-005 -0.0088445311 -0.0017906134 -0.24070267 -0.19603172
20635000000 0.24375664 -0.25724486 -4.6379104e-005 -0.00021203647 0.01061445 0.0062047974 -0.41276029 0.58049095
20656250000 0.077352509 -0.2446584 -0.00011028043 -5.2677478e-005 -0.00074942916 -0.0099107753 0.25057423 0.47093764
20677500000 0.18379392 -0.34359351 8.6864733e-005 7.6465643e-005 -0.0043656607 0.0060044313 -0.28879714 0.0079812761
20698750000 0.23907921 -0.080082022 8.7581146e-005 1.5537693e-005 0.0065240404 -0.003257012 -0.54019612 0.4946205
20720000000 0.092961505 -0.14691716 8.6256761e-005 -3.0721556e-005 -0.0085881222 -7.1213602e-005 -0.26770535 0.30183014
20741250000 0.33757544 -0.11227088 -9.8973076e-005 0.0001424435 0.0081814807 0.0055943797 -0.77984321 0.23522052
20762500000 0.34009674 -0.034570418 5.5789627e-005 0.00013700563 -0.00040310854 -0.0080158785 -0.6818276 0.29922146
20783750000 0.23429213 -0.082469493 9.0810834e-005 -3.8798542e-005 -0.0028021163 0.0054446855 -0.46780977 0.35770929
20805000000 0.40386236 0.051018365 -4.7682985e-005 7.1676627e-006 0.0083497101 -0.0063114134 -0.40942216 -0.057207286
20826250000 0.25528607 0.22107323 1.0602895e-005 -0.00011073089 -0.011690425 -0.0030150227 -0.91119158 -0.21281652
20847500000 0.21074167 0.073818609 -9.0377354e-005 1.767699e-005 0.0054339222 0.0055824579 -0.58565193 -0.0042079133
20868750000 0.28729746 0.13786291 -0.00015992293 2.7828523e-006 -0.0053021568 -0.00861686 -0.42696044 -0.73435873
20890000000 0.17563626 0.1694641 0.00012179981 0.00010639341 -0.0033018417 0.011903519 -1.0726942 -0.32602
20911250000 0.23515248 0.088951744 7.2434515e-005 -9.2239723e-005 0.0087863915 -0.0055406252 -0.385905 -0.17386001
20932500000 0.21786122 0.28690147 7.8210978e-006 -5.5336318e-006 -0.010470186 0.00030281997 -0.48280865 -0.74539328
20953750000 -0.031657886 0.33652756 -7.294977e-006 -6.9888124e-006 0.010197666 0.0049066995 -0.45630938 -0.6187377
20975000000 0.19239235 0.029132068 0.00011224267 -0.00016560715 -0.0066161081 -0.010724152 -0.22560465 -0.5497843
20996250000 0.083760574 0.10241652 2.6439808e-005 -0.00012702872 -0.0023996213 0.013311922 -0.18505314 -0.55961907
21017500000 -0.10295533 -0.018848747 -0.00018992873 -0.0001196502 0.0069863186 -0.0082897423 -0.16846913 -0.73137176
21038750000 -0.0054403404 0.060285073 -0.00010445674 0.00014708065 -0.011238565 0.0090049934 -0.23792012 0.17862636
21060000000 -0.20770802 0.17284174 -4.7673762e-005 0.00010497333 0.015407247 0.0023573164 0.58577096 -0.3246322
21081250000 -0.21253474 -0.026154926 8.0154401e-005 -0.00014658814 -0.0091441926 -0.0060630632 0.048765786 -0.63650453
21102500000 -0.075377062 -0.059772599 0.00014970507 -0.00011247053 0.0076192841 0.0081719765 0.095041491 0.015293265
21123750000 -0.12114766 -0.12410174 -0.00011720022 -0.00023448256 0.00013272406 -0.013381576 0.44530573 -0.28037694
21145000000 -0.053100601 -0.34038123 -8.6299624e-005 -0.0001727386 -0.0084449584 0.0081431251 -0.086622685 -0.39016446
21166250000 0.045166805 -0.1455363 8.4097243e-005 -1.5298705e-005 0.0097462032 -0.0034809324 0.12421826 0.36696842
21187500000 -0.049935237 -0.17546488 5.3223757e-005 -0.00010109352 -0.0099989027 -0.0012269133 0.094631523 0.091202185
21208750000 0.015555148 -0.38040623 5.9022375e-005 -4.4525212e-005 0.0074015809 0.007115439 0.1582794 0.070419304
21230000000 0.025987804 -0.2175919 -2.6834216e-005 -7.9334983e-005 0.002132395 -0.0099913878 -0.11668137 0.033749521
21251250000 -0.15308821 -0.44386625 -8.9962159e-005 6.6078828e-005 -0.0057282969 0.0031754686 0.00089763501 0.53051013
21272500000 0.15126026 -0.37962088 -0.00012872522 0.00020050746 0.0069925482 -0.0023103871 0.16852808 0.0062934505
21293750000 0.23191258 -0.16306548 -0.00012101066 0.00022406905 -0.010544083 -0.0045853462 -0.71555805 0.36134025
21315000000 0.24153116 -0.30535111 0.00018946362 -3.3236589e-005 0.0023853586 0.0090032509 -0.054634478 0.54194313
21336250000 0.31421056 -0.28211185 1.5930824e-005 0.0002080071 0.00057899725 -0.0079048686 -0.23115273 -0.038274281
21357500000 0.18403743 -0.22667849 5.8629666e-005 -8.221325e-005 -0.0048657404 0.010014899 -0.65311098 0.29404232
21378750000 0.074733891 -0.31533059 -0.00015499072 -8.3559398e-006 0.010233339 -0.0046037822 -0.35540691 0.36542663
21400000000 0.29635045 -0.26233369 0.00025417784 -0.00014166815 -0.010959114 -0.0017063457 -0.59567857 -0.078409098
21421250000 0.19607268 -0.12072881 -3.2129734e-005 3.3072833e-005 0.0081832251 0.0074039861 -0.7290833 0.13309734
21442500000 0.31439537 -0.23848981 -0.0001464065 -9.62216e-005 -0.0051338831 -0.011521962 -0.59340417 0.18894587
21463750000 0.35270014 -0.034266528 1.7539573e-005 1.2085703e-006 -0.0038371927 0.015263869 -0.28127539 0.078276791
21485000000 0.088373557 -0.066841818 5.250683e-006 -5.0255694e-005 0.0098815141 -0.0093058953 -0.64122659 -0.34109643
21506250000 0.21247023 -0.12318432 3.8362523e-005 -0.00014468156 -0.0092991451 0.0074370052 -0.5360325 0.095591083
21527500000 0.091808483 0.061099138 6.6088025e-005 0.00014158628 0.014378535 0.0011633609 0.066544123 -0.23841929
21548750000 0.040973958 -0.086867988 7.0509941e-006 -0.00022062297 -0.0087028779 -0.0082128784 -0.83522278 -0.52058017
21570000000 0.20896061 -0.072667092 6.2107596e-005 -3.2033902e-005 0.0054183765 0.0086900871 -0.20858191 0.094320446
21591250000 0.022181736 -0.037602112 7.6219483e-005 4.7053709e-005 -0.0001717041 -0.012350714 0.1169254 -0.37171322
