!Keysight Technologies,N5242B,MY47200105,A.14.00.23
!Date: Friday, May 10, 2024 11:19:18
!Correction: S11(C  2-Port  ) 
!S21(C  2-Port  ) 
!S12(C  2-Port  ) 
!S22(C  2-Port  ) 
!S2P File: Measurement: :
# Hz S  RI   R 50
18000000000 0.14504953 -0.029657926 -0.00021470705 -2.5253472e-005 0.00030078652 0.0059412858 0.87130606 -0.42156959
18021250000 0.06815362 -0.20994824 -5.0681418e-005 8.7704007e-005 0.0004636863 0.00019772114 0.32129791 -0.196558
18042500000 0.22881643 -0.095681079 4.598852e-005 3.9086615e-005 0.0025677418 0.0038265465 0.49595973 -0.057253998
18063750000 0.15552954 0.019691816 4.3419717e-005 -1.6128353e-005 0.0055556297 -0.0014999331 0.40722761 -0.19255276
18085000000 0.20840052 -0.051057622 2.5382486e-005 -0.00010145669 9.4441975e-006 -0.0046219435 0.42328534 0.08838854
18106250000 0.33697271 -0.010580408 4.8391455e-005 3.2244858e-005 0.0012729415 -0.0018361319 0.47850057 -0.092231058
18127500000 0.2053234 -0.041436341 -4.4255496e-005 -3.9675891e-005 -0.0054803253 -0.0036220897 0.5633592 -0.21013241
18148750000 0.1957479 -0.041398339 -3.597833e-005 -4.9310502e-006 0.00073926587 0.0037474337 0.30281422 -0.36584628
18170000000 0.30209723 0.082910888 -7.9840422e-005 4.4167655e-006 -0.0016063058 -0.00034115394 0.098767914 -0.13104855
18191250000 0.15513562 0.19484104 0.00012815135 -0.00012135862 0.0023034052 0.0012492399 0.26924619 -0.093308158
18212500000 0.23862985 0.068057254 -0.00014657938 7.4155751e-006 0.0010031217 -0.0016836469 0.098536782 -0.1279805
18233750000 0.16523702 0.14435384 -0.00015862037 -6.9136746e-005 -3.8205275e-005 -0.0022228973 0.32338324 -0.15683447
18255000000 0.028502256 0.067606881 1.1741264e-005 1.1566752e-005 -0.0022480197 -0.0024206114 0.42649442 -0.54466861
18276250000 0.13875385 0.010284451 8.4439758e-005 -9.6458025e-006 -0.0039804811 0.00035100849 0.15055636 -0.46670148
18297500000 0.065217257 0.15582381 5.7908033e-005 8.9962065e-005 -0.001871078 0.0023972001 0.077642448 -0.46539596
18318750000 0.019332465 0.12462685 -0.00010171364 -1.4871952e-005 -0.0013054935 0.0031283195 0.115447 -0.34812388
18340000000 0.067029364 0.081546158 -2.196655e-006 6.6515844e-005 0.0023625824 0.0032972321 0.14100842 -0.2491446
18361250000 -0.12097183 0.10714517 -5.0782244e-005 5.9251437e-005 0.0021712009 0.00025943978 0.36212942 -0.4750534
18382500000 -0.084135287 -0.02345361 0.00015218425 0.00011084806 0.0024220399 -0.0011808579 0.39770672 -0.41741082
18403750000 0.0065588485 -0.02224277 -3.4412304e-005 -6.7337081e-005 -0.0014086176 -0.0022018191 0.2825993 -0.6739555
18425000000 -0.033524808 0.01510796 5.153727e-005 0.00016224821 -0.00022531586 0.0012861111 0.075727463 -0.56325865
18446250000 -0.027538095 -0.12661941 7.4110185e-006 4.2773307e-005 -0.0024784391 -5.6445264e-005 0.49768785 -0.4251793
18467500000 0.02175354 -0.0031012266 -9.8835717e-006 0.00014739431 0.0033833019 0.0050563859 0.2642484 -0.54755503
18488750000 -0.18878795 -0.03562687 4.5950943e-005 2.1270918e-005 0.0018689458 -0.0030424939 0.35542819 -0.38809019
18510000000 -0.086521305 -0.15866378 2.8860415e-005 4.7295198e-006 0.0028697771 0.0025620991 0.50612909 -0.53995013
18531250000 -0.026499674 -0.02297725 2.9352266e-005 6.9466259e-005 0.0030442937 -0.0061881198 0.37541577 -0.54290104
18552500000 -0.062862381 -0.19035514 -1.4410618e-006 6.6699038e-005 -0.0033767927 -0.0021076838 0.28317344 -0.5263316
18573750000 0.07980027 -0.19104213 3.972229e-006 0.00011227904 0.00038680554 0.00017335948 0.1596857 -0.20007804
18595000000 0.090215512 -0.070108913 -6.1752025e-006 -5.932257e-005 -0.003932076 -0.0032336968 0.42642921 -0.11773852
18616250000 0.049093276 -0.13794574 3.5436537e-005 -9.8500332e-006 7.1327831e-006 0.0046343617 0.37535056 -0.46092224
18637500000 0.17212321 -0.10392689 7.3709853e-005 8.5968779e-005 0.00018991862 -0.0022364827 0.26291808 -0.16624478
18658750000 0.080766931 -0.064017899 7.4131849e-006 0.00010331911 0.0003571198 0.0023612406 0.48253006 -0.49271503
18680000000 0.083673485 -0.20160645 0.00012913407 0.00012839404 0.0017077727 -0.003269488 -0.033450671 -0.4476186
18701250000 0.23862407 -0.091865875 -7.4176962e-005 -5.111819e-005 -0.0042603738 -0.0017714889 0.22023563 -0.11510191
18722500000 0.14625829 -0.051716857 6.282251e-005 5.4357173e-005 -0.0011336074 0.0021051283 0.16401479 -0.29904717
18743750000 0.22488643 -0.14836733 -4.2377258e-005 -7.5143464e-005 -0.0026007644 -1.387203e-005 0.14880095 -0.25400576
18765000000 0.21631545 0.080416203 -4.5816603e-005 -9.4582956e-006 -0.0010011801 0.0044553312 0.18498877 -0.3570202
18786250000 0.079081923 -0.011543762 -2.9568086e-005 8.1187369e-005 0.0025509349 0.0034053351 0.053853612 -0.34978959
18807500000 0.22519954 -0.093152076 3.7092592e-005 8.323574e-005 0.0031820694 -0.00071247213 0.030784581 -0.43449646
18828750000 0.136971 -0.04273716 -1.1803203e-005 6.1511414e-006 -0.00010008601 -0.00033490415 -0.02272385 -0.46444976
18850000000 0.14927794 -0.052404847 3.5967892e-005 4.8847625e-005 0.0030118118 -0.0015110894 0.10099899 -0.13043351
18871250000 0.23686165 0.086620949 -3.7648337e-005 0.00014572451 -0.0035065087 -0.00038317413 0.1248539 -0.59013861
18892500000 0.13663942 0.23036368 -1.3722213e-005 -8.6730215e-005 0.0019527025 0.0014002314 0.050683912 -0.43497825
18913750000 0.10181516 0.026335426 3.4319521e-005 -2.8528841e-005 -0.0010691932 7.3049872e-005 0.20391673 -0.61249983
18935000000 0.08133018 0.00098016241 3.2419684e-005 6.5449669e-005 0.003005028 0.0023554035 -0.067114271 -0.68132132
18956250000 -0.03449519 -0.0067481603 6.4374974e-005 -4.3162185e-005 0.0018438061 -0.002825751 -0.012200934 -0.50430119
18977500000 0.029871468 -0.068094783 5.1469586e-005 8.2861436e-005 0.0013128329 -0.0011061815 0.12961973 -0.42051351
18998750000 0.075486548 0.16327125 2.7273977e-006 0.00021762158 -3.4024204e-005 -0.0037994448 0.24678923 -0.52866268
19020000000 -0.045669876 0.12978981 6.5554494e-005 9.6874064e-006 -0.003393206 -0.0012975289 0.13452962 -0.59226418
19041250000 -0.1020373 0.006856658 -6.5623615e-005 -0.00015016887 -7.5848206e-005 5.2578023e-005 -0.00095303456 -0.48959631
19062500000 -0.096854076 0.070986547 -5.1958978e-005 5.2148924e-005 -0.00474336 0.0011944894 0.27862149 -0.61329585
19083750000 -0.0725298 -0.17773077 5.9400929e-005 -2.3987346e-005 0.0033409558 0.0025352018 -0.041046094 -0.60343325
19105000000 0.088500671 -0.059855491 3.8173745e-005 6.4330685e-005 -0.0013631934 -0.0019885185 0.02065306 -0.22617112
19126250000 0.058191281 0.05023567 1.179717e-005 9.9890276e-005 0.0006906694 0.0013406216 0.44751161 -0.54188609
19147500000 -0.060637567 -0.042101435 -7.3775722e-005 7.8394572e-005 0.0003683698 -0.0026837941 0.10534891 -0.57941151
19168750000 -0.11502044 -0.099859886 4.5982055e-005 8.1401602e-005 -0.0041666101 0.00055996684 0.15739875 -0.4651072
19190000000 -0.16241424 -0.18911494 -8.8476583e-005 -0.00016038316 0.00016554947 0.0023532896 0.13403565 -0.48381722
19211250000 -0.10409283 -0.29260659 6.7580593e-005 -2.1760381e-005 -0.0019641186 0.0011816432 0.1886936 -0.44826433
19232500000 0.13199294 -0.15989049 6.6383865e-005 5.4781973e-005 0.0023690849 0.0042826775 -0.097288057 -0.33844775
19253750000 -0.0097211078 -0.10483231 -0.00014839166 -3.6134086e-005 0.0018605144 -0.00033880971 0.29744852 -0.2776463
19275000000 0.043915913 -0.1875129 -5.0051134e-005 3.7610851e-005 0.0025987406 -0.00013713125 0.17915514 -0.52162325
19296250000 -0.0031343936 -0.13113704 2.8108021e-005 1.2227407e-005 0.00079941814 -0.0013105163 0.02476494 -0.39784229
19317500000 -0.12830628 -0.22923216 -6.6012028e-005 6.4892592e-005 -0.00057425717 -0.0020038087 0.19864525 -0.36526746
19338750000 0.18898962 -0.29883194 6.6007022e-005 5.0033985e-005 -0.0004532536 0.0010140906 -0.12994885 -0.5336476
19360000000 0.17463887 -0.20962642 -6.595593e-005 0.00011167603 0.00011916219 -0.00014220575 -0.10794534 -0.20303851
19381250000 0.15796116 -0.23028789 3.5050354e-005 8.4072817e-005 0.00066155719 0.0005008817 0.15598644 -0.31073549
19402500000 0.20173475 -0.13877161 -1.8439947e-005 -0.00020921926 0.0023296606 0.0013745145 -0.053147569 -0.37233385
19423750000 0.029825103 -0.16060185 6.6211891e-005 -2.3251439e-005 0.0022167878 -0.0045672455 0.057089362 -0.47012907
19445000000 0.092550986 -0.16872604 1.5592223e-005 -5.8075428e-005 -0.0017628632 -0.0009809155 -0.21211424 -0.37155804
19466250000 0.25969875 -0.11481462 -8.737688e-005 -0.00018401834 -2.7237558e-005 -0.00213487 -0.078764513 -0.36725181
19487500000 0.19314685 -0.063825004 -0.00014496992 6.0918916e-005 -0.0037368056 -0.0020133473 -0.27212057 -0.47031966
19508750000 0.22754072 -0.16343312 -2.9887304e-005 8.9672045e-005 -0.0016550502 0.0034788006 -0.19659461 -0.088259481
19530000000 0.1573057 0.030349767 -2.1831233e-005 2.2399858e-005 -0.00069923449 -0.00076230895 0.11406019 -0.41549471
19551250000 0.060616992 -0.026717318 -8.8564178e-005 0.00017843643 0.0011512671 0.0028749818 -0.43439257 -0.71778578
19572500000 0.22078003 -0.039614625 0.00016076553 -6.3425068e-005 3.8456121e-005 -0.0017476666 -0.18369819 -0.23264062
19593750000 0.16158795 0.096823364 -1.9142986e-005 1.5099171e-006 0.00025063698 -0.00066143268 -0.17623539 -0.62463379
19615000000 0.083814748 -0.020269945 5.3618478e-005 -9.4067378e-005 -0.0019859788 -0.00020423623 -0.34472126 -0.40972042
19636250000 0.11241055 0.053662095 2.7801598e-005 2.9797069e-005 -0.001577136 0.00056214753 -0.12722963 -0.36443263
19657500000 -0.091025673 0.10449494 9.9193698e-005 -4.3215023e-006 -0.00091184839 0.0017143412 -0.18004307 -0.41491759
19678750000 0.001974564 0.0061244727 -0.00014509147 0.00012570503 -0.00093159213 0.0044729747 -0.079250053 -0.7376349
19700000000 -0.0050963536 0.093078502 -0.00016333083 4.2296883e-006 0.0044819447 0.00027734894 -0.37481385 -0.50472748
19721250000 -0.024160502 0.062907115 0.0001240636 0.00024110498 0.0010674204 -0.00055325706 -0.085974321 -0.33814865
19742500000 -0.13585255 -0.036553137 2.4725765e-005 4.3305121e-005 0.00062411989 -0.00093389198 -0.14740871 -0.69043303
19763750000 -0.16696447 0.028351499 -9.2273003e-005 -0.00012065974 0.0013672331 -0.001730611 -0.28745973 -0.34328711
19785000000 -0.21597557 0.060405776 0.00012983149 -0.00010314889 -0.0018920368 -0.00078152842 0.21380727 -0.29357517
19806250000 -0.077996477 -0.075299703 0.00016528177 4.6528974e-005 -0.0012161382 0.00043773174 0.011602123 -0.81236011
19827500000 -0.10043882 0.026089199 -8.3522755e-005 5.9490525e-005 0.0024143709 0.0019740211 -0.05524011 -0.35918802
19848750000 -0.2164484 -0.11900166 2.6646752e-005 -1.2217936e-005 -0.00019429842 -0.0015942488 0.058671664 -0.41415104
19870000000 -0.12663579 -0.12755799 -4.7579393e-005 -8.4847728e-005 0.0028660723 0.00053541386 -0.025561895 -0.40969124
19891250000 -0.24960597 -0.17315768 8.4922103e-005 -6.7244502e-005 -0.00020252609 -0.0040689986 0.1338775 -0.2852883
19912500000 -0.10397711 -0.32437059 4.9720165e-006 0.00017879931 -0.0022629509 -0.00074363156 0.11437269 -0.018721716
19933750000 -0.01025007 -0.14887486 -8.5827542e-006 -0.00014923615 -0.00067254237 -0.0015120811 0.26223737 -0.47354224
19955000000 -0.11384872 -0.21222845 9.9797784e-005 0.00011913187 -0.0057244799 -6.7442954e-005 -0.29414627 -0.35725752
19976250000 -0.15585445 -0.24604703 0.00024343535 -1.93219e-005 0.0031797912 0.0049075913 0.055496734 0.028629882
19997500000 -0.17830342 -0.22645067 0.0002029046 0.00010018474 -0.0018074672 -0.0028153614 0.032087304 -0.15308879
20018750000 -0.064733326 -0.28318799 -8.5513821e-005 0.00012024615 0.0012777246 0.0035394873 -0.15129751 -0.0025288807
20040000000 0.16617785 -0.31412423 -0.00012589958 -0.00018141622 0.0022367442 -0.002682585 0.042346466 0.23102622
20061250000 0.30483857 -0.08134459 -2.5852081e-005 7.206975e-005 -0.0035726563 -0.002241794 0.011507045 -0.26118734
20082500000 0.11123471 -0.052566003 -0.0001502193 -9.0731097e-005 -0.00041603961 0.0029695134 -0.35031131 -0.20238377
20103750000 0.14811443 0.0088832192 -1.2329394e-005 1.6756421e-005 -0.0024650518 -0.00055894523 -0.33968839 -0.088865764
20125000000 -0.1208334 0.054848455 6.5831366e-005 -0.00011403114 0.0012245683 0.0046471427 -0.35609451 0.10475107
20146250000 0.059264477 -0.17735374 -6.3944732e-005 6.7949768e-005 0.0018110343 -0.0004215666 -0.29411232 -0.27692667
20167500000 0.28581223 -0.073175281 -6.2410008e-006 0.0001523824 0.0014856789 0.0017141866 -0.79268467 -0.15847126
20188750000 0.21720302 0.017698094 7.9496211e-005 4.0626011e-005 0.0032962353 -0.0013152406 -0.04748816 -0.12113621
20210000000 0.22666377 0.11028959 -3.1810949e-005 -4.0993535e-005 -0.0010248602 -0.0034071084 -0.57384944 -0.83677214
20231250000 0.034130789 0.37231815 7.9198282e-005 -6.7818335e-005 -0.00015249892 0.00049166486 -0.75401503 -0.15648051
20252500000 -0.1177891 0.1917838 0.0001067315 -0.00011384865 -0.00093445781 -0.00057904451 -0.44852298 -0.43374193
20273750000 0.04010018 0.12407473 -0.00028647753 -6.3780804e-005 0.00011940017 0.0013985009 -0.4037514 -0.38044074
20295000000 0.085624911 0.21771345 0.00021135184 2.9900659e-005 0.0012238643 0.0010407433 -0.43987504 -0.47230822
20316250000 0.031616114 0.18781528 8.9535024e-005 5.9864575e-005 0.0022612028 -0.00076688302 -0.17736271 -0.56164241
20337500000 -0.10916224 0.25907856 -1.6288164e-005 3.2641343e-005 0.00044972781 -0.0032131358 -0.068224609 -0.79852003
20358750000 -0.31217474 0.36405602 0.00011375597 3.5321551e-005 -0.0012407876 -0.0014739028 -0.56545556 -0.69092298
20380000000 -0.33773383 0.093027018 -0.00010954871 7.6359727e-005 -0.0014176505 -0.0012630762 -0.30336469 -0.36423934
20401250000 -0.1625239 0.087993994 -8.037017e-005 5.00143e-005 -0.0023483536 -1.5962089e-005 0.29277387 -0.67153054
20422500000 -0.24930455 0.056813292 -1.7265944e-005 0.00010320753 -0.0017799545 0.0019800623 -0.1890121 -0.62719774
20443750000 -0.13986892 0.036965668 -7.5658485e-005 -6.7594883e-005 0.0011592887 0.00168508 0.15956028 -0.19976789
20465000000 -0.26485145 0.21865521 -4.4377703e-005 0.00027053469 0.0010200696 -0.00032213997 0.38917965 -0.81654227
20486250000 -0.39123541 0.06570293 -9.010428e-005 0.00011816584 -0.00044596606 -0.00025243394 -0.30250078 -0.32100511
20507500000 -0.19342147 -0.034409434 -0.00013270933 -9.7513766e-005 0.0004954352 -0.0015197383 0.2321789 -0.098375544
20528750000 -0.15299648 -0.10855904 1.4163876e-005 -2.4984411e-005 -0.0028719893 0.0010337392 0.21904898 -0.15189794
20550000000 -0.10217566 -0.29138923 7.7322744e-005 -5.9573413e-006 0.00027391713 -0.0002815644 0.20125541 -0.041012172
20571250000 -0.086145222 -0.15198472 3.0245312e-005 -0.00016409901 -0.0025984973 0.0030454153 -0.0079260673 0.053195264
20592500000 -0.11543945 -0.097799905 3.2785272e-005 6.8551301e-005 0.0035332842 0.0019653896 0.35911784 0.22787419
20613750000 -0.087199003 -0.18819119 3.0497213e-005 4.2199081e-005 0.00034147323 -0.00034214984 -0.23866883 -0.15836367
20635000000 0.25451198 -0.26598305 6.7114299e-005 5.3760057e-005 0.0032666605 0.0004856493 -0.4148874 0.58178079
20656250000 0.10361126 -0.26023847 -9.5242234e-005 -0.00011368284 0.0005969216 -0.0030176314 0.21249306 0.48337004
20677500000 0.20552474 -0.35855025 -1.5688416e-005 -2.7274544e-005 -0.0016512999 -0.00081400789 -0.3041856 0.039660342
20698750000 0.26039901 -0.088564806 0.00011305389 -2.9843193e-005 -6.4485001e-005 0.0006117904 -0.55881631 0.49693719
20720000000 0.11747868 -0.13883406 3.325416e-005 -0.0002589919 -0.00095254608 0.00052644697 -0.3000893 0.30662966
20741250000 0.35880575 -0.10911205 -0.00030405048 3.3540546e-005 0.0020953959 0.00071256119 -0.80385733 0.25026202
20762500000 0.36021242 -0.033844281 0.000135829 -0.00015940564 0.0010519988 -0.00013703333 -0.6994226 0.29252997
20783750000 0.25157976 -0.075727046 3.038429e-005 -1.5105575e-005 0.00045309518 -0.0018399985 -0.49868479 0.33601385
20805000000 0.41595301 0.059801023 1.4172893e-005 -1.9085193e-005 0.00052748254 -0.0015097625 -0.44181496 -0.062932111
20826250000 0.26374283 0.23408413 -4.9775208e-005 -0.00012849433 -0.0018831033 -0.0020799967 -0.90922076 -0.22923788
20847500000 0.20903143 0.096901961 0.00018064103 7.6468787e-005 -0.0025725288 -8.35424e-005 -0.59485787 -0.038167544
20868750000 0.28009644 0.16363627 0.00011652685 0.0002192276 -0.0010733671 0.0022503829 -0.45472851 -0.75312847
20890000000 0.16679992 0.19203177 1.3071407e-005 -1.7880076e-006 -0.0011443703 0.00066142407 -1.0456978 -0.35808218
20911250000 0.22124638 0.1043792 0.00010960895 3.7354232e-005 0.0022481543 0.0026393908 -0.38956508 -0.20622307
20932500000 0.19677432 0.29736558 -2.0530028e-005 -0.00012723997 -0.0002437065 -0.0030126492 -0.46251574 -0.74881935
20953750000 -0.050440293 0.35030657 -6.6912275e-005 -0.00011290944 5.8570993e-005 0.0015753326 -0.42588884 -0.62104207
20975000000 0.15699457 0.043639626 -0.00018104757 7.7106473e-005 -0.00012596726 -0.002935241 -0.19352581 -0.55782068
20996250000 0.05361031 0.11077094 -7.6082652e-005 0.0001497078 -0.0039825803 0.0022969556 -0.16245762 -0.57220751
21017500000 -0.11860612 -0.020047177 0.00012184668 5.4458778e-005 0.0020508724 0.0015926964 -0.13853581 -0.70992941
21038750000 -0.01831191 0.047204614 5.1775125e-005 -4.8169473e-005 -0.0025570849 0.0022565511 -0.20385323 0.15759662
21060000000 -0.21609136 0.15882856 -0.00012535715 -0.00015806338 0.0047065602 0.0024297154 0.58401388 -0.30699065
21081250000 -0.22827081 -0.035061348 -0.00025112531 -0.00011052129 -0.00015613242 -0.0015026802 0.078343742 -0.59705627
21102500000 -0.08505924 -0.067324348 -6.384369e-005 6.5115084e-005 0.0029901781 -0.00024419616 0.11576777 0.028506637
21123750000 -0.11861117 -0.14469689 -5.0385974e-005 0.0002273467 -0.00096479116 -0.0032726205 0.45063743 -0.24249956
21145000000 -0.042787198 -0.36162657 -2.8592774e-005 -0.00010105975 -0.0019602806 0.00094252737 -0.066776648 -0.33675066
21166250000 0.063761532 -0.16934352 1.896213e-005 1.8285449e-005 0.0014110133 -0.00060051912 0.13913061 0.3828139
21187500000 -0.026185099 -0.19746886 -0.00010417322 1.8941762e-005 -0.0016064483 0.0013976513 0.096099399 0.11764815
21208750000 0.039218377 -0.38424844 -0.00011793915 -7.9717902e-006 0.0022494891 6.6804241e-005 0.14955746 0.10254513
21230000000 0.054055836 -0.2300235 -2.8931621e-005 -0.00019174341 0.0027289751 -0.00086576096 -0.11909886 0.066539198
21251250000 -0.11992998 -0.45978123 0.00026771685 -1.8013972e-005 -0.0013959366 -0.0041750129 -0.021463536 0.52805275
21272500000 0.17767265 -0.39519006 7.0323687e-005 0.00019240992 -0.001093096 0.00080229313 0.12660085 0.035128035
21293750000 0.25392047 -0.17486598 9.5865951e-005 9.475409e-005 -0.00085827801 -0.0031062351 -0.72176981 0.36631358
21315000000 0.25867558 -0.29377359 -0.00010456955 -8.6138723e-005 -0.0045188763 0.0024970528 -0.090124495 0.54076064
21336250000 0.3236227 -0.25881815 7.9305835e-005 -0.0002163358 0.0032527596 0.0020470936 -0.26102933 -0.018229477
21357500000 0.18941243 -0.20935442 0.00016225342 4.9111528e-005 -0.0018312967 -0.00055708823 -0.66237187 0.28775886
21378750000 0.089161046 -0.29142693 -3.1742368e-006 -0.00013600237 0.0020583284 0.001749162 -0.37562525 0.34686729
21400000000 0.29706997 -0.24292736 3.184134e-005 6.3854905e-006 0.00018395751 -0.0034641966 -0.61111099 -0.086720809
21421250000 0.19838378 -0.10352667 7.9685276e-005 -0.00016533762 -0.0025692682 0.0021805963 -0.73416811 0.10994088
21442500000 0.30849546 -0.20756802 8.3421955e-006 -8.884944e-005 0.0011536711 -0.0021666887 -0.60077608 0.15597688
21463750000 0.33081147 -0.012804233 0.00010763507 0.00013432946 -0.0042848415 0.0035072141 -0.30045265 0.054897029
21485000000 0.071301572 -0.050113685 -0.00011193136 0.00030665993 0.0037316645 0.0020587868 -0.62737155 -0.35465896
21506250000 0.1876822 -0.10723049 -2.9828898e-005 -2.4261766e-005 0.00057302212 0.0001779485 -0.52990156 0.065925635
21527500000 0.066614285 0.066050909 4.8571135e-005 -0.00024835893 0.0021431381 0.0007257114 0.053394455 -0.25370547
21548750000 0.018723531 -0.083749808 1.3028133e-005 3.1239677e-005 0.0012400214 -0.0022693858 -0.79419112 -0.51599646
21570000000 0.17903674 -0.069523901 -0.00012880671 0.00014846642 0.00044085743 -0.00068928965 -0.19394606 0.075139679
