!Keysight Technologies,N5242B,MY47200105,A.14.00.23
!Date: Friday, May 10, 2024 11:07:11
!Correction: S11(C  2-Port  ) 
!S21(C  2-Port  ) 
!S12(C  2-Port  ) 
!S22(C  2-Port  ) 
!S2P File: Measurement: :
# Hz S  RI   R 50
18000000000 0.13317329 -0.028511163 -0.00013331221 -0.00012001466 0.012010118 0.010227938 0.8827619 -0.42431912
18021250000 0.063844323 -0.21456008 0.00010065307 -2.7187207e-005 -0.0070958654 -0.0087905629 0.31743529 -0.19076158
18042500000 0.22368966 -0.09167628 -8.3099345e-005 -6.6841552e-005 0.0037152306 0.016028492 0.50142157 -0.047193572
18063750000 0.1452696 0.016444838 6.9578942e-005 0.000186713 0.010175613 -0.012201262 0.41459882 -0.18889527
18085000000 0.2088989 -0.053102221 -0.00014788596 -9.3289498e-005 -0.010166248 0.0012454061 0.43015751 0.093067348
18106250000 0.33123448 -0.0065791956 -0.0001164564 7.1763701e-005 0.013636376 -0.0014733954 0.48062122 -0.090354435
18127500000 0.20358838 -0.045862287 -1.5235367e-005 -0.00013667146 -0.016035503 -0.011433243 0.57230592 -0.20452282
18148750000 0.19924907 -0.044892166 0.00011118285 -4.8915419e-005 0.0054960637 0.015085326 0.30490673 -0.36597708
18170000000 0.30085069 0.083639532 -0.00019564255 8.8854256e-005 0.00048981851 -0.012895949 0.097845837 -0.11697283
18191250000 0.15647629 0.18935083 2.4763734e-005 8.9052664e-005 -0.0063301818 0.012057319 0.28050643 -0.08192122
18212500000 0.24288957 0.069897227 2.061299e-006 -0.00017022958 0.014436569 -0.0068541593 0.10242132 -0.12079179
18233750000 0.16230299 0.14496399 4.4585704e-005 -3.2221971e-005 -0.014710245 -0.0040589529 0.32692042 -0.15172455
18255000000 0.029540226 0.061378881 -2.1615171e-005 -9.9027537e-005 0.010090554 0.0068889768 0.43278462 -0.53829336
18276250000 0.14452882 0.012396337 0.00019528359 0.00014049801 -0.01019637 -0.013464814 0.15418051 -0.46094829
18297500000 0.06973552 0.15323856 -3.0974021e-005 3.184699e-005 -0.0031699261 0.017441994 0.07800822 -0.46052593
18318750000 0.027425256 0.12416267 2.0394318e-005 -0.0001145785 0.0084075201 -0.009743196 0.11718239 -0.33978078
18340000000 0.071022213 0.089214742 -1.5000915e-005 3.3587082e-006 -0.013590691 0.0096235601 0.14265576 -0.24209876
18361250000 -0.12060184 0.10752 4.4089039e-009 6.4861524e-005 0.019885805 0.0023894731 0.36001316 -0.47795615
18382500000 -0.07779637 -0.016942343 5.5652839e-005 1.4233808e-006 -0.012675846 -0.012175273 0.39438254 -0.40679312
18403750000 0.0092458921 -0.017900098 -0.00011289438 -8.8593195e-005 0.0063412194 0.014871277 0.28012332 -0.67285895
18425000000 -0.032290582 0.016195728 -3.2887918e-005 -3.0131187e-005 0.0011958363 -0.017027995 0.069236457 -0.56307369
18446250000 -0.025132939 -0.1187257 -6.6372369e-005 -1.2548469e-005 -0.013717324 0.01524522 0.50406295 -0.42111254
18467500000 0.015827477 0.0054592066 0.00010856968 0.00022552448 0.01989012 -0.0032407318 0.26576418 -0.54901731
18488750000 -0.19222817 -0.02930636 -6.9647751e-005 2.681727e-006 -0.016547918 -0.0040054708 0.35988203 -0.39278954
18510000000 -0.085454419 -0.15120813 3.39871e-005 0.00010923972 0.019897468 0.012114988 0.50513315 -0.54714102
18531250000 -0.032479808 -0.020646403 2.1976144e-005 -3.1942822e-005 -0.0061131222 -0.022195645 0.3788144 -0.54540968
18552500000 -0.058817655 -0.19026795 6.2071658e-006 5.9218626e-005 -0.0042740772 0.015491053 0.28701687 -0.53242618
18573750000 0.076821312 -0.18713619 -1.867621e-006 -6.8354457e-005 0.010693909 -0.014040365 0.16006789 -0.19673942
18595000000 0.084917486 -0.068638407 3.2332089e-005 4.7610949e-005 -0.020141935 0.0034409945 0.43655157 -0.11411054
18616250000 0.050136369 -0.13792463 7.4038107e-005 -5.2694675e-005 0.016778922 0.0068007591 0.38170129 -0.46844044
18637500000 0.1693846 -0.10326818 1.4898334e-005 0.00011810087 -0.012179401 -0.014031978 0.26734379 -0.16019921
18658750000 0.082349472 -0.068830274 -7.1335664e-005 -0.00013458103 0.0055487496 0.019161744 0.49709696 -0.49454299
18680000000 0.085230663 -0.20515473 -9.2555114e-005 -5.2849846e-005 0.0063504498 -0.020473355 -0.030130763 -0.44473687
18701250000 0.23578909 -0.093362227 2.3317241e-005 3.2366326e-005 -0.017913138 0.0109897 0.23411185 -0.10706215
18722500000 0.14635062 -0.057285789 3.0789586e-005 9.201307e-005 0.017368333 -0.0020147127 0.1761189 -0.2944189
18743750000 0.22789551 -0.15152767 -1.4577024e-006 4.564273e-005 -0.02037699 -0.0063275378 0.15889409 -0.25242436
18765000000 0.21612963 0.074872762 0.00012513976 7.0866612e-005 0.011739723 0.018725039 0.18962196 -0.35511333
18786250000 0.083577357 -0.018135872 5.7294401e-006 -2.2669035e-005 -0.0012445293 -0.015844012 0.055223357 -0.34119508
18807500000 0.22879918 -0.091206387 0.00010154063 -1.7051776e-005 -0.0037468583 0.019139694 0.033915464 -0.42911902
18828750000 0.1385541 -0.044813026 -3.3427885e-005 2.7673998e-006 0.015914857 -0.01411446 -0.022533236 -0.45900398
18850000000 0.15773715 -0.049800746 0.00012189848 -7.4879077e-005 -0.019034786 0.0013098513 0.10515308 -0.11452909
18871250000 0.24102199 0.088649333 3.3968168e-005 0.00027792569 0.017562525 0.0063567627 0.12582962 -0.59108436
18892500000 0.1382951 0.22755569 -5.4255866e-005 -5.4862579e-005 -0.01300191 -0.015359398 0.04732288 -0.4299247
18913750000 0.10513698 0.03169848 1.3638399e-005 9.964873e-007 0.0044147689 0.022212144 0.2028401 -0.61110938
18935000000 0.077237226 0.0061046765 -4.6743397e-005 1.4181073e-005 0.0095586507 -0.019642035 -0.07283631 -0.67951381
18956250000 -0.033978015 -0.0025383828 -5.1243394e-005 -0.0001108584 -0.014832131 0.01300919 -0.014160653 -0.50302762
18977500000 0.029939367 -0.06079549 -3.1391599e-005 0.00021759761 0.024212522 -0.0075671519 0.12830375 -0.41572171
18998750000 0.069582425 0.16843814 0.0001022126 -8.578664e-005 -0.023593809 -0.0091700573 0.25134251 -0.52985078
19020000000 -0.04218819 0.13409591 -4.4508808e-005 8.5482003e-005 0.013770387 0.014438321 0.13258274 -0.59670645
19041250000 -0.10829625 0.0093386127 8.3321887e-005 -2.42312e-005 -0.0066966573 -0.021255173 -0.0058845193 -0.48961616
19062500000 -0.10413618 0.07439357 -0.00010556747 -0.00016214731 -0.0090661161 0.022634896 0.28726494 -0.61677003
19083750000 -0.075452521 -0.17532641 -4.1856847e-006 -2.3992874e-005 0.017283058 -0.012627408 -0.039576884 -0.61138552
19105000000 0.082742169 -0.054592017 1.5025699e-005 -8.395793e-005 -0.022310385 0.0030977188 0.024244756 -0.22290899
19126250000 0.057032607 0.04715376 0.00011687724 0.00023019238 0.021344204 0.0065494021 0.46137443 -0.5571698
19147500000 -0.066803895 -0.043608304 9.6194155e-005 -1.7216495e-006 -0.012727966 -0.017064046 0.10640065 -0.58865458
19168750000 -0.12385794 -0.10165978 -6.7559842e-005 4.4250741e-005 -2.5296451e-005 0.019512204 0.16012526 -0.47019574
19190000000 -0.16352941 -0.19552368 -9.2442642e-005 -1.7839606e-005 0.0070552793 -0.016355582 0.1407235 -0.48403236
19211250000 -0.10790396 -0.29390579 -0.00012761629 -1.0527771e-005 -0.01741365 0.013391772 0.20050746 -0.45299789
19232500000 0.13109212 -0.16543531 2.1804439e-005 1.8318327e-005 0.021640854 0.0025799014 -0.099481151 -0.33757755
19253750000 -0.010954331 -0.11198205 -2.6928132e-005 0.00010662142 -0.016387682 -0.00882087 0.31360871 -0.27437106
19275000000 0.041678768 -0.18922876 -3.8779097e-005 -6.9135451e-005 0.01347074 0.015930291 0.18646778 -0.52691603
19296250000 -0.0020858594 -0.13615087 -0.00016588865 0.00013086162 -0.00052940979 -0.021370139 0.027054379 -0.39589503
19317500000 -0.1247358 -0.23083372 -0.00013692027 1.8622928e-005 -0.010019771 0.01622933 0.2075731 -0.35915628
19338750000 0.1931224 -0.29927295 3.2897591e-005 -1.8590539e-005 0.016199283 -0.0087418621 -0.12680149 -0.53346652
19360000000 0.17760995 -0.21097697 -2.2243859e-005 8.9626221e-005 -0.019473718 -0.00094103336 -0.10757986 -0.19740835
19381250000 0.16362181 -0.22611921 -1.6520047e-005 0.00010574273 0.017719394 0.011123019 0.16234775 -0.30724159
19402500000 0.20070697 -0.13588734 1.3467485e-005 -6.2964165e-005 -0.0068793003 -0.016618036 -0.052600827 -0.37061307
19423750000 0.034221306 -0.15828383 -1.3597433e-005 -2.376173e-005 0.00084378314 0.015448124 0.058721717 -0.47431079
19445000000 0.097125642 -0.1639934 0.00022902832 -3.6090216e-005 0.010312297 -0.017125759 -0.21970831 -0.36618567
19466250000 0.25786719 -0.11347528 6.7400666e-005 -8.647771e-005 -0.018390438 0.006485289 -0.073490344 -0.36509538
19487500000 0.19593766 -0.0573989 -4.2854892e-005 2.1895778e-005 0.01643165 0.00103012 -0.27485302 -0.4756808
19508750000 0.22269367 -0.15469772 1.3240299e-007 0.00019943071 -0.017963484 -0.0096006701 -0.19782791 -0.082371749
19530000000 0.15584144 0.037095886 -8.3126077e-005 -0.00011995634 0.006636553 0.017627094 0.12203272 -0.42088223
19551250000 0.062846325 -0.02367538 5.540135e-005 8.1513044e-006 0.0049361088 -0.015997037 -0.44434801 -0.7289719
19572500000 0.21589699 -0.037045162 5.1323554e-005 5.2095311e-005 -0.012688517 0.012823356 -0.18305458 -0.22858498
19593750000 0.15753341 0.096397243 7.0165122e-005 -1.2914319e-005 0.018574258 -0.0073112207 -0.17574534 -0.62946641
19615000000 0.079072386 -0.017817309 -2.1237005e-005 -9.7270022e-005 -0.019745741 -0.0045468062 -0.34278589 -0.41153473
19636250000 0.10404586 0.055586334 -5.7213783e-006 0.00019825647 0.011241839 0.01336813 -0.12763742 -0.36503962
19657500000 -0.096420251 0.098541722 0.00025207124 7.4147392e-005 -0.0053052399 -0.016069461 -0.1774753 -0.41047743
19678750000 -0.0022170693 0.0077133272 -7.4353426e-005 0.00020859168 -0.0068915659 0.020184094 -0.071904019 -0.74407113
19700000000 -0.0091544557 0.085005045 4.1270105e-005 -0.00011126602 0.018451033 -0.0098508503 -0.37992266 -0.50349617
19721250000 -0.02372054 0.058139175 6.6883687e-005 3.9860064e-005 -0.016501483 0.00096742978 -0.076899573 -0.33017462
19742500000 -0.14037088 -0.038570412 0.00013978461 6.595147e-005 0.015809394 0.0072258278 -0.14378941 -0.69700938
19763750000 -0.16922452 0.016827758 -5.1145802e-005 -9.6731528e-005 -0.0070272968 -0.01695692 -0.28940088 -0.33944574
19785000000 -0.21479425 0.059173785 -8.1338978e-005 -1.7903415e-006 -0.0014150982 0.017055312 0.22231594 -0.28795657
19806250000 -0.077376798 -0.083848946 -8.1278449e-005 -0.00019068891 0.0091040898 -0.013213557 0.015241909 -0.82076532
19827500000 -0.098774865 0.019702816 -0.00015644838 0.0001489562 -0.014022984 0.0099347122 -0.056490209 -0.35618854
19848750000 -0.21269269 -0.11523487 -0.00013971167 0.00010580501 0.017939497 0.00021792602 0.062261309 -0.41180006
19870000000 -0.12661916 -0.1292837 7.2760404e-006 0.00010324264 -0.012455543 -0.01033244 -0.023034921 -0.41168854
19891250000 -0.24459423 -0.17494351 -5.5902365e-005 -9.8496501e-005 0.0078117619 0.013031431 0.13543142 -0.29306227
19912500000 -0.095237769 -0.32458949 -0.00017389884 -9.8409982e-005 -0.00019570344 -0.021908211 0.11036847 -0.013162571
19933750000 -0.010936419 -0.15212612 0.0001892361 5.6154626e-005 -0.012029257 0.013729497 0.26526245 -0.48301065
19955000000 -0.10536776 -0.20826212 3.3347198e-005 4.4483124e-005 0.01259586 -0.0072847535 -0.30498353 -0.36836606
19976250000 -0.15743278 -0.24029325 0.00013396409 0.00013004987 -0.015571102 0.0024536138 0.05748808 0.027774466
19997500000 -0.18051842 -0.22451079 4.6141628e-005 5.0736762e-005 0.012751209 0.0090706367 0.03428122 -0.16104783
20018750000 -0.06126716 -0.27907884 0.00012701645 -6.1250241e-005 -0.0053237472 -0.013970229 -0.14953795 -0.0096699195
20040000000 0.15855494 -0.3111904 -1.3969809e-005 0.00012469733 -0.00050935143 0.016676836 0.043844964 0.22829704
20061250000 0.3032687 -0.07767453 -0.00020306789 8.5643005e-005 0.0083955321 -0.015661757 0.018152263 -0.26900968
20082500000 0.10538959 -0.045476519 -3.7678154e-005 8.9603178e-005 -0.018418824 0.0083907135 -0.34545523 -0.21299966
20103750000 0.14068344 0.015877817 -0.0002531684 0.00010457983 0.015178375 0.0038088593 -0.33349395 -0.093755282
20125000000 -0.12316242 0.050991729 -8.2846695e-005 0.00017034262 -0.01158166 -0.008662059 -0.34557205 0.10598314
20146250000 0.0550077 -0.17923161 0.00010401936 8.8730967e-006 0.0057697608 0.01638821 -0.27926648 -0.28838903
20167500000 0.27821127 -0.080695599 -0.00011050473 -0.00013094947 0.0086473087 -0.015090287 -0.79826254 -0.15957366
20188750000 0.21378274 0.012378618 2.7986644e-005 -7.1007256e-005 -0.0090283677 0.010178258 -0.025510287 -0.11691017
20210000000 0.22091123 0.11190646 7.7891964e-005 -0.00018620703 0.016258141 -0.0035896825 -0.5691554 -0.84370458
20231250000 0.026479153 0.359669 -4.5341276e-005 -0.000155503 -0.016273066 -0.0067977328 -0.7490598 -0.14396094
20252500000 -0.11443695 0.18161218 0.0001241382 -0.00015003003 0.0077428245 0.011964962 -0.44094628 -0.43185228
20273750000 0.038626332 0.11321297 -0.0001848964 0.00016414745 -0.00074681634 -0.01366417 -0.39276019 -0.37528363
20295000000 0.08604981 0.20018885 -0.00010790365 4.2531781e-005 -0.0065266327 0.012723522 -0.44827333 -0.47102493
20316250000 0.03548196 0.1834618 -6.6680819e-005 4.2839696e-005 0.014410027 -0.0073270286 -0.17547791 -0.55102593
20337500000 -0.11250513 0.24975742 -0.00013551228 8.3418679e-005 -0.013052209 -0.0059515587 -0.064995535 -0.79452991
20358750000 -0.30558646 0.35496691 9.8140852e-005 -0.00014639753 0.0094392691 0.007520746 -0.58029246 -0.6858865
20380000000 -0.32875901 0.088140398 -1.77985e-005 -3.047487e-005 -0.0059700496 -0.014201099 -0.31041822 -0.35135764
20401250000 -0.15769514 0.080796331 -0.00010279292 0.00028187639 -0.0061855861 0.013203907 0.29462332 -0.67296827
20422500000 -0.233954 0.057192404 0.00010714465 -1.2016664e-005 0.0086126281 -0.0060226894 -0.20415092 -0.63114333
20443750000 -0.13171016 0.044071931 -0.00022768666 3.2717791e-005 -0.012779274 0.0041080764 0.15112519 -0.19238892
20465000000 -0.2566708 0.22140442 -8.9431764e-005 3.7643789e-005 0.013063805 0.0071638846 0.39019382 -0.83043313
20486250000 -0.37877107 0.070330113 7.0955299e-005 -1.3846769e-006 -0.0083230603 -0.012501784 -0.32093704 -0.32785976
20507500000 -0.1946709 -0.024680594 4.7178757e-005 -1.3191243e-005 0.0014457378 0.012394416 0.2288422 -0.10609358
20528750000 -0.14781804 -0.10316413 -4.3561751e-005 -0.00013735257 0.0047460077 -0.011085664 0.21781626 -0.16418852
20550000000 -0.098814055 -0.2765027 4.7475904e-005 4.2340464e-005 -0.011330402 0.007305108 0.19631931 -0.057477854
20571250000 -0.092588998 -0.14099029 -5.1086099e-005 -1.2525572e-005 0.011435263 0.0022325048 -0.016324325 0.041243143
20592500000 -0.11237378 -0.09782695 -7.2984141e-005 -6.2644955e-005 -0.0080181342 -0.0047488245 0.36758533 0.22233029
20613750000 -0.09534847 -0.18096136 9.8499186e-006 -1.9293262e-005 0.0067397137 0.011630094 -0.23920435 -0.18072814
20635000000 0.24409491 -0.26317659 2.363066e-006 -8.371321e-005 0.004319923 -0.013708868 -0.41255233 0.57940519
20656250000 0.092056856 -0.2515375 -0.00011174415 -9.4908522e-005 -0.0069782278 0.0077479845 0.23548956 0.47479683
20677500000 0.19349727 -0.34356514 -2.0376296e-005 6.29236e-006 0.010391979 -0.0063803862 -0.29493722 0.019783454
20698750000 0.25103268 -0.089200616 -0.00012356653 5.6588564e-005 -0.013837793 -0.0011009062 -0.54721618 0.49480367
20720000000 0.11033588 -0.14053325 0.0001882791 -6.8262998e-005 0.0085115675 0.0095673706 -0.27987584 0.30322295
20741250000 0.34922093 -0.11126528 -6.3439169e-005 -0.00012161218 -0.0019483726 -0.011942917 -0.78622764 0.23951049
20762500000 0.35045114 -0.041856032 0.00011583105 -0.00028378371 -0.0028121492 0.011264025 -0.68839651 0.29412174
20783750000 0.2458515 -0.076657869 -0.00011441067 1.6313541e-005 0.0093529318 -0.0087370304 -0.47952095 0.34722286
20805000000 0.40497193 0.053669497 -5.7308175e-006 -2.8663209e-005 -0.011307615 -0.0013461034 -0.42259049 -0.061701521
20826250000 0.26205292 0.22128202 6.408475e-005 -0.00010411829 0.0086967945 0.0048320354 -0.91031355 -0.22037858
20847500000 0.20938373 0.088294446 -0.00016575323 6.3737891e-005 -0.0076087746 -0.010823719 -0.58879203 -0.018174071
20868750000 0.27552366 0.14906423 7.4986354e-005 9.5751886e-005 -0.0026805485 0.015828509 -0.43554333 -0.74074221
20890000000 0.17600156 0.18455695 -7.3073606e-005 -4.5084973e-005 0.0070302179 -0.008743098 -1.0602274 -0.33862165
20911250000 0.2296463 0.10256236 4.3630775e-005 -2.3995073e-005 -0.0099975271 0.0062060445 -0.38699469 -0.1861392
20932500000 0.2084363 0.29052955 6.557443e-005 -0.00014134303 0.013096509 0.0022522926 -0.47261599 -0.74544209
20953750000 -0.032355145 0.34404972 1.0034877e-005 -0.00017981464 -0.0081134671 -0.010229407 -0.44307879 -0.61880738
20975000000 0.16968904 0.040116876 -2.9427345e-005 -0.00011862339 0.00029058152 0.011346004 -0.21185933 -0.55153167
20996250000 0.071373768 0.10693441 -8.7852408e-005 -8.5307198e-005 0.0035094293 -0.012346926 -0.17367743 -0.56253672
21017500000 -0.10638048 -0.013472643 0.00010630496 -2.9827948e-005 -0.011848458 0.0075273067 -0.15520623 -0.7222755
21038750000 -0.015883222 0.056975186 4.9849514e-006 0.0002639732 0.012759576 0.0027249109 -0.22353038 0.16940388
21060000000 -0.20304367 0.15964864 -0.00018288828 2.4229559e-005 -0.0066973455 -0.0073149698 0.58345181 -0.31759155
21081250000 -0.2186826 -0.021454547 -8.8874724e-005 6.7933797e-005 0.0067423936 0.013568451 0.059180126 -0.61812121
21102500000 -0.083100639 -0.061994798 1.1000458e-005 1.0737646e-005 0.003441704 -0.016337581 0.10209968 0.021041583
21123750000 -0.11317874 -0.13171594 -0.00013546651 -4.4827913e-005 -0.011504441 0.0093727363 0.44586053 -0.26309606
21145000000 -0.046506699 -0.34151176 0.00010054786 -5.6796827e-005 0.013775408 -0.0046330974 -0.078072302 -0.3672379
21166250000 0.05804047 -0.16407691 -4.3568332e-005 -0.00018288658 -0.014865992 -0.0026716355 0.12986915 0.37349322
21187500000 -0.032031883 -0.18369699 -6.0195991e-005 0.00010449722 0.011755157 0.012030776 0.094858311 0.10190336
21208750000 0.019246455 -0.37601036 -0.00015806656 5.377665e-005 -0.0028689427 -0.01511122 0.15364695 0.082476996
21230000000 0.041423958 -0.22853696 3.873348e-005 6.5011111e-005 -0.0019873381 0.015112917 -0.11835821 0.047971722
21251250000 -0.12791012 -0.44076154 -5.9757054e-005 0.00011174695 0.010907951 -0.014529437 -0.0079502817 0.52909696
21272500000 0.16313343 -0.38928765 0.00014710311 0.00014603192 -0.017664699 0.0027388739 0.15141968 0.017038716
21293750000 0.24865967 -0.17949247 -3.5910682e-005 -0.00010986094 0.016543327 0.0035907479 -0.71700597 0.36257529
21315000000 0.24952359 -0.29628256 1.1696826e-005 -0.00010262369 -0.013975415 -0.012020118 -0.069268487 0.53955573
21336250000 0.31019184 -0.27455479 -0.00019777345 -1.1215472e-005 0.0033907676 0.020536467 -0.24379496 -0.030403502
21357500000 0.1901383 -0.21261035 -0.00010503032 1.335758e-005 0.0068354923 -0.018920029 -0.6556648 0.28961095
21378750000 0.082269907 -0.29422539 0.00012750525 4.4802211e-005 -0.014250237 0.0130906 -0.36376619 0.35679862
21400000000 0.29716593 -0.25614128 3.5178448e-006 -9.6276235e-005 0.022342687 -0.0055417358 -0.60040474 -0.082642116
21421250000 0.20643532 -0.10894517 9.7287018e-005 -3.5945799e-005 -0.022677504 -0.0078931032 -0.73063409 0.12129498
21442500000 0.30627021 -0.22015749 8.6775653e-005 -0.00011016926 0.013044363 0.016233938 -0.59705418 0.17491014
21463750000 0.34414142 -0.023998789 -0.00023145984 3.1079605e-006 -0.0062990719 -0.019420158 -0.28922933 0.067078844
21485000000 0.08660388 -0.051772762 -5.8636306e-005 0.00013926542 -0.0080605336 0.023706457 -0.6361208 -0.34662074
21506250000 0.19473119 -0.11615297 -3.3745891e-005 5.4839726e-005 0.019359803 -0.012837816 -0.53290319 0.082540989
21527500000 0.085381269 0.058901954 -5.8724869e-005 -0.00018735233 -0.02193513 0.00063729443 0.060816951 -0.24513322
21548750000 0.029141515 -0.077934913 0.00021544921 -2.57336e-005 0.023595827 0.0095071066 -0.81813699 -0.51956344
21570000000 0.1872382 -0.06668669 5.7154107e-006 0.00011598603 -0.011773827 -0.020672038 -0.20336789 0.085810684
21591250000 0.017688654 -0.03819653 8.1598482e-005 -0.00017168213 -0.0028939601 0.023416784 0.11939451 -0.36927584
21612500000 -0.11355309 -0.16106346 0.00013148725 1.4583769e-005 0.013623676 -0.020013912 -0.30850157 -0.54097927
21633750000 -0.084493123 -0.030878594 -0.00015799384 -0.0001354397 -0.020799901 0.012511244 -0.17178164 -0.013237116
