!Keysight Technologies,N5242B,MY47200105,A.14.00.23
!Date: Friday, May 10, 2024 11:01:07
!Correction: S11(C  2-Port  ) 
!S21(C  2-Port  ) 
!S12(C  2-Port  ) 
!S22(C  2-Port  ) 
!S2P File: Measurement: :
# Hz S  RI   R 50
18000000000 0.13301757 -0.025576806 -0.0001413751 -9.5782561e-005 0.0025653841 0.012775708 0.8924346 -0.42674872
18021250000 0.064772218 -0.20819205 4.7709786e-005 -2.4821869e-005 0.0019506051 -0.0063192635 0.31367016 -0.18870673
18042500000 0.21918483 -0.093517095 0.00013598366 7.9907813e-006 -0.0024252187 0.008609565 0.50394559 -0.041471362
18063750000 0.14482576 0.013611821 2.2351387e-005 0.00014801072 0.012453726 -0.0025941045 0.41738868 -0.1873458
18085000000 0.19959867 -0.050878037 7.1852104e-005 9.7262498e-005 -0.0064948122 -0.0078200214 0.4338555 0.097567774
18106250000 0.32604325 -0.0050266492 -8.8383058e-007 3.1641495e-005 0.0054625804 0.004730192 0.48374268 -0.088751905
18127500000 0.20475151 -0.046480864 6.3438696e-005 -1.0345574e-005 -0.005959494 -0.011641975 0.57919848 -0.20266159
18148750000 0.19546896 -0.048125837 -5.4204488e-006 1.2966635e-005 -0.0028775737 0.010647307 0.3059442 -0.36758089
18170000000 0.29492047 0.08108522 -4.2577605e-005 8.7672466e-005 0.0050364085 -0.004236673 0.096401386 -0.10876148
18191250000 0.15486574 0.1879281 4.8114733e-005 6.3023326e-005 -0.0057475306 0.0013446222 0.28629196 -0.074051112
18212500000 0.24144116 0.071771927 -5.6977235e-005 -8.4692556e-006 0.0082887858 0.0023920771 0.10405613 -0.11533986
18233750000 0.16527532 0.13903274 -2.209615e-005 2.3072371e-006 -0.0045656534 -0.0091936188 0.33005965 -0.14824183
18255000000 0.03036122 0.061020195 -7.8149285e-005 8.3828389e-005 -0.0017676775 0.0059785019 0.43843722 -0.53484714
18276250000 0.14280528 0.0099201715 3.014737e-005 -4.3907552e-005 -2.1434203e-006 -0.0066205561 0.15671985 -0.45912176
18297500000 0.069084309 0.15285075 0.00010394202 3.0216475e-005 -0.0085371239 0.0060210102 0.077811927 -0.45834601
18318750000 0.026025727 0.12957472 3.8040147e-005 -1.2297633e-005 0.0067348052 0.003056563 0.11667632 -0.33481148
18340000000 0.072392561 0.088871233 2.1806984e-005 6.9932626e-006 -0.0046933908 -0.0010803583 0.14235795 -0.23625815
18361250000 -0.11573009 0.10711722 2.6098744e-005 -7.4857933e-005 0.0067260507 0.0073571736 0.35876444 -0.47848991
18382500000 -0.082343534 -0.018019918 9.2501679e-005 -2.1663427e-005 0.0022352464 -0.0092615243 0.39281854 -0.40116581
18403750000 0.0046759024 -0.015701922 -1.3461311e-005 4.3779921e-005 -0.0049078669 0.0044672396 0.27802157 -0.67353827
18425000000 -0.034147531 0.020266842 -0.00010586543 -3.0035248e-005 0.0057148864 -0.0024345883 0.064232737 -0.56393307
18446250000 -0.031127997 -0.11481889 1.6568762e-005 -6.629341e-006 -0.0090618785 -0.00028409198 0.50602877 -0.41907814
18467500000 0.013364878 0.0090150516 -0.00011096459 6.0654884e-006 0.0082338899 0.0086428281 0.26611388 -0.54963201
18488750000 -0.19582368 -0.026989639 0.00016280108 -3.922034e-005 0.00024710325 -0.008306223 0.36287862 -0.39497209
18510000000 -0.093337409 -0.14555477 -8.8604429e-005 -7.7704448e-005 0.0015264711 0.0077239457 0.50624597 -0.55372435
18531250000 -0.032607034 -0.018372107 9.2714996e-005 -5.7198711e-005 0.0078211874 -0.0093213674 0.37951949 -0.54890078
18552500000 -0.05944927 -0.18596846 0.00014934513 -9.7466349e-005 -0.00905124 -0.0023837828 0.28730661 -0.53726137
18573750000 0.079027236 -0.18879279 -8.5188512e-005 7.9078665e-005 0.0049992297 0.0044371304 0.15830325 -0.19472764
18595000000 0.08150401 -0.07639119 -5.873163e-006 -2.1429149e-005 -0.0050981003 -0.010109763 0.44306999 -0.11036576
18616250000 0.046901014 -0.14100797 -0.00022685458 -6.9880305e-005 -0.0023344853 0.011825324 0.38687247 -0.47226971
18637500000 0.16447192 -0.10708306 -4.0695766e-005 7.5347991e-005 0.0064993426 -0.0075383862 0.2721656 -0.15682209
18658750000 0.077873692 -0.070013963 -9.6088901e-005 5.8977348e-005 -0.0084289899 0.0042954017 0.50680989 -0.49688596
18680000000 0.088181853 -0.20410699 -5.9855702e-005 1.7340944e-005 0.010025597 -0.00078113092 -0.028488139 -0.44314
18701250000 0.23552881 -0.097875357 -2.8364827e-006 -5.0704608e-007 -0.010569778 -0.0087783057 0.24242179 -0.1011432
18722500000 0.1528623 -0.062000535 -4.2356223e-005 5.4001419e-005 0.0010839223 0.011060278 0.18348341 -0.29124928
18743750000 0.23357366 -0.15057656 -4.2013409e-005 0.00010170084 -0.00033080528 -0.0091072386 0.16461529 -0.25032133
18765000000 0.21815869 0.072188161 0.00010882044 9.2500738e-007 -0.0076303757 0.011072608 0.19337238 -0.35377169
18786250000 0.099020302 -0.019156747 1.9529165e-005 -3.980942e-005 0.010873422 0.00075014634 0.05498274 -0.33635074
18807500000 0.23143338 -0.096269213 -8.0872967e-005 5.9865059e-005 -0.0052272757 -0.0022524374 0.033193361 -0.42531535
18828750000 0.14334279 -0.043650597 2.0335134e-005 -7.7689128e-006 0.0060301516 0.0052123503 -0.023942664 -0.45445365
18850000000 0.16778433 -0.050094195 1.4831366e-005 -6.8434485e-005 0.0011377529 -0.0093055964 0.10720952 -0.1023525
18871250000 0.24527948 0.092980221 -2.2483049e-005 -2.827975e-005 -0.0052822116 0.0069373506 0.12714249 -0.59028196
18892500000 0.14835016 0.22613263 9.7335775e-005 -9.5766527e-006 0.0072169942 -0.003234515 0.045084175 -0.42665148
18913750000 0.10727767 0.029832456 7.5300275e-005 -6.9295406e-006 -0.007764596 0.0014621516 0.20231029 -0.61137491
18935000000 0.07683298 0.011022116 5.0532535e-006 1.1979918e-005 0.0091535049 0.0047949334 -0.079292573 -0.67979175
18956250000 -0.032904711 -0.0034879679 1.9358799e-006 5.0114268e-005 -0.0015718763 -0.0082682744 -0.017588366 -0.50196648
18977500000 0.021812586 -0.053042069 6.6298257e-005 -0.00010652957 0.0011449126 0.0053957407 0.12640452 -0.41247463
18998750000 0.067298546 0.17669272 9.123487e-005 -0.00012746005 0.0036105334 -0.0090848329 0.25397372 -0.53070921
19020000000 -0.052348509 0.13895656 -5.9130165e-005 6.1117586e-005 -0.0095079364 0.00081251824 0.13116099 -0.60037059
19041250000 -0.11414792 0.020978978 -1.2475525e-005 -1.6396529e-005 0.0060605714 0.0018946271 -0.0099336058 -0.49107873
19062500000 -0.10653963 0.073631212 -0.00012530386 -8.2112208e-005 -0.0092493631 -0.0046585682 0.2903733 -0.62009263
19083750000 -0.087222539 -0.16631706 -7.4325799e-005 3.0423573e-006 0.0039254888 0.010028973 -0.04074204 -0.61637276
19105000000 0.078329071 -0.056296077 4.758644e-005 1.4375153e-005 0.0024973219 -0.0091621345 0.026339551 -0.22105373
19126250000 0.043112382 0.042990133 3.745918e-005 -0.00011043858 -0.0066594863 0.0061446386 0.47022381 -0.56758088
19147500000 -0.079932533 -0.041391235 -9.9484489e-005 -8.534333e-005 0.0088404343 -0.0027432302 0.10821418 -0.59574771
19168750000 -0.12689161 -0.10568514 -0.00013599842 9.642198e-005 -0.012108997 -0.0037850982 0.16277234 -0.4743591
19190000000 -0.17228946 -0.1955156 0.00010993297 -2.5156367e-005 0.0049744677 0.010264258 0.145337 -0.48503682
19211250000 -0.10462031 -0.30104449 0.00014909839 -2.5741983e-005 -0.0017986265 -0.0079305992 0.20783167 -0.45589951
19232500000 0.12084706 -0.17698906 -0.00013636057 -2.7007094e-005 -0.0026576119 0.012347256 -0.10021093 -0.33577505
19253750000 -0.012919565 -0.11619739 0.00020443092 5.3209562e-005 0.010491168 -0.0052514439 0.32413712 -0.27125546
19275000000 0.04102952 -0.20113082 -3.1670043e-005 4.6303707e-005 -0.0067796316 0.00013877563 0.19229405 -0.52998334
19296250000 -0.0033300419 -0.14337768 -0.00012729545 0.00010763996 0.0086850664 0.0035091434 0.029510206 -0.39537135
19317500000 -0.11666845 -0.24251477 -0.00017899787 -1.2533445e-005 -0.0047864411 -0.01027491 0.21317475 -0.35668597
19338750000 0.18516827 -0.31128743 3.4162837e-005 4.4837339e-005 -0.0015067214 0.010094477 -0.12572296 -0.53380913
19360000000 0.17786491 -0.21049581 0.00015271305 -0.00010461698 0.005567193 -0.0072048716 -0.10805371 -0.19290851
19381250000 0.16805524 -0.22712117 0.00013503968 -4.1830197e-005 -0.0074589034 0.0042999019 0.16689569 -0.30418006
19402500000 0.21282545 -0.1369914 0.00012509977 0.00014299015 0.010272997 0.0026260016 -0.052861903 -0.36899641
19423750000 0.051482361 -0.16351274 3.409282e-005 -1.0661248e-006 -0.0039775711 -0.010420254 0.059259959 -0.47592416
19445000000 0.10446528 -0.17579216 2.5230058e-005 -2.1200756e-005 5.0286035e-005 0.007459518 -0.22431372 -0.36279902
19466250000 0.26292995 -0.11658096 -7.2091912e-005 -3.2781809e-005 0.0027845604 -0.010589956 -0.071001619 -0.36317873
19487500000 0.19610389 -0.066037036 -0.0001213146 -3.1527241e-005 -0.010348398 0.0030787268 -0.27663389 -0.47867662
19508750000 0.22169819 -0.14628576 -5.7771453e-005 -7.6651968e-006 0.0074507091 0.0022669723 -0.19997598 -0.077455126
19530000000 0.16666985 0.037949663 -9.3133749e-006 -1.3267866e-006 -0.0086357268 -0.0041560568 0.12727995 -0.42328635
19551250000 0.067549579 -0.025881872 0.00010807447 -0.00012227174 0.0057368157 0.010492879 -0.45080677 -0.73686153
19572500000 0.21715009 -0.034065388 9.4892617e-005 -0.00016747387 0.00021455284 -0.010541853 -0.18398477 -0.22692972
19593750000 0.15894212 0.099220596 -2.8855182e-005 -7.361178e-005 -0.0042370977 0.0071639749 -0.1776914 -0.63238984
19615000000 0.088011697 -0.014736357 -0.00010674293 -4.4387576e-005 0.0060923235 -0.0040225526 -0.34311378 -0.41198349
19636250000 0.10976694 0.0480837 -8.969639e-005 1.619395e-005 -0.010350692 -0.00041655064 -0.12808119 -0.36456889
19657500000 -0.095421784 0.093423784 1.9577375e-005 8.5073436e-005 0.0057404437 0.0072774524 -0.17608561 -0.4083381
19678750000 -0.0068091033 0.0046374882 0.00014088265 3.5178768e-005 -0.0033553005 -0.0039808527 -0.06686376 -0.74725878
19700000000 -0.011083652 0.087927632 0.00016323238 -5.1458366e-005 0.0018105825 0.008945086 -0.38270044 -0.50331146
19721250000 -0.028343854 0.065782942 3.8246719e-005 -8.5030551e-005 0.0078491587 -0.0067754565 -0.072127938 -0.32532164
19742500000 -0.12999085 -0.037501357 -8.983262e-006 0.00010375123 -0.0081065316 0.00053726707 -0.14265603 -0.7001608
19763750000 -0.16396955 0.018321516 1.7225966e-005 -3.1591146e-005 0.0098940562 0.0020650651 -0.29135066 -0.3358297
19785000000 -0.20730597 0.052800495 -8.1027109e-005 9.8391116e-005 -0.0077378107 -0.0088300332 0.22754085 -0.28382322
19806250000 -0.079320528 -0.087257236 -1.2679435e-005 -4.1719006e-005 -0.001015492 0.0098254168 0.017289463 -0.82644999
19827500000 -0.10324292 0.023569806 -0.00020111559 -1.3013827e-005 0.0070885587 -0.0065780026 -0.057837177 -0.354496
19848750000 -0.20996754 -0.10903693 0.0002237693 4.1072799e-005 -0.0088577261 0.0034091072 0.063314058 -0.41094124
19870000000 -0.12275361 -0.12444215 0.00018453825 -1.2225304e-005 0.013482766 0.00088668615 -0.02375295 -0.41276494
19891250000 -0.23538063 -0.16868289 0.00011051942 0.0001007399 -0.0094932187 -0.0095139332 0.13482711 -0.29607919
19912500000 -0.092107899 -0.3124679 -4.7755389e-006 -7.5718839e-005 0.0041029914 0.0089755114 0.10751202 -0.0091435779
19933750000 0.0010334995 -0.14559858 -5.9485228e-005 0.00010080596 -0.00016793323 -0.011739331 0.2654855 -0.48911992
19955000000 -0.098776937 -0.20269795 -8.3012426e-005 -0.00010580037 -0.011939871 0.0084340144 -0.31413901 -0.3756738
19976250000 -0.15069973 -0.24122007 -4.3222484e-005 4.1640404e-005 0.01245521 0.00023160916 0.055644959 0.028027797
19997500000 -0.17536229 -0.22437406 -6.9302674e-005 -3.5875648e-005 -0.012236453 -0.0033875848 0.033752024 -0.1652693
20018750000 -0.065508865 -0.28247306 7.8838384e-005 -5.1006627e-005 0.0091463234 0.0097188447 -0.14901106 -0.013649841
20040000000 0.15567338 -0.31151858 0.00012330142 0.0001216969 -0.0018169115 -0.012485054 0.046322007 0.22724333
20061250000 0.28676388 -0.073398694 3.2821099e-005 -0.00010615001 -0.0058814655 0.0077900561 0.023787139 -0.27525282
20082500000 0.10097019 -0.037879884 -4.5502031e-005 -0.00015771143 0.0070442394 -0.004339525 -0.34270331 -0.22076832
20103750000 0.13221873 0.020628011 -4.2522966e-005 -2.2151593e-005 -0.012173963 0.0022329818 -0.33025968 -0.097975314
20125000000 -0.12086917 0.050498385 -6.0175349e-005 0.00022663039 0.011151892 0.0083193341 -0.34057319 0.1062711
20146250000 0.053214084 -0.18358238 1.009184e-005 3.1910098e-005 -0.0045139589 -0.0084402142 -0.26968548 -0.29410157
20167500000 0.26688662 -0.085463487 2.0401601e-005 -4.2478292e-005 0.0019187949 0.01258222 -0.79904395 -0.16040003
20188750000 0.20976572 0.0075974623 -2.3211584e-005 8.2803512e-005 0.0080803651 -0.010506921 -0.010460572 -0.11416923
20210000000 0.21458778 0.10098862 0.00021527958 -5.9631377e-005 -0.010719295 0.00066148484 -0.56378126 -0.84713423
20231250000 0.01888052 0.35472104 2.5742554e-005 -2.443306e-005 0.010788682 0.0016805631 -0.74449497 -0.13650432
20252500000 -0.11608285 0.17778593 5.4392553e-005 0.00026618125 -0.0096216947 -0.0070659937 -0.43571573 -0.42996135
20273750000 0.042223714 0.1056141 -4.2563293e-005 -7.6801363e-005 0.0044164257 0.011702438 -0.38579041 -0.36963066
20295000000 0.090815738 0.19350389 -0.0001669106 3.3569588e-005 0.0033617909 -0.010055892 -0.45273179 -0.46796519
20316250000 0.035071138 0.17035624 7.7572571e-005 -0.00013777184 -0.004370166 0.0084741106 -0.17397787 -0.54476386
20337500000 -0.10167188 0.24921028 -0.00016798997 5.8221784e-005 0.011144692 -0.0060953596 -0.066814363 -0.79063559
20358750000 -0.29295912 0.34603336 -9.3029063e-005 -3.3933386e-005 -0.011740793 -0.0039780787 -0.59247935 -0.68083316
20380000000 -0.31710184 0.080377795 0.00021012856 -0.00015485474 0.0062736371 0.0059583453 -0.31781164 -0.34079146
20401250000 -0.15077341 0.075955041 4.2456377e-005 2.2021022e-005 -0.0049687889 -0.010319503 0.29622287 -0.67051262
20422500000 -0.22753771 0.057236802 -2.3957244e-005 -0.00023490594 -0.0052783769 0.011491421 -0.21390551 -0.63196284
20443750000 -0.12219239 0.054215461 -0.00025010962 4.147353e-005 0.0083849793 -0.0054301685 0.14604014 -0.18480025
20465000000 -0.23589566 0.21895391 9.0296395e-005 -3.8331109e-005 -0.0085473694 0.00030421614 0.39064568 -0.83852643
20486250000 -0.36318135 0.075836122 0.00010688723 7.0341615e-005 0.0085922172 0.0038149469 -0.3347747 -0.33242965
20507500000 -0.19026349 -0.02250204 6.4126667e-005 -6.5655215e-005 -0.0049610059 -0.0096933087 0.22631763 -0.10933385
20528750000 -0.14328833 -0.10646062 6.1903382e-005 -7.8461322e-005 -0.0024705238 0.010386188 0.21627384 -0.17178559
20550000000 -0.1050938 -0.26406348 -6.4609376e-005 -2.1846285e-005 0.0047255023 -0.0081292363 0.19279189 -0.067643613
20571250000 -0.097097628 -0.13795418 0.00011060228 -2.8368586e-005 -0.010460949 0.0072742556 -0.021515895 0.032319631
20592500000 -0.11134567 -0.089666769 -0.0001016306 -8.744454e-005 0.012464805 0.0031684726 0.371694 0.21860671
20613750000 -0.09632498 -0.17219359 6.4285618e-005 0.00020081108 -0.006611174 -0.0063137906 -0.24003373 -0.19706409
20635000000 0.22407737 -0.26337659 -0.00011669492 9.1415503e-005 0.0061827176 0.009455204 -0.41181201 0.57801759
20656250000 0.08000534 -0.24038033 6.7122688e-005 -9.9764009e-005 0.0036099837 -0.010645277 0.25069422 0.46945363
20677500000 0.17817251 -0.32734412 -9.5241943e-005 -2.1653117e-005 -0.0088621993 0.0042835581 -0.28764659 0.0075953961
20698750000 0.24443978 -0.091213062 6.5872526e-005 -0.00014438647 0.0096360194 0.00037361044 -0.53975624 0.49326408
20720000000 0.10858974 -0.14074048 0.00024925586 -7.7729048e-005 -0.0091466587 -0.004990858 -0.26693073 0.30165526
20741250000 0.32556343 -0.11580011 -8.4709434e-005 -7.2321847e-005 0.0067260754 0.010102193 -0.77639651 0.23418868
20762500000 0.33700657 -0.041025411 -1.440668e-005 -0.00015436127 0.0031074826 -0.011349013 -0.68047673 0.29857957
20783750000 0.23945573 -0.075300254 -8.3928317e-006 9.1239534e-005 -0.0068808231 0.0063126218 -0.46613702 0.35813034
20805000000 0.39860338 0.049303003 6.7470268e-005 7.190404e-005 0.012271445 -0.0048970669 -0.4082841 -0.055704132
20826250000 0.26654032 0.21019785 0.00022001762 3.5057103e-005 -0.014717679 -0.0055781538 -0.90894347 -0.21150534
20847500000 0.20995897 0.07514298 -2.6250307e-005 3.8421284e-005 0.0069944793 0.0091161318 -0.58512491 -0.0025829901
20868750000 0.27834514 0.13646814 -6.5483255e-005 7.6991411e-005 -0.0048118052 -0.012212981 -0.42645016 -0.73121613
20890000000 0.17877689 0.17153266 -9.546153e-007 0.00015535217 -0.0054578767 0.013822421 -1.0721726 -0.3243818
20911250000 0.23199973 0.099207327 1.0220288e-005 5.5175569e-005 0.010861598 -0.0064173327 -0.38612655 -0.17206833
20932500000 0.21873669 0.28370535 0.00012518965 -0.0001083203 -0.012290471 -0.00047745791 -0.48357162 -0.74254036
20953750000 -0.017050672 0.33114299 0.0002106523 -0.00010246128 0.010972993 0.0065325615 -0.45776296 -0.61647725
20975000000 0.18148589 0.03785922 -0.00013775133 -9.6374588e-006 -0.0065438505 -0.012584758 -0.22708504 -0.54727566
20996250000 0.081112064 0.099506155 0.00010194782 -0.00017269325 -0.0037519594 0.015088417 -0.18747643 -0.55770421
21017500000 -0.09949857 -0.011071206 0.00011739974 8.0589714e-005 0.0089958897 -0.0086869793 -0.1717903 -0.73016918
21038750000 -0.0039396291 0.06186137 0.00018080002 -0.00010730009 -0.012641526 0.0089212731 -0.2406286 0.17820592
21060000000 -0.19546586 0.1645913 9.0677488e-005 -0.00015089246 0.016466467 0.0034585728 0.58093786 -0.3251819
21081250000 -0.21029229 -0.021065954 4.7819787e-005 0.0002822759 -0.0094874464 -0.0085113999 0.045864239 -0.63704389
21102500000 -0.082951508 -0.060008455 1.5484567e-005 -6.0726987e-005 0.0065746144 0.010156369 0.092431948 0.013339619
21123750000 -0.12354686 -0.12457421 9.2230504e-005 3.9140418e-006 0.0030863744 -0.014958329 0.44251436 -0.28180969
21145000000 -0.050552804 -0.3305783 -1.7066159e-005 -7.954156e-006 -0.011425205 0.0085511664 -0.088038221 -0.39255708
21166250000 0.046239447 -0.15663175 7.7886716e-006 -0.00041393255 0.012935408 -0.0028232851 0.12175872 0.36305177
21187500000 -0.049416605 -0.18226621 -0.00012042761 -4.4513985e-005 -0.012307798 -0.0038856156 0.092943251 0.088180058
21208750000 0.0070639951 -0.37293863 7.7813915e-005 -9.6256452e-005 0.0088765966 0.010867601 0.15744962 0.068016149
21230000000 0.01137981 -0.22199525 3.6996971e-005 0.0001056038 0.002200827 -0.013966087 -0.11535392 0.032303877
21251250000 -0.14350095 -0.43340644 -3.1440231e-005 -4.3365471e-006 -0.0080336425 0.0068329377 0.001360283 0.527619
21272500000 0.14994843 -0.38775298 0.00012781107 -3.7310128e-005 0.011189275 -0.0047743823 0.16913092 0.0050952295
21293750000 0.23330297 -0.18253189 0.00015250625 -9.8287586e-005 -0.015393747 -0.0038865556 -0.7114743 0.36034593
21315000000 0.23853628 -0.30547515 4.6586142e-006 8.496072e-006 0.0071546538 0.010143978 -0.053446215 0.53958535
21336250000 0.30053899 -0.28082818 -0.00018509806 -5.2752279e-005 -0.0032257247 -0.010786071 -0.22920164 -0.037297275
21357500000 0.18301363 -0.2249798 0.00016012575 -0.00011962722 -0.002671472 0.014442218 -0.64867163 0.29332808
21378750000 0.087903231 -0.31393132 -9.0050105e-007 -5.7692832e-005 0.010898917 -0.0095404023 -0.35358053 0.36488485
21400000000 0.29516637 -0.27448654 -8.7408291e-005 7.3352647e-005 -0.013983984 0.0027092516 -0.59281391 -0.076797709
21421250000 0.20637536 -0.13387278 7.3797004e-005 -9.7321172e-005 0.012945546 0.0050630034 -0.72644573 0.1345485
21442500000 0.30808365 -0.22859348 6.850827e-005 4.3986587e-005 -0.0096885003 -0.011473114 -0.59210598 0.19044636
21463750000 0.34900767 -0.033330601 5.324423e-006 -5.0353006e-005 0.00015914152 0.01711884 -0.28071952 0.080192037
21485000000 0.11052798 -0.061318018 -4.6836096e-005 -0.00011011512 0.0079686902 -0.013145234 -0.64014071 -0.3363505
21506250000 0.21334064 -0.12571391 0.00020459176 4.6937799e-005 -0.0092959376 0.010915301 -0.53405875 0.097269632
21527500000 0.10507227 0.046217442 6.6206951e-005 1.7834271e-005 0.017379412 -0.0026239846 0.06417416 -0.23618954
21548750000 0.04435819 -0.081571996 0.0001677659 0.00015263179 -0.013137254 -0.0063820095 -0.83420777 -0.51658839
21570000000 0.20006284 -0.057383653 -0.00019234934 -0.00028910403 0.0095937233 0.0096231783 -0.20935269 0.094968572
21591250000 0.036570806 -0.031730171 -0.00014470729 6.2612889e-005 -0.0038253975 -0.016074941 0.11391073 -0.36970043
