!Keysight Technologies,N5242B,MY47200105,A.14.00.23
!Date: Friday, May 10, 2024 11:16:32
!Correction: S11(C  2-Port  ) 
!S21(C  2-Port  ) 
!S12(C  2-Port  ) 
!S22(C  2-Port  ) 
!S2P File: Measurement: :
# Hz S  RI   R 50
18000000000 0.14332993 -0.028595753 4.3846972e-005 0.00011180813 -0.00066981348 0.0047283815 0.87489557 -0.4229283
18021250000 0.066815302 -0.20838334 6.2322244e-005 -0.00010202664 0.00066174573 0.0016793492 0.32051113 -0.19510584
18042500000 0.22735839 -0.096091844 -6.5346918e-005 -7.9832062e-005 0.0029780569 0.0024044998 0.49774104 -0.054683834
18063750000 0.15389723 0.019821577 6.9115034e-005 -9.179856e-005 0.0042458046 -0.000254738 0.40922034 -0.19145808
18085000000 0.2057102 -0.051030334 8.9324049e-006 -3.5902078e-005 0.0018550439 -0.0054306751 0.42521632 0.089297794
18106250000 0.33504549 -0.011597658 1.2285474e-005 5.1977611e-005 -0.00048166598 -0.0018187644 0.4795706 -0.091902561
18127500000 0.2042625 -0.040747035 -7.4367512e-005 1.7406301e-005 -0.0040508057 -0.003316259 0.56646693 -0.20861046
18148750000 0.19481954 -0.043633234 1.9356103e-005 -4.61216e-005 -0.00055368489 0.0027923707 0.30425915 -0.36618039
18170000000 0.30063972 0.082301721 8.6453983e-005 -9.5742194e-005 -0.00096401112 0.00070436625 0.099495679 -0.12751819
18191250000 0.15363944 0.19436342 1.8734792e-005 -2.0777219e-005 0.0021235484 0.00060313073 0.27269289 -0.0905976
18212500000 0.236975 0.068094537 -2.5555126e-005 0.00019832655 0.00079935481 -0.0011611339 0.09957815 -0.12610401
18233750000 0.16389419 0.14359418 3.9183433e-006 1.9224257e-005 0.00023740603 -0.0023509867 0.32490414 -0.15487361
18255000000 0.02698133 0.065813728 -0.00014932627 0.00010781876 -0.0025218446 -0.002710684 0.4289602 -0.54274505
18276250000 0.13904735 0.0077098124 0.00014791354 -5.555198e-005 -0.0037728692 0.00077992119 0.15161045 -0.4647961
18297500000 0.067082927 0.15365329 5.9594619e-005 5.21539e-005 -0.0015107014 0.001822699 0.078007549 -0.4643085
18318750000 0.018194253 0.1237257 2.7230655e-005 -6.8952446e-005 -0.0016162843 0.0035131271 0.11584423 -0.34560654
18340000000 0.066052943 0.081969306 -0.00010895057 7.5144526e-005 0.0026561299 0.0029564428 0.14157116 -0.24698377
18361250000 -0.1198943 0.10728219 -0.0001020579 1.5779242e-005 0.0017568161 3.752772e-005 0.36208895 -0.47539404
18382500000 -0.084743701 -0.023917783 5.0402641e-006 -9.7846045e-005 0.0024306756 -0.00079282152 0.39729053 -0.4143182
18403750000 0.007375502 -0.022713749 3.8880611e-005 0.00011535162 -0.0010501015 -0.0024824752 0.28192171 -0.6741221
18425000000 -0.033251658 0.012628882 -8.5145737e-005 -3.869896e-005 -0.00085478526 0.0012820236 0.07398136 -0.56283575
18446250000 -0.027486049 -0.12613142 7.5837786e-005 -3.2183339e-005 -0.0014868652 0.0001747957 0.49941549 -0.42387408
18467500000 0.021848375 -0.0020229623 -1.614945e-005 -1.54591e-005 0.0027309877 0.004306254 0.26441836 -0.54751545
18488750000 -0.18920387 -0.035181366 -0.00012706446 8.933575e-005 0.0021954568 -0.0017578962 0.35703513 -0.38827395
18510000000 -0.085043401 -0.15857156 -1.9186242e-005 7.2417993e-007 0.0031361999 0.00096045563 0.50647306 -0.54195124
18531250000 -0.02606263 -0.025884263 0.00013858301 8.930223e-005 0.0021378386 -0.0046788617 0.37660941 -0.54356718
18552500000 -0.062183253 -0.19017455 4.8724993e-005 7.6463475e-005 -0.0023555062 -0.0031222159 0.2845284 -0.52798641
18573750000 0.080421984 -0.19197142 -1.7720886e-005 1.354161e-005 -0.0012104216 0.00059666694 0.15951955 -0.19875291
18595000000 0.089897804 -0.069818951 -5.5699067e-005 -0.00011190928 -0.0021294174 -0.0029218888 0.42972678 -0.11635165
18616250000 0.050937977 -0.13792086 -9.0078145e-005 7.0516639e-005 -0.0015992777 0.0037300503 0.37717831 -0.4633778
18637500000 0.1728811 -0.10473082 -1.0362514e-005 -7.8893223e-005 0.0012624079 -0.00094369228 0.26442686 -0.16465767
18658750000 0.081935555 -0.066503376 3.2181691e-005 4.5528377e-006 3.9310103e-006 0.00075101556 0.48652437 -0.49400708
18680000000 0.085717075 -0.20358421 -9.8268101e-005 -5.6601757e-006 0.0013430262 -0.0019794006 -0.032201592 -0.44735819
18701250000 0.23711441 -0.092449494 -6.5648848e-005 3.536139e-005 -0.0031741846 -0.0026212474 0.22440051 -0.11313885
18722500000 0.14710402 -0.05197116 4.3702199e-005 7.6723656e-005 -0.0023540976 0.0022208025 0.16733858 -0.29794863
18743750000 0.22672531 -0.14817594 -0.00011347348 -3.4184475e-005 -0.0015950389 5.7189831e-005 0.15187366 -0.25373229
18765000000 0.21730754 0.079560407 -1.3450192e-005 5.1380957e-005 -0.001792849 0.0039082738 0.1867975 -0.35687137
18786250000 0.081329636 -0.011722075 -5.5769618e-005 4.1479332e-005 0.0027082295 0.0038508421 0.054783966 -0.34788829
18807500000 0.22567399 -0.092801921 8.29856e-005 0.00010208617 0.0034526114 -0.0011754802 0.032038372 -0.43382251
18828750000 0.14053385 -0.039894596 5.365154e-005 -3.4475313e-005 -0.00056883291 2.6719394e-005 -0.022165202 -0.46278945
18850000000 0.15234482 -0.051969465 1.8968691e-005 -2.8712177e-005 0.0036773346 -0.0013498776 0.1029697 -0.12597591
18871250000 0.23924786 0.087190427 6.6886314e-005 3.3295513e-005 -0.0039804233 -0.00070268562 0.12574202 -0.59109586
18892500000 0.13799417 0.22843766 -0.00013026307 -9.0007823e-005 0.0022054552 0.0016255857 0.050130934 -0.4335202
18913750000 0.10141371 0.025873056 5.9673661e-005 1.2917241e-006 -0.0011550914 -0.00032107276 0.20411713 -0.61177933
18935000000 0.080699995 0.0041875453 0.00010458526 1.6375454e-005 0.0030886659 0.0022673083 -0.068748645 -0.68029785
18956250000 -0.033321008 -0.0055112052 -1.2828876e-005 6.5852706e-005 0.0017768088 -0.0025110212 -0.012385582 -0.50365227
18977500000 0.031168176 -0.065442413 -1.9665664e-005 3.8009901e-005 0.0015816909 -0.0016566975 0.129691 -0.41921425
18998750000 0.075959623 0.16543332 -7.3956769e-005 7.963516e-005 -0.0009247241 -0.0033486453 0.24815704 -0.52862543
19020000000 -0.047643051 0.13151428 -8.2759048e-005 -1.656225e-005 -0.0022627041 -0.001697143 0.13425116 -0.59404099
19041250000 -0.1024133 0.0083833188 -2.5219872e-005 -3.2560351e-005 -0.0014227057 -0.00028906277 -0.0020510182 -0.48940742
19062500000 -0.096685879 0.072333328 -1.4587181e-005 -6.1085542e-005 -0.0034722805 0.001731643 0.28138736 -0.61517781
19083750000 -0.073929898 -0.17588082 4.8283608e-005 3.0253779e-005 0.0024018586 0.0014706776 -0.041065574 -0.60597438
19105000000 0.089150332 -0.060397945 -1.5195626e-005 -5.9465623e-005 -0.0012417309 -0.00069666561 0.021382082 -0.22507674
19126250000 0.056266245 0.05041739 -0.00011016744 2.7370414e-005 0.0011161123 -0.0003347024 0.45122293 -0.5463652
19147500000 -0.062421646 -0.041299079 5.291125e-006 0.00011840052 -0.00049335219 -0.0013951993 0.10584293 -0.58207476
19168750000 -0.11489338 -0.098630078 9.3848488e-005 8.75975e-006 -0.0031278506 -0.00022746838 0.15839091 -0.46716028
19190000000 -0.16246571 -0.18874152 -0.00011201677 -1.041186e-005 -0.0011028938 0.0022369917 0.13576463 -0.48446465
19211250000 -0.10246564 -0.29399422 -2.8381008e-005 7.401764e-005 -0.0010891674 0.0019944403 0.19236055 -0.44997969
19232500000 0.1303644 -0.16126153 1.998365e-005 -0.00011266497 0.0016961488 0.0027735631 -0.09748181 -0.33852458
19253750000 -0.011367653 -0.1056073 8.5906628e-005 -0.0001117794 0.0022830102 0.0010845127 0.30220345 -0.27697173
19275000000 0.043604545 -0.18969344 -4.3733606e-005 -6.7561035e-005 0.0026077842 -0.0012604197 0.18141541 -0.5237602
19296250000 -0.0021477521 -0.13121381 -2.1446294e-005 0.0001425168 0.00026473205 -0.00060104032 0.025812577 -0.3978425
19317500000 -0.12704895 -0.23174043 2.0675386e-006 9.6939133e-005 -3.5822221e-005 -0.0020841125 0.20155329 -0.36491638
19338750000 0.18809971 -0.30119482 4.3260112e-005 -2.5893922e-005 -0.0011518379 0.0010641991 -0.12954511 -0.53454453
19360000000 0.17295136 -0.20908646 1.9425806e-005 -9.7824868e-006 0.00039045594 3.4355387e-005 -0.10788628 -0.20132162
19381250000 0.15709347 -0.22981857 0.00014119718 -7.6170327e-005 0.00043805662 0.00076645135 0.158098 -0.31060097
19402500000 0.20298657 -0.13831726 -5.0077204e-005 -2.1214481e-005 0.0022061258 0.00094775209 -0.052960984 -0.37248668
19423750000 0.031476207 -0.16237599 7.6548189e-005 -9.9823679e-005 0.0020241183 -0.0040117507 0.05819615 -0.47163954
19445000000 0.092939109 -0.17093886 -1.6087775e-005 -7.3782758e-005 -0.0011064875 -0.0012566481 -0.21394335 -0.37067616
19466250000 0.25889504 -0.11412245 -4.1012336e-005 -8.5655127e-005 -0.0011607795 -0.0019049294 -0.077242419 -0.36739174
19487500000 0.19181077 -0.062569544 0.0001312938 -0.00014420942 -0.0023702565 -0.0020018043 -0.27255177 -0.47253934
19508750000 0.22705701 -0.15952814 -3.4969427e-005 9.4956355e-005 -0.0030371782 0.0028956139 -0.1965113 -0.086567886
19530000000 0.15972632 0.031404421 4.0935793e-005 -1.992513e-005 0.00023385441 0.00050746219 0.11727573 -0.41744578
19551250000 0.06154288 -0.027981363 -0.00013314208 -9.0489193e-006 0.00098320434 0.0012235133 -0.43677098 -0.72172397
19572500000 0.22024842 -0.040837411 2.4381119e-005 -0.00012106221 -0.00047735186 0.00017338207 -0.18298379 -0.23163953
19593750000 0.1604107 0.096116737 0.00019264521 0.00011448562 0.0017432799 -0.0021398116 -0.17572914 -0.62701333
19615000000 0.084685586 -0.01967009 3.8731065e-005 0.00010515421 -0.00366824 0.00041219615 -0.34408703 -0.41013703
19636250000 0.11289231 0.054079667 7.3424555e-005 1.0091127e-006 0.00015483637 0.00070676155 -0.1268542 -0.36456209
19657500000 -0.09078896 0.10335752 0.00022045718 7.9277008e-005 -0.0024118025 0.00058639649 -0.17899197 -0.41415676
19678750000 0.0013263213 0.0063095144 -3.2785661e-005 3.6923106e-005 7.0408736e-005 0.0060001696 -0.076692067 -0.7399956
19700000000 -0.005817614 0.092507325 7.9050653e-005 -8.6784392e-005 0.004665961 -0.0013136012 -0.37633967 -0.50503784
19721250000 -0.024466125 0.064452447 -3.1106381e-006 -0.00010332474 0.00017578225 0.00090829702 -0.082593903 -0.33638704
19742500000 -0.1355883 -0.036639117 -5.5730448e-005 8.8847461e-005 0.0022362785 -0.0018286732 -0.14630525 -0.69327152
19763750000 -0.16677161 0.02662285 -3.0396099e-005 -0.00014918855 -0.00018232802 -0.0015429021 -0.28786004 -0.3420122
19785000000 -0.21551296 0.060693946 6.2592706e-005 -1.2065309e-005 -0.00066061009 -0.00033082068 0.2172171 -0.29286662
19806250000 -0.079173103 -0.07535845 -5.5979985e-005 0.00022539643 -0.0016826182 -0.00018557919 0.012893154 -0.81589311
19827500000 -0.1014043 0.027515057 0.00011135779 8.5086605e-005 0.0020724323 0.0027822398 -0.055027533 -0.35873351
19848750000 -0.21481626 -0.1154293 -7.5529671e-005 6.1322906e-005 0.00055189908 -0.0022089153 0.059753709 -0.4140501
19870000000 -0.12672935 -0.12580994 4.4211378e-005 -6.1378429e-005 0.0022227406 0.00038627331 -0.02483671 -0.41055501
19891250000 -0.2472305 -0.1729776 -5.8183185e-005 -0.00018144834 0.0002668002 -0.0031709762 0.1351054 -0.28729969
19912500000 -0.10204895 -0.32250348 0.00021928152 -2.3579507e-005 -0.0016679002 -0.0024496734 0.11486602 -0.017095307
19933750000 -0.010820219 -0.14954098 -1.5386211e-005 -0.00022071089 -0.0018914818 -0.00017608608 0.26417178 -0.47748202
19955000000 -0.11242997 -0.21096388 0.00011789373 1.4789084e-005 -0.003905829 -0.00089089794 -0.29763523 -0.36123797
19976250000 -0.15582401 -0.2442023 -0.00024992012 -1.9055864e-005 0.0013457783 0.0048118094 0.056922842 0.028722059
19997500000 -0.17893086 -0.22744969 6.9360845e-005 0.00012438554 -6.2763575e-005 -0.0014988231 0.033280618 -0.15602262
20018750000 -0.064413726 -0.28342155 -3.2245593e-005 -1.6434866e-005 0.0003192258 0.001787354 -0.15027681 -0.0038504736
20040000000 0.16364051 -0.31298634 -0.00011787353 4.7125232e-006 0.0017756714 -0.00061297277 0.043974489 0.23055233
20061250000 0.30048624 -0.08028806 8.7592116e-007 -7.4488868e-005 -0.0021816832 -0.0037238626 0.013715108 -0.26401249
20082500000 0.11074147 -0.049726289 1.1995497e-005 -0.00013831157 -0.0026166127 0.003944817 -0.34863994 -0.20551932
20103750000 0.14563555 0.012230218 -1.574343e-005 -0.00019625951 -5.8852544e-005 0.00020393693 -0.33812097 -0.09038417
20125000000 -0.12018093 0.053294644 9.2154994e-005 4.3436166e-006 -0.00019232734 0.002601967 -0.35295698 0.10581737
20146250000 0.059637196 -0.1793004 -2.4507078e-006 -8.8844616e-005 0.0021114254 0.0025051143 -0.28971013 -0.2803601
20167500000 0.28235894 -0.075519562 0.00017687531 -2.536146e-005 0.0027267386 -0.0012662249 -0.79493266 -0.15839277
20188750000 0.21430948 0.015702324 -7.9638092e-005 3.112754e-005 0.0012843125 0.00089470507 -0.04032822 -0.12037355
20210000000 0.22436839 0.11090677 -0.0001862941 1.9883499e-005 0.0018410672 -0.0039910288 -0.57361525 -0.84048033
20231250000 0.031462792 0.37027499 -7.3430642e-006 0.00011095995 -0.0030360001 0.00016026833 -0.7532382 -0.15284179
20252500000 -0.11596883 0.18813306 -7.2150375e-005 5.7973106e-005 0.0011055745 0.00094308692 -0.446522 -0.43391854
20273750000 0.039562553 0.12046156 -9.104269e-005 -0.00020946994 -0.0011767375 -0.00098396372 -0.4008311 -0.37892154
20295000000 0.084316261 0.21354133 9.732895e-005 0.0001626896 0.0011170154 0.0032765642 -0.44171965 -0.4719018
20316250000 0.032046609 0.18461144 -0.00012676544 5.7674952e-005 0.0031865595 -0.0023178556 -0.17708109 -0.5598762
20337500000 -0.10812283 0.25796884 -2.2611302e-005 8.4697087e-005 -0.00079097797 -0.0028267701 -0.06662602 -0.79837745
20358750000 -0.3103644 0.35901067 -7.7947843e-005 2.5644062e-005 -6.3668995e-005 -0.0010432486 -0.56893373 -0.69008607
20380000000 -0.3348963 0.088364944 7.053736e-005 -1.6912076e-005 -0.0022877187 -0.00262148 -0.30484268 -0.36064252
20401250000 -0.16230614 0.085113995 -3.4920169e-005 -4.8416201e-005 -0.0025646121 0.0013337519 0.2943444 -0.67259687
20422500000 -0.24754657 0.055287085 -0.00010420488 -0.00011088102 -0.0012018248 0.0011788801 -0.19280809 -0.62870461
20443750000 -0.13630025 0.037427865 0.00010295059 -5.5990171e-008 0.000246843 0.0014946505 0.15801136 -0.19843507
20465000000 -0.26115057 0.21843097 -0.00017614133 -1.7514541e-005 0.0013196935 0.001079827 0.38997662 -0.82068241
20486250000 -0.38867244 0.063867211 4.0282295e-005 8.0587808e-005 1.5604806e-005 -0.0017705543 -0.30708665 -0.32269654
20507500000 -0.19225495 -0.034196127 4.7241487e-005 6.2103383e-005 -0.00090310816 -0.00012445377 0.23176706 -0.10046068
20528750000 -0.15234067 -0.10782986 3.9218079e-007 -3.6816764e-005 -0.00027494723 0.00026208669 0.21956179 -0.15503861
20550000000 -0.099688552 -0.28811797 -2.6211786e-005 0.00012790797 -0.0023868412 -0.00067082339 0.20143197 -0.04513498
20571250000 -0.081049129 -0.14968003 0.00011131795 -0.00012480633 0.00019519801 0.0049769203 -0.0096660815 0.050172929
20592500000 -0.1129862 -0.098158143 3.2108841e-005 -2.1892063e-005 0.0018597002 -0.00090435887 0.36268261 0.22621395
20613750000 -0.086555496 -0.18813811 -0.00012328431 -4.6926765e-005 0.00048635743 0.0030691992 -0.23872644 -0.16449286
20635000000 0.25099617 -0.26188248 -0.00011493787 -0.00016523652 0.0046055913 -0.0030442507 -0.41420826 0.58203125
20656250000 0.10088761 -0.25470918 -9.8838027e-005 3.6062604e-005 -0.0019172274 -0.00080901064 0.21958269 0.4812122
20677500000 0.20685582 -0.35328552 -3.4542813e-005 7.8314348e-005 0.00173402 -0.0016980696 -0.30130401 0.034804948
20698750000 0.26101205 -0.087834165 -5.7047422e-005 -8.672203e-005 -0.0038287425 7.9477169e-005 -0.5555712 0.49624282
20720000000 0.11775524 -0.1405912 -8.6780419e-005 -4.6211011e-005 0.0020137215 0.0022246947 -0.29524761 0.30523524
20741250000 0.35799202 -0.1099278 -8.8431232e-005 0.00011852419 0.00013691011 -0.0019602594 -0.79843521 0.24651937
20762500000 0.35806152 -0.032307651 -0.00018055402 5.8743808e-006 0.0014618578 0.0022224383 -0.69617325 0.2923623
20783750000 0.25129449 -0.07453353 -2.7403827e-005 -7.5368946e-005 0.0010847045 -0.0037284766 -0.49433848 0.33918735
20805000000 0.41436484 0.061581824 0.00010636087 0.00016385346 -0.00089162902 -0.0005960539 -0.4367983 -0.062742136
20826250000 0.26242808 0.23246692 -2.9607345e-005 5.4643297e-005 -0.0007226374 -0.0023377542 -0.91041386 -0.22757037
20847500000 0.2084941 0.095420234 8.0702877e-005 -0.00021731325 -0.003453698 -0.00020692388 -0.59345275 -0.03282322
20868750000 0.27851698 0.16388479 0.00022401365 -8.2032006e-005 -0.00081155705 0.0018224291 -0.44913146 -0.75044423
20890000000 0.16718605 0.19268763 0.00020998337 -3.2060198e-005 -0.00092210271 0.0012703278 -1.050657 -0.35186374
20911250000 0.22406128 0.10502873 0.00012295053 6.4936408e-005 0.0020959217 0.0014561344 -0.38834521 -0.20064636
20932500000 0.19911027 0.29874974 5.1814572e-005 -7.8348057e-005 -0.00086240284 -0.0011637014 -0.46516329 -0.74855983
20953750000 -0.049383979 0.3479116 5.4705994e-005 -5.983944e-005 0.0017221483 0.00026777957 -0.43000865 -0.62033969
20975000000 0.15723081 0.044920817 -0.00032175088 -5.3425905e-005 -0.0028052267 -0.0022177487 -0.19739345 -0.55614907
20996250000 0.05340996 0.11153066 6.9061658e-005 -0.00011431192 -0.00055329147 0.0028358626 -0.16507624 -0.56957537
21017500000 -0.1176805 -0.01835851 -8.746711e-005 2.7870276e-005 -0.00097282458 -0.00072280248 -0.14324564 -0.71333158
21038750000 -0.018090546 0.050776433 0.00011255632 7.5087853e-005 -0.00064945169 0.0054573365 -0.20930791 0.16191459
21060000000 -0.21610126 0.1583813 9.2301008e-005 -7.8605799e-006 0.0049870177 -0.0016369685 0.58553094 -0.30966684
21081250000 -0.22682701 -0.033529021 2.4429262e-005 6.8026129e-005 -0.0015014686 0.0023214621 0.073216416 -0.60247505
21102500000 -0.085210793 -0.064800724 -4.05623e-005 2.621186e-006 0.0053349505 -0.0034541683 0.11247393 0.027233919
21123750000 -0.12041353 -0.14286606 0.00011223785 -0.00010901554 -0.0046172361 -0.0022267292 0.45019874 -0.24739932
21145000000 -0.040618386 -0.35900512 -4.6219779e-005 9.9518911e-005 0.0020508924 0.0015451604 -0.069985487 -0.34458244
21166250000 0.06387978 -0.16883735 -5.5571378e-005 0.00015452028 -0.0020275179 -0.002654071 0.13652149 0.3809858
21187500000 -0.029439287 -0.19885848 8.2311584e-005 5.9926493e-005 0.00011973332 0.0044543566 0.095536709 0.11394259
21208750000 0.036821753 -0.3835699 0.00023760553 3.2915741e-005 0.0016929925 -0.0024422586 0.15168767 0.097953841
21230000000 0.047897667 -0.22931218 -4.6356468e-005 0.00011249066 0.0018946254 0.0014607857 -0.11899563 0.060929216
21251250000 -0.11837395 -0.45772985 2.25764e-005 1.60891e-005 0.00022105293 -0.0049541355 -0.01871489 0.52946639
21272500000 0.17916413 -0.39517042 0.00022586661 0.00018195756 -0.0023825488 0.00090224535 0.13342895 0.030390931
21293750000 0.25200513 -0.17966767 -1.2698149e-005 -7.6337572e-005 -0.00015280514 -0.0025986577 -0.72209382 0.36556667
21315000000 0.25727928 -0.29794767 -7.9392858e-006 -9.6620561e-006 -0.004327958 0.0018444243 -0.085011601 0.54070044
21336250000 0.32173488 -0.25985578 -0.00010521505 -3.6679419e-005 0.0020044276 0.0022204407 -0.25576666 -0.021972826
21357500000 0.18716057 -0.20922656 -9.6404576e-005 0.00017667239 -0.00096981303 0.00022236968 -0.66069925 0.2884807
21378750000 0.092380844 -0.29405063 -0.00021392172 -4.2178663e-006 0.0018138092 0.00032752534 -0.37298152 0.34939256
21400000000 0.29713115 -0.24336481 2.6498306e-005 -6.9698608e-006 -0.00012936113 -0.00086249912 -0.60899818 -0.086831063
21421250000 0.19884333 -0.10655019 -4.8346421e-005 -8.3474129e-005 -0.00035276572 6.289361e-005 -0.73302096 0.11211574
21442500000 0.31094503 -0.20781165 -0.00014022311 6.9618494e-005 -0.0015920122 -0.0014285034 -0.5999403 0.16065493
21463750000 0.33334249 -0.011282745 -0.00013984153 -5.9138605e-005 -0.00074727257 0.0039898599 -0.29728121 0.057818789
21485000000 0.078354761 -0.052365258 -7.3177187e-005 7.9613004e-005 0.00010001665 -0.0010069612 -0.62995136 -0.35436729
21506250000 0.19179374 -0.10805278 6.1304254e-006 -0.00032834691 0.0029105393 0.0044196141 -0.53060651 0.07081034
21527500000 0.070298985 0.064190373 -1.3743403e-005 -0.0001209308 0.0017405094 -0.0042880904 0.056571696 -0.25197199
21548750000 0.022206865 -0.082694247 -4.5208377e-005 -0.00017392536 -0.00070638489 0.0023324518 -0.80161262 -0.51799512
21570000000 0.18170412 -0.062906928 -7.8684434e-006 0.00011856561 0.0038941347 -0.0036208939 -0.19553962 0.077916585
