!Keysight Technologies,N5242B,MY47200105,A.14.00.23
!Date: Friday, May 10, 2024 11:02:05
!Correction: S11(C  2-Port  ) 
!S21(C  2-Port  ) 
!S12(C  2-Port  ) 
!S22(C  2-Port  ) 
!S2P File: Measurement: :
# Hz S  RI   R 50
18000000000 0.13315877 -0.019373644 5.2090167e-005 0.0001036452 0.0050184256 0.0026274286 0.8907665 -0.42696139
18021250000 0.059059374 -0.22212659 6.8528134e-005 -7.7102188e-005 -0.0048862514 0.00060313602 0.31416032 -0.1890091
18042500000 0.22141182 -0.08842247 -1.546483e-005 2.858576e-005 0.0075447522 0.0065633683 0.50376529 -0.041969638
18063750000 0.13893023 0.016196765 5.6159937e-005 -0.00011261373 0.0028024607 -0.0058427495 0.41753092 -0.18752937
18085000000 0.20577362 -0.052924436 -2.1410193e-005 2.0761363e-005 -0.00010400663 0.00066243275 0.43365905 0.096528046
18106250000 0.33681938 -9.0963396e-005 4.109343e-005 4.7407601e-005 0.0041408101 -0.006167551 0.48294756 -0.089026108
18127500000 0.20205371 -0.051939536 2.7736203e-006 -2.1095864e-005 -0.010085291 -0.0019080751 0.57832384 -0.20282044
18148750000 0.19443762 -0.048502184 2.4230134e-005 0.00011484416 0.0051716794 0.0044992091 0.30584374 -0.36699888
18170000000 0.30302349 0.085464403 -0.00012337943 -0.00015269031 -0.0045122793 -0.0034790279 0.097010523 -0.10992635
18191250000 0.15244509 0.19275793 8.0573634e-005 -1.0482509e-005 0.0025890209 0.0053744623 0.2858265 -0.074840687
18212500000 0.25134102 0.07084059 7.4954928e-006 -4.5881032e-005 0.0031074206 -0.0049183606 0.1040852 -0.11555063
18233750000 0.16216257 0.14603056 2.7484746e-005 -0.00013536865 -0.0039994153 -0.00056840951 0.32980898 -0.14874992
18255000000 0.026814427 0.057517301 1.1307288e-005 -4.5643141e-005 0.0019095008 -0.0014749406 0.43780065 -0.53542495
18276250000 0.14692181 0.0088481652 -9.2224524e-005 0.00013001393 -0.0066265934 -0.002892968 0.15602066 -0.45907965
18297500000 0.06511531 0.15612543 9.0962283e-007 0.00015657283 -0.0015780064 0.0066373893 0.077772066 -0.45819804
18318750000 0.034312047 0.12804095 8.1650513e-005 -0.00010530567 0.001292338 -0.0011460603 0.11714111 -0.33502859
18340000000 0.078515321 0.090202719 3.7738224e-005 2.2898659e-005 -0.002414078 0.0052758707 0.1427808 -0.23678334
18361250000 -0.12211629 0.10697944 -1.1729993e-005 7.427283e-005 0.0078510614 0.00059594092 0.35927638 -0.47872779
18382500000 -0.077229351 -0.020137245 -5.6541758e-006 -0.00013781674 -0.0026531126 -0.0046253707 0.39296091 -0.40221295
18403750000 0.003157628 -0.015438094 0.00011878123 4.9156959e-005 0.0013213032 0.003467229 0.27839714 -0.67340618
18425000000 -0.034828231 0.024361478 -7.6254641e-005 -6.6380002e-005 8.1361781e-005 -0.004467261 0.064449765 -0.5633772
18446250000 -0.024894048 -0.11732645 -8.8834866e-005 -0.00016422117 -0.0054499563 0.0045798128 0.50701612 -0.41921088
18467500000 0.011807205 0.011879901 0.00011199686 5.9428762e-006 0.0078693414 0.0029904726 0.26615116 -0.54970646
18488750000 -0.1975974 -0.029549807 9.0692811e-005 -1.5736761e-005 -0.0025980368 -0.0039802263 0.36205804 -0.39431933
18510000000 -0.093054801 -0.14626388 5.231057e-005 0.00013850347 0.0061182622 0.0056158346 0.50553572 -0.5523715
18531250000 -0.036986567 -0.013044574 -2.8465456e-007 -6.1610081e-005 0.002460151 -0.010194149 0.37925085 -0.54852283
18552500000 -0.053657711 -0.19062285 1.1315343e-005 -4.5756649e-005 -0.0052756192 0.001377008 0.28753194 -0.53674024
18573750000 0.078084596 -0.18439901 -2.6915792e-005 1.5520347e-006 0.0035863714 -0.0013783285 0.15829533 -0.19537981
18595000000 0.083709113 -0.076274879 -7.8819372e-005 -9.9786048e-006 -0.0071635423 -0.0043098512 0.44334114 -0.11092158
18616250000 0.043405358 -0.14316532 -3.108712e-006 2.4913283e-005 0.0017141911 0.0075373258 0.38605893 -0.47232446
18637500000 0.16445032 -0.10314331 -7.6953853e-005 -5.1431045e-005 0.00084366475 -0.0059058475 0.27108151 -0.15655673
18658750000 0.0772328 -0.068276793 3.332106e-006 -4.7126032e-005 -0.0024154983 0.005249924 0.50615722 -0.49653941
18680000000 0.088025473 -0.19999842 5.69029e-005 -1.6040636e-005 0.0057750782 -0.0039908569 -0.028291747 -0.44382513
18701250000 0.2405642 -0.094110399 0.00016134373 7.2894159e-006 -0.008313071 -0.0041789357 0.24169669 -0.10232853
18722500000 0.14486362 -0.060926553 2.8472556e-005 -7.05329e-007 0.0016040985 0.0065147639 0.18281226 -0.29199803
18743750000 0.23107818 -0.15508337 -0.00011525844 6.6732755e-005 -0.0026288494 -0.005580218 0.16411363 -0.25087196
18765000000 0.21792145 0.075744018 -4.1245014e-005 -2.5571817e-005 -0.0041513597 0.009316043 0.1933167 -0.35397217
18786250000 0.092668392 -0.019621605 -1.4717601e-006 -5.7141726e-005 0.0074149934 0.00079896807 0.055870451 -0.33687919
18807500000 0.23960048 -0.096191011 -8.70882e-005 -5.9863865e-005 -0.0026059302 -0.0007840374 0.034184821 -0.42584127
18828750000 0.13605915 -0.051485356 5.6352575e-005 -3.2982391e-006 0.0044356715 0.0026919623 -0.023422753 -0.45548743
18850000000 0.15617085 -0.049270641 0.00012717683 -4.2465297e-005 0.00084336579 -0.0065611112 0.1070959 -0.10411338
18871250000 0.2417043 0.0970826 -6.5310101e-005 -9.1036462e-005 -0.0039785625 0.0043777274 0.12677863 -0.59059179
18892500000 0.14313859 0.23708084 3.507407e-005 -0.00011825143 0.0053308522 -0.0021565866 0.045273833 -0.42689598
18913750000 0.11626098 0.032617688 9.2833121e-005 -1.9475454e-005 -0.005729089 0.0013005296 0.20223859 -0.61088955
18935000000 0.082563266 0.0034813203 -0.00013952192 -3.3001706e-005 0.0073495032 0.0035578257 -0.078251481 -0.6793716
18956250000 -0.041219298 -0.0068397205 -1.6952705e-005 8.0675069e-005 -0.00058582722 -0.0063118651 -0.01670623 -0.50199151
18977500000 0.017687377 -0.060076095 -7.6735188e-005 4.4189557e-005 0.0013935749 0.0028942383 0.12681697 -0.41259587
18998750000 0.062738575 0.17789437 -5.8966711e-005 6.6903667e-005 0.0025801561 -0.0068494068 0.25347471 -0.53055835
19020000000 -0.04289519 0.14172722 -2.0344101e-005 1.158065e-005 -0.0069409874 -0.00046322768 0.13082291 -0.59949708
19041250000 -0.11002769 0.0048236838 -9.0677895e-005 -2.9626601e-005 0.0030266144 0.0017667244 -0.0095555345 -0.49023825
19062500000 -0.11630316 0.075507186 1.3146894e-005 4.3480388e-005 -0.0065219076 -0.0029250779 0.29038605 -0.61964309
19083750000 -0.087738983 -0.17637391 8.977465e-005 2.3872819e-005 0.0022398098 0.0071396972 -0.040496178 -0.61596298
19105000000 0.07638438 -0.047366064 -9.1274393e-005 -9.4474985e-005 0.0024725955 -0.0054500611 0.025332602 -0.221348
19126250000 0.055755518 0.048714343 5.6741646e-005 -7.3609081e-005 -0.0046098772 0.002647728 0.46815643 -0.56642282
19147500000 -0.070458151 -0.050846249 -5.4166889e-005 -3.5397786e-006 0.0052718548 -0.00058219279 0.10727124 -0.59510273
19168750000 -0.1347964 -0.11124355 0.00012815518 2.8343124e-005 -0.0076064616 -0.0042016399 0.16186835 -0.47365993
19190000000 -0.17549625 -0.19884153 4.0918243e-005 -8.6685141e-006 0.00054054795 0.0082896948 0.14441721 -0.48477408
19211250000 -0.1199913 -0.29625049 -0.00014152523 6.4823835e-005 0.00064991968 -0.0037055507 0.20674326 -0.45559558
19232500000 0.13540429 -0.16343929 -6.0466929e-005 3.8832866e-005 -0.0029374717 0.0069782264 -0.10048179 -0.33629659
19253750000 -0.0068263821 -0.11748989 -1.3225265e-005 -1.7019811e-005 0.0079083592 1.6235235e-005 0.32250872 -0.27212226
19275000000 0.044489123 -0.20373577 -7.247684e-005 -8.0049584e-005 -0.0020439457 -0.0032756678 0.19125591 -0.52999097
19296250000 -0.001429363 -0.14371926 1.677313e-005 0.00013686912 0.002456455 0.0039738691 0.028825829 -0.39544275
19317500000 -0.13284059 -0.23850361 -5.1758194e-005 2.1125119e-005 0.00084116706 -0.0072140694 0.21276724 -0.35649833
19338750000 0.19933023 -0.29731509 -1.8248043e-005 0.00011998006 -0.0044878297 0.0041708243 -0.12576592 -0.53348356
19360000000 0.19032496 -0.21018475 -2.9905308e-005 -0.00013048731 0.0050767185 -0.0001118094 -0.10761441 -0.19366448
19381250000 0.17484397 -0.23523702 -8.9292975e-005 -2.2315036e-005 -0.0036266209 -0.0021399565 0.16657801 -0.30469501
19402500000 0.20745997 -0.14082123 0.00012564377 -8.3879049e-006 0.0037511913 0.0063559772 -0.052986916 -0.36927441
19423750000 0.037842311 -0.16127075 4.5055909e-005 -6.5359527e-005 0.0036824252 -0.0099332463 0.059185926 -0.47546464
19445000000 0.10390577 -0.16365007 0.00023273056 8.8014798e-007 -0.0063362559 0.0026133996 -0.22399119 -0.3630302
19466250000 0.27221242 -0.11791936 4.4077078e-005 2.3397497e-006 0.0057336353 -0.0024104475 -0.071461082 -0.36347434
19487500000 0.2005382 -0.061325364 -6.8431182e-005 -0.00010431393 -0.008686983 -0.0055527571 -0.27673352 -0.47830302
19508750000 0.22586146 -0.16330014 3.2248288e-005 0.00011881394 0.0010915591 0.0097085666 -0.19977677 -0.078014411
19530000000 0.14942093 0.036906399 -6.9274407e-005 -4.4951237e-005 -0.00032225976 -0.0073309182 0.12630743 -0.42351705
19551250000 0.057092037 -0.014871363 -6.3336651e-005 -3.3384447e-005 -0.0030367067 0.0079638883 -0.45013353 -0.73585957
19572500000 0.22489281 -0.0283914 -0.00013899118 1.3819641e-005 0.0066628931 -0.0032705418 -0.18356818 -0.22732869
19593750000 0.1644308 0.10689019 0.00016458728 3.8101742e-005 -0.0065732356 -0.0028298644 -0.17747855 -0.63222188
19615000000 0.087837353 -0.019166881 -4.1739753e-005 0.00013939726 0.002667679 0.0054753553 -0.34276971 -0.41216522
19636250000 0.10738663 0.048827942 -8.6117092e-005 -0.00012659181 -0.0029158387 -0.0063323979 -0.12751092 -0.36508229
19657500000 -0.10788897 0.096906863 -1.0688359e-005 -0.00016316905 -0.0035784901 0.0075166221 -0.17579255 -0.40838224
19678750000 -0.0045484542 0.010305992 5.846575e-005 -0.00013414041 0.0046214974 0.0014712317 -0.067858964 -0.74752176
19700000000 -0.008726838 0.090808474 0.000121136 -1.8201663e-005 -0.0018631674 -0.00020066444 -0.38266808 -0.50280851
19721250000 -0.014188133 0.06359265 -7.3173505e-005 0.00020866754 0.0062413127 0.0037706187 -0.071654715 -0.32549119
19742500000 -0.14046547 -0.040468823 -2.6585962e-005 -0.00011417053 -0.00071537192 -0.0067039584 -0.14253387 -0.69971001
19763750000 -0.16731916 0.018352909 0.00016651423 1.1815161e-005 -0.00096241344 0.0041001686 -0.29066563 -0.33606929
19785000000 -0.21717778 0.061117057 5.2593819e-005 2.184852e-005 0.0034317283 -0.0046605044 0.22695315 -0.28420618
19806250000 -0.072471417 -0.083928451 0.00012846809 -3.932073e-005 -0.0073997285 0.00031750766 0.016702594 -0.82500893
19827500000 -0.089449599 0.021880476 -5.5983604e-005 0.00017802356 0.007560919 0.0056498111 -0.057494998 -0.35443404
19848750000 -0.21454252 -0.12072519 -7.5604665e-005 4.2937616e-005 -0.0020856727 -0.0080576921 0.063407488 -0.4102236
19870000000 -0.12973435 -0.12745318 2.9699549e-005 0.00012365474 0.00077835255 0.0073793065 -0.023104873 -0.41193381
19891250000 -0.25652388 -0.16947082 0.00011539783 2.6211717e-005 0.0053512887 -0.0092834337 0.13570558 -0.29565409
19912500000 -0.094760455 -0.31470427 -1.207195e-005 2.7881788e-005 -0.0099251373 0.0005111706 0.10807139 -0.0096379612
19933750000 -0.0014694959 -0.13975163 5.7756242e-006 -0.0001258362 0.0063014403 0.00139584 0.26493967 -0.48853675
19955000000 -0.0953383 -0.20800728 -5.3717074e-005 9.3014947e-005 -0.010090835 -0.0068826913 -0.31312552 -0.37425271
19976250000 -0.15624505 -0.23981513 0.00013866936 -7.5575088e-005 0.003473456 0.012400365 0.056076486 0.027981786
19997500000 -0.18977107 -0.22685155 -7.4764735e-005 -5.0034473e-006 0.0022623839 -0.0093067735 0.034108441 -0.16460034
20018750000 -0.072650038 -0.27181172 -2.4330249e-005 -4.9462287e-005 -0.0056947796 0.0070021474 -0.14944872 -0.013226988
20040000000 0.1544759 -0.30831996 -5.6540597e-005 -0.00012449655 0.010075509 -0.0019866091 0.045703821 0.2266442
20061250000 0.30145964 -0.068739086 0.00010775071 3.2226595e-005 -0.0087589119 -0.0064428165 0.022230377 -0.27495825
20082500000 0.096252292 -0.0461009 8.9622306e-005 3.5532958e-005 0.00078856625 0.0097770607 -0.34361804 -0.21911773
20103750000 0.13425292 0.014836041 -7.9022349e-005 4.6130706e-005 0.00088239583 -0.0063437419 -0.33034182 -0.096690655
20125000000 -0.14155439 0.053641506 6.1994751e-007 3.2297889e-005 -0.0054210341 0.0077028302 -0.34096602 0.10640157
20146250000 0.050947011 -0.18352208 -1.1933279e-005 -9.9952485e-005 0.0089605805 0.0012063788 -0.27144939 -0.29393411
20167500000 0.27499416 -0.080735229 -8.1048302e-006 -0.00017376636 -0.0036636747 -0.0046264594 -0.7997157 -0.15935655
20188750000 0.21710365 0.0023816563 -0.00023829938 -3.2795306e-005 0.0052454136 0.0068151397 -0.011779532 -0.11438345
20210000000 0.21813926 0.097018011 8.2274652e-005 -0.00013309703 0.0029023553 -0.01123002 -0.56473303 -0.84746623
20231250000 0.007827213 0.34939593 9.637171e-005 3.6637422e-005 -0.0072885654 0.0061666393 -0.74560559 -0.13670459
20252500000 -0.12695211 0.17235935 2.7055077e-005 -0.00015018172 0.007360531 -0.0018303117 -0.43661788 -0.42995104
20273750000 0.039377987 0.11382651 -1.2900962e-005 0.00012885798 -0.0078651598 -0.0020780226 -0.38709563 -0.37029994
20295000000 0.095159121 0.19519916 -3.9723811e-005 -1.8842931e-005 0.0052559525 0.0078076869 -0.45276961 -0.46841592
20316250000 0.038621996 0.17070666 -1.0037322e-006 9.441773e-005 0.0026117282 -0.0079177823 -0.17399678 -0.5445534
20337500000 -0.11196859 0.23926574 9.9436387e-005 0.00012701198 -0.004719683 0.0017636754 -0.0658914 -0.79101384
20358750000 -0.30956486 0.35019109 -0.00016576315 -4.7384037e-005 0.0058911429 -0.0029899429 -0.59204113 -0.68199462
20380000000 -0.3264803 0.08129891 0.0001170593 -2.1052321e-005 -0.0085454946 -0.0042254692 -0.31758177 -0.34179154
20401250000 -0.14553681 0.083046801 -0.00012932645 -2.1864471e-005 0.0014856616 0.0063070836 0.29615051 -0.67136014
20422500000 -0.22723888 0.054617759 -3.6431091e-005 -1.4150807e-005 -0.0016439725 -0.0052000703 -0.21308234 -0.63195133
20443750000 -0.12200281 0.04721304 -8.6388616e-005 0.00019244681 -0.0031142158 0.0076003638 0.1457299 -0.18492569
20465000000 -0.25745824 0.22748154 -0.00026424252 1.3054002e-005 0.0088040438 -0.0014840005 0.38961786 -0.8371399
20486250000 -0.37571111 0.079877004 9.6037047e-006 1.0613306e-005 -0.0080894027 -0.0025447297 -0.33300745 -0.33143675
20507500000 -0.17860553 -0.013337778 -6.5163895e-006 -0.00012248095 0.0059368028 0.0042525423 0.22694525 -0.10917679
20528750000 -0.14018239 -0.099120326 0.00011408883 -3.0140916e-005 -0.0038758961 -0.0067714881 0.21674566 -0.17087403
20550000000 -0.09675815 -0.27875558 0.00012094259 1.812064e-005 -0.0028169772 0.0064203395 0.19316819 -0.06645868
20571250000 -0.10872423 -0.13756911 -6.1222745e-005 -7.1886287e-005 0.0047252383 -0.00012063074 -0.021495463 0.033394076
20592500000 -0.12661752 -0.082838342 6.7192253e-005 -3.5509889e-005 -0.0040575531 0.00051470124 0.37083426 0.21892755
20613750000 -0.10391109 -0.17412417 -1.33135e-005 8.2412544e-006 0.0061560716 0.005582381 -0.24018812 -0.19499981
20635000000 0.24688214 -0.25691843 -4.519154e-005 0.00016417641 0.00074856234 -0.0085902316 -0.41170973 0.57799238
20656250000 0.082505047 -0.2473108 8.2474122e-005 0.00018702843 -0.0022302265 0.0052647241 0.24899986 0.46968791
20677500000 0.18144631 -0.34467739 -4.9334256e-005 2.8451082e-005 0.0058016474 -0.0067966534 -0.28886375 0.0085076177
20698750000 0.23735774 -0.079843417 0.00013883958 0.00019512304 -0.01036765 0.0020559954 -0.54024416 0.49262789
20720000000 0.09299691 -0.14725007 8.3829109e-005 1.5691136e-005 0.0078842379 0.0041632145 -0.26854458 0.30146933
20741250000 0.33751285 -0.1084849 -0.00014196 -0.00015499216 -0.0044847946 -0.0068716914 -0.77832299 0.23333988
20762500000 0.34323287 -0.037235059 -7.0068847e-005 0.00022074203 0.0019578328 0.0087808194 -0.6812551 0.29727817
20783750000 0.23351328 -0.080886163 8.8645902e-005 0.00013965285 0.0046528568 -0.0086617377 -0.46816438 0.3555164
20805000000 0.40173092 0.051858939 8.894004e-005 4.894158e-005 -0.0068799779 0.0015019792 -0.41054928 -0.057956252
20826250000 0.25593841 0.22018416 1.2536488e-005 -4.4149212e-005 0.0055629243 -0.00030130011 -0.9094035 -0.21224765
20847500000 0.21049765 0.078420326 -1.3550026e-005 -9.6918004e-005 -0.0075055128 -0.0054852976 -0.58485574 -0.0047831764
20868750000 0.28777859 0.13514788 -0.00016036251 7.8114179e-005 -0.00098202482 0.009606191 -0.42682728 -0.73329169
20890000000 0.17589502 0.16777673 0.00026834616 -8.7102118e-005 0.0034737734 -0.0051096487 -1.0693083 -0.32604739
20911250000 0.2347782 0.090280749 -0.00011440634 3.774391e-005 -0.0049782936 0.0047855009 -0.38518816 -0.17337868
20932500000 0.21496227 0.28358239 3.668639e-005 1.8463134e-005 0.0076703164 0.00042922897 -0.480654 -0.7420432
20953750000 -0.032642584 0.33934397 8.9505047e-005 7.1990298e-006 -0.0045440155 -0.0053841611 -0.45462134 -0.6162886
20975000000 0.19282171 0.027038364 3.3216424e-005 0.00012536236 -0.00033957078 0.0058827065 -0.22437756 -0.54744452
20996250000 0.082840957 0.10064667 3.2367145e-005 -8.1878527e-005 0.0014733042 -0.0051268321 -0.18433234 -0.55687308
21017500000 -0.10173904 -0.019385776 7.6541772e-005 -2.0036689e-005 -0.0069075166 0.0034141827 -0.16907506 -0.7288841
21038750000 -0.007961249 0.055986147 -5.345271e-005 -0.00010809536 0.006539131 0.005160904 -0.23884113 0.17790647
21060000000 -0.20815927 0.17124778 -0.0001782952 -4.3165823e-005 -0.0010143179 -0.0060725119 0.58121002 -0.32350254
21081250000 -0.21146815 -0.026615653 -4.7437374e-005 0.00010766034 0.0010197142 0.0093497541 0.04687525 -0.63395637
21102500000 -0.077075087 -0.060686566 -0.00016957888 -0.00010760307 0.0068211216 -0.010388295 0.09265767 0.015103812
21123750000 -0.11550926 -0.12447448 -9.3571398e-005 -9.910627e-005 -0.01030481 0.0027399447 0.44306976 -0.27880761
21145000000 -0.05280168 -0.3422575 -4.2021995e-005 5.2818559e-005 0.009444193 0.0014026285 -0.086379081 -0.38929451
21166250000 0.045537032 -0.1446268 -4.6893496e-005 0.00010496785 -0.0087571638 -0.0060468502 0.12355658 0.36623377
21187500000 -0.045609247 -0.17385122 -6.4358486e-005 -0.00013990674 0.0036979429 0.011136123 0.093417943 0.090089232
21208750000 0.016498813 -0.37865365 -2.8747481e-006 -3.3521868e-005 0.0029790648 -0.010009969 0.15710978 0.069438964
21230000000 0.031198045 -0.21813779 -9.8980208e-006 0.00012531695 -0.0036286567 0.0078100632 -0.1158683 0.033419285
21251250000 -0.15089799 -0.44449407 5.1469797e-005 0.00016546216 0.0081075076 -0.0073665655 0.0001273682 0.52847916
21272500000 0.15006603 -0.3770476 0.00022523334 -7.200746e-005 -0.01052189 -0.001542962 0.16853867 0.0056783324
21293750000 0.23447645 -0.1619404 -8.8239416e-005 0.00013586707 0.00576352 0.0036812897 -0.71349865 0.36014566
21315000000 0.24058621 -0.30194488 2.1507751e-005 7.6801443e-005 -0.0055360496 -0.006139962 -0.054662701 0.54102784
21336250000 0.31666103 -0.2804186 -0.00010964117 0.00018087328 -0.0016049672 0.009840874 -0.23030661 -0.037737355
21357500000 0.18634534 -0.22560194 -9.8798861e-005 -0.00015660972 0.006757048 -0.0044737142 -0.65060496 0.29302648
21378750000 0.072291046 -0.31025377 -0.00017521523 1.9871124e-005 -0.0065956521 0.00020279695 -0.35464934 0.3644411
21400000000 0.29621959 -0.26287597 -0.00010986593 0.00022806045 0.0070287217 0.0036731847 -0.59429747 -0.078925796
21421250000 0.19545062 -0.11651092 6.5238346e-005 0.00015890769 -0.0040545571 -0.0079530217 -0.7280041 0.13186768
21442500000 0.31381476 -0.23768802 0.00021715804 2.9158758e-005 -0.0030072583 0.0067080394 -0.59286714 0.18811266
21463750000 0.3526727 -0.035869166 8.9971245e-006 2.1373633e-005 0.0043362235 -0.0018188428 -0.28189629 0.077766404
21485000000 0.085508056 -0.063622579 9.4879884e-005 -2.0737332e-005 -0.0074324482 0.0009074313 -0.64134091 -0.33995676
21506250000 0.21060836 -0.12378025 5.7157984e-005 0.00013335302 0.0089878393 0.0068605058 -0.53492928 0.095194459
21527500000 0.08953435 0.061874632 -0.0003147207 -0.00014750926 -0.0014145103 -0.010913151 0.064418785 -0.23832947
21548750000 0.040626042 -0.087383747 0.00013270463 0.00013235789 -0.0011395389 0.0095008798 -0.83330292 -0.51818401
21570000000 0.20911346 -0.075199112 -0.0001015698 -2.8462815e-005 0.0081258789 -0.0082930047 -0.20914462 0.094001532
21591250000 0.01928276 -0.038289621 -1.0057482e-005 -4.9265549e-005 -0.0135136 2.0829699e-005 0.1147466 -0.3706443
