!Keysight Technologies,N5242B,MY47200105,A.14.00.23
!Date: Friday, May 10, 2024 11:06:09
!Correction: S11(C  2-Port  ) 
!S21(C  2-Port  ) 
!S12(C  2-Port  ) 
!S22(C  2-Port  ) 
!S2P File: Measurement: :
# Hz S  RI   R 50
18000000000 0.13270769 -0.030255917 0.00010913003 4.0133051e-005 0.006310021 0.0016835978 0.88399494 -0.42411262
18021250000 0.066056982 -0.21207429 4.330961e-005 -4.3763073e-005 -0.0066037192 0.00069720455 0.31677032 -0.19026168
18042500000 0.222672 -0.090849392 7.1532981e-005 -8.4562453e-005 0.0088779852 0.0070788171 0.50184637 -0.046040401
18063750000 0.14607039 0.014295653 3.9372568e-005 -9.3228075e-005 0.0017255966 -0.0066673825 0.41450971 -0.18806626
18085000000 0.20848677 -0.051808584 -0.00010212658 -7.8202291e-005 0.00061164954 0.0014993072 0.43069816 0.094902858
18106250000 0.32794696 -0.0061734016 4.4300163e-005 0.00016701131 0.004074757 -0.0065788897 0.48110774 -0.089759469
18127500000 0.20364974 -0.046335056 -2.122777e-005 5.6157069e-007 -0.01036288 -0.0017447814 0.57294858 -0.20451503
18148750000 0.20131266 -0.043336567 -7.827238e-005 -0.00012531018 0.0054991641 0.0045230053 0.3045857 -0.36623704
18170000000 0.29746187 0.082288533 0.00016300708 -8.8411898e-006 -0.0049386802 -0.0035991233 0.097771734 -0.11577328
18191250000 0.15777421 0.18687242 2.3258233e-005 3.1263833e-005 0.0030447815 0.0062346691 0.28127918 -0.080902539
18212500000 0.24183086 0.071534418 1.6395616e-005 -4.4943226e-005 0.0035744011 -0.0061604134 0.10238177 -0.12022242
18233750000 0.16095127 0.14296877 3.5345209e-005 8.4045794e-005 -0.0050138356 0.0002595 0.32740995 -0.15154587
18255000000 0.033391602 0.062230702 5.7607547e-005 -0.00017408076 0.0035137229 -0.0019679284 0.43296146 -0.53793001
18276250000 0.14396569 0.013829203 -5.8461537e-005 -9.2857663e-005 -0.0084520821 -0.003267593 0.15407151 -0.46109146
18297500000 0.070679143 0.15186262 -0.00014759564 0.00014195568 5.7493366e-005 0.0080432706 0.078087017 -0.46031904
18318750000 0.027181614 0.12454285 7.9566817e-006 -6.544443e-005 0.00045557518 -0.0029066897 0.11725986 -0.33912817
18340000000 0.067711025 0.090378925 -7.8332559e-005 -8.0559737e-005 -0.002757088 0.0074437992 0.14274265 -0.24139409
18361250000 -0.1180461 0.1073134 -3.7621881e-005 1.0898118e-005 0.0090301931 -0.0014883898 0.3602784 -0.4780983
18382500000 -0.077192821 -0.015334912 -8.0794489e-005 -5.3075724e-005 -0.0045251045 -0.0029161973 0.39447415 -0.40694323
18403750000 0.0083707413 -0.017233364 9.3777773e-005 5.1892854e-005 0.0037020342 0.0029608882 0.27978274 -0.67340022
18425000000 -0.030961737 0.01313501 -0.00010725758 0.0001543097 -0.0023432625 -0.005254901 0.068783969 -0.56277382
18446250000 -0.027644787 -0.1155673 -8.3586659e-005 2.0802121e-005 -0.0041669831 0.0065469774 0.50450212 -0.42096579
18467500000 0.014767773 0.0054311585 6.0907321e-005 2.0205604e-005 0.0079327747 0.0005623491 0.26618031 -0.54922193
18488750000 -0.19002441 -0.028900543 -6.1049832e-005 -5.3257852e-005 -0.0041165454 -0.0017066573 0.36092106 -0.39302492
18510000000 -0.085870259 -0.14788282 2.4808916e-005 -4.5645553e-005 0.0083929561 0.0039361403 0.50529182 -0.54851919
18531250000 -0.031761196 -0.025125694 -6.9784466e-005 4.4701128e-006 -0.00014772457 -0.0096539753 0.3790268 -0.54573578
18552500000 -0.059807975 -0.18824352 6.8743138e-005 -6.143171e-005 -0.0032183784 0.0019247707 0.28733128 -0.53310913
18573750000 0.075282894 -0.18599033 -6.5663393e-005 6.6868874e-006 0.0028359203 -0.0030201117 0.16019222 -0.19635588
18595000000 0.083019599 -0.070583239 -0.00011695376 -1.4821737e-005 -0.0073851291 -0.0020842759 0.43906257 -0.11319163
18616250000 0.052940231 -0.13499823 0.00013296503 -0.00016714851 0.003094248 0.0061994935 0.3823455 -0.46882001
18637500000 0.1675265 -0.10488839 8.1852941e-006 -0.00022237061 -0.00088689238 -0.0057191672 0.26823446 -0.15960214
18658750000 0.082582407 -0.071162432 1.5535397e-008 -9.9296358e-006 -0.00086489838 0.0064552608 0.4981921 -0.49485096
18680000000 0.08655598 -0.20487356 -4.6106347e-006 0.00014469601 0.0049678124 -0.0062867668 -0.029593525 -0.44435182
18701250000 0.230718 -0.095653586 -7.7120014e-005 3.4335608e-005 -0.0089281993 -0.0016663478 0.23532936 -0.10607941
18722500000 0.15134464 -0.057983033 -8.3718987e-005 -8.5552783e-005 0.0030758826 0.0043082368 0.1769809 -0.29363069
18743750000 0.22858448 -0.1493413 -3.6926394e-005 8.8055982e-005 -0.0051990082 -0.0049063615 0.16001466 -0.25210264
18765000000 0.21505481 0.071991354 -1.4505682e-005 2.3213985e-005 -0.0015770791 0.010289636 0.19011083 -0.35492116
18786250000 0.087894827 -0.018345656 4.2114094e-005 0.00010419598 0.0058947857 -0.0016459014 0.055305917 -0.34027827
18807500000 0.22415265 -0.091316782 1.4993363e-005 -9.7554694e-005 -0.0022592854 0.0018240848 0.033637598 -0.42835021
18828750000 0.14152901 -0.042943001 -8.5349398e-005 0.00013119512 0.0060006264 0.0006859451 -0.022629287 -0.45836672
18850000000 0.16164058 -0.049838189 -2.3139115e-005 -1.5973061e-005 -0.0019088928 -0.0057603703 0.1057338 -0.11303405
18871250000 0.24128826 0.088523768 1.8798723e-005 -3.051457e-005 -0.00097339635 0.0057455557 0.12586023 -0.59128767
18892500000 0.14193441 0.22217441 1.7646593e-005 -3.7626953e-005 0.0030176546 -0.0050107199 0.046605933 -0.42969489
18913750000 0.10123845 0.030936299 7.2328956e-005 8.0874925e-005 -0.0053732041 0.0048141847 0.20228435 -0.61116606
18935000000 0.075430922 0.0084131323 6.8675094e-005 -7.5280323e-006 0.0088952715 0.00026982336 -0.074457549 -0.67931348
18956250000 -0.030977719 -0.0023402064 5.6460583e-005 -8.6336426e-005 -0.0039903396 -0.0043559172 -0.014386167 -0.50321096
18977500000 0.030690452 -0.056759443 -4.2406082e-005 0.00014310742 0.005396958 0.0029508937 0.12798306 -0.41573542
18998750000 0.072920106 0.16546059 8.3338775e-005 -1.2432716e-006 -0.00097339728 -0.0089415312 0.25167069 -0.5305723
19020000000 -0.045451101 0.1336551 -0.00016500273 6.5450724e-005 -0.0054017925 0.0028011422 0.13191405 -0.59788889
19041250000 -0.10895815 0.013713072 2.5797854e-005 -5.6370074e-005 0.0042117327 -0.0019386922 -0.0064435741 -0.48979563
19062500000 -0.10157633 0.072337136 -2.1994576e-005 -2.2895881e-006 -0.009449875 -0.00026920851 0.28724137 -0.61765409
19083750000 -0.07432916 -0.17105342 9.4769421e-005 -5.895838e-005 0.0063761324 0.0066600838 -0.039440986 -0.61190146
19105000000 0.084697947 -0.058659151 -1.8013702e-006 -3.8937436e-005 -0.0015244771 -0.0079512373 0.024957119 -0.22297844
19126250000 0.05402115 0.044014033 0.00010744391 -0.00010783405 -0.0022139011 0.006441026 0.46223283 -0.55940598
19147500000 -0.067864254 -0.041553132 0.00010891869 4.5421544e-005 0.0058567515 -0.0053906362 0.1065442 -0.59007233
19168750000 -0.12342916 -0.10215326 0.00031356153 -2.8147333e-005 -0.010929096 -2.8468585e-007 0.16005139 -0.47102907
19190000000 -0.16095589 -0.19266425 -1.7021459e-005 0.00010048175 0.0055244681 0.0064921849 0.14140163 -0.48402542
19211250000 -0.10262007 -0.29589477 0.00010952037 3.0133786e-005 -0.0044201394 -0.0049549644 0.20182703 -0.45359156
19232500000 0.12797743 -0.1698328 -4.7672023e-005 -3.2907727e-005 0.00078568672 0.010734409 -0.09934669 -0.33690077
19253750000 -0.0096699558 -0.11168197 4.6387024e-005 -4.0681676e-005 0.0071067018 -0.0056663114 0.31523904 -0.27407175
19275000000 0.039660383 -0.19098619 2.7468825e-005 -5.1642452e-005 -0.004317733 0.0020699115 0.18706259 -0.52738386
19296250000 -0.00034784788 -0.13408281 4.6979221e-005 -0.00010762828 0.0077815726 0.00072783098 0.027450431 -0.39561257
19317500000 -0.11946732 -0.23264538 -3.2684349e-007 -3.8119873e-005 -0.005469569 -0.0073118233 0.20851916 -0.3585963
19338750000 0.1899627 -0.30220357 0.00024143922 -4.1343203e-005 0.00063417829 0.0083899777 -0.12650965 -0.53337026
19360000000 0.17834637 -0.21148232 0.00019086014 3.4926587e-005 0.003373523 -0.0070644827 -0.10730065 -0.1965616
19381250000 0.16106407 -0.2244577 -6.88707e-005 -9.4585339e-005 -0.0058784205 0.0054122019 0.16306323 -0.3068817
19402500000 0.20470859 -0.13394655 -5.5021017e-005 -4.4891807e-005 0.009809521 0.00058659678 -0.052637294 -0.37031436
19423750000 0.039829902 -0.16027516 7.6427468e-006 4.7818485e-006 -0.0043194108 -0.0076464796 0.058496881 -0.47460657
19445000000 0.096619494 -0.16575824 6.6828099e-005 7.006224e-005 0.0019570764 0.0052988147 -0.22070661 -0.36565647
19466250000 0.25859851 -0.11491393 -8.5334323e-005 -0.00012989204 -4.4071097e-005 -0.0091950651 -0.073309951 -0.36472616
19487500000 0.19300908 -0.058103483 0.00026949565 0.00011949333 -0.0073376293 0.0033425654 -0.27519703 -0.47600159
19508750000 0.2220535 -0.14878054 -2.2072638e-005 4.5223249e-005 0.004381916 0.0012669371 -0.19818169 -0.08148142
19530000000 0.16050953 0.036465935 9.1434995e-005 5.2566488e-006 -0.0065558814 -0.0020321833 0.12274163 -0.4216477
19551250000 0.065406084 -0.022141151 7.7920675e-005 -2.5520942e-005 0.0049101585 0.0077158399 -0.44526494 -0.73001081
19572500000 0.21657178 -0.039487969 -2.3385897e-005 4.6063706e-005 -9.9718236e-005 -0.0080108782 -0.18318976 -0.22857407
19593750000 0.15616342 0.094082147 -5.5392913e-005 8.7070766e-005 -0.0026189112 0.0044204672 -0.17603838 -0.62939906
19615000000 0.080706269 -0.014015996 -9.736613e-005 -2.5195714e-005 0.0038978283 -0.002448966 -0.34248891 -0.41134018
19636250000 0.10258949 0.051945545 -0.00010528886 0.00014662492 -0.0081496416 -0.00074633455 -0.12742515 -0.36530125
19657500000 -0.091914535 0.10004431 -0.00012276732 -2.6450207e-005 0.0040198164 0.0062570395 -0.1771321 -0.41046757
19678750000 -0.002120083 0.0059664249 -5.4421675e-005 -7.7608755e-005 -0.0023038518 -0.0022600233 -0.071168907 -0.74452472
19700000000 -0.01222151 0.082869843 -3.6246794e-005 0.00010203249 0.0020917386 0.0072355852 -0.38044852 -0.50354075
19721250000 -0.023061618 0.059778802 -5.4812921e-005 9.1415386e-005 0.0065248609 -0.0055994778 -0.075576663 -0.32956159
19742500000 -0.14106266 -0.039009593 3.8418282e-005 9.2222268e-005 -0.006277578 0.00034305896 -0.14342827 -0.69759488
19763750000 -0.16726048 0.01709451 0.00024592786 -2.5301633e-005 0.0083692661 0.0010755779 -0.28965339 -0.33898935
19785000000 -0.20982228 0.057032216 -0.00011060291 9.3642091e-005 -0.006518777 -0.0067341719 0.22297236 -0.28795749
19806250000 -0.08241535 -0.084517933 9.8609045e-005 -0.00010918574 -0.00077424769 0.0071427855 0.014969207 -0.82167661
19827500000 -0.097334109 0.017401082 9.0614245e-005 0.00014721931 0.0050544543 -0.0038067037 -0.056630518 -0.35590097
19848750000 -0.21320675 -0.11130849 3.7740494e-005 -2.4621328e-005 -0.0053916476 0.0013729491 0.062464736 -0.4115496
19870000000 -0.12660411 -0.12940021 -8.2936465e-005 -1.7909262e-005 0.0087659387 0.00094527274 -0.023116911 -0.41153073
19891250000 -0.23561312 -0.17763288 -0.00018811823 -4.2329968e-005 -0.0047255405 -0.0073694363 0.1355852 -0.29347467
19912500000 -0.096616231 -0.31938264 4.7838726e-005 -1.0980662e-005 0.00016558667 0.00454466 0.11031687 -0.012962403
19933750000 -0.0093197189 -0.15606977 -0.00016343113 2.7252019e-005 0.0013737383 -0.0062819389 0.26493359 -0.48366606
19955000000 -0.10527072 -0.2071712 -0.00017713684 -5.3664517e-005 -0.010704965 0.00258849 -0.30621094 -0.36897662
19976250000 -0.15747608 -0.23645219 -5.2493611e-005 0.00018679033 0.0093109999 0.0051631159 0.057255443 0.027470177
19997500000 -0.17701919 -0.22871538 5.1767496e-005 -3.9333307e-005 -0.0066681588 -0.0064391256 0.0342221 -0.16153675
20018750000 -0.059683591 -0.2766383 2.3902916e-005 -0.00014631261 0.0031421012 0.0091005126 -0.14892441 -0.010200063
20040000000 0.15771511 -0.31191528 8.805946e-005 -0.0001001675 0.0037985104 -0.0088388445 0.044244315 0.22776832
20061250000 0.30004492 -0.07993871 3.9088267e-005 6.6675384e-005 -0.0080618355 0.0016861894 0.019371683 -0.27010357
20082500000 0.10792515 -0.038662031 9.4180359e-005 -5.6240597e-006 0.0055673243 0.0027708469 -0.34481457 -0.21350069
20103750000 0.13766392 0.012841109 -7.6130687e-005 5.9280093e-005 -0.0074802721 -0.0031751962 -0.33233416 -0.094111167
20125000000 -0.11680123 0.052158933 6.8491805e-005 0.00011136069 0.0037636659 0.010281849 -0.34436488 0.10612284
20146250000 0.056895163 -0.17865767 -8.2925115e-005 6.2967479e-006 0.0029272528 -0.0065648872 -0.2777746 -0.28911814
20167500000 0.27372035 -0.083512634 -2.2468739e-006 0.00010688347 -0.003977444 0.0065418482 -0.79811573 -0.15942673
20188750000 0.21580882 0.014663097 3.6936002e-005 -8.1151295e-005 0.010100747 -0.0031300276 -0.023462454 -0.11667783
20210000000 0.21724038 0.11221127 0.0001953703 -0.00010259885 -0.0075066662 -0.0066027623 -0.56822407 -0.84453321
20231250000 0.02883501 0.35965958 9.4463558e-006 0.00013523144 0.0044012405 0.0072522759 -0.7482357 -0.14304541
20252500000 -0.1086745 0.18227157 -8.4591629e-006 -3.4073604e-005 -0.0014502319 -0.008667171 -0.44053349 -0.43191338
20273750000 0.035069637 0.11115518 0.00010496096 -5.5811757e-005 -0.0042486191 0.0088154105 -0.39229059 -0.37447649
20295000000 0.088698797 0.198595 0.00011481406 6.5874476e-005 0.008901665 -0.0034501625 -0.4487969 -0.47027475
20316250000 0.034239676 0.18381144 -0.00016437212 0.00032594963 -0.006148607 -0.00011862758 -0.17562696 -0.54960322
20337500000 -0.11240229 0.25037152 -3.4135173e-005 -4.7891259e-005 0.0078647323 0.0012797849 -0.066208802 -0.79329067
20358750000 -0.29927668 0.35121241 -8.8570596e-005 -4.3159613e-005 -0.0052991868 -0.0087552313 -0.58334303 -0.68528819
20380000000 -0.32948038 0.091345005 5.0260744e-005 0.00015584052 -0.0015947922 0.006769401 -0.31208032 -0.35016772
20401250000 -0.15758373 0.078831419 -9.7474687e-005 -3.1095693e-005 0.0016402063 -0.0067525273 0.29490501 -0.67292458
20422500000 -0.23186323 0.057443526 -7.8386423e-005 -0.00015149171 -0.0081995139 0.0052711554 -0.20557891 -0.6311428
20443750000 -0.13227122 0.048537344 -1.8826522e-005 -3.3088847e-005 0.0078980736 0.0017878301 0.15023693 -0.19149084
20465000000 -0.25152454 0.21647337 -8.4526553e-005 -0.00014612309 -0.0034916634 -0.0046043857 0.38943759 -0.83108699
20486250000 -0.37659654 0.071890213 -0.00014350048 2.9456469e-005 0.001351363 0.0054693972 -0.32274878 -0.32838809
20507500000 -0.19625065 -0.024793189 -9.8583914e-005 4.3890203e-005 0.0019299772 -0.0065617743 0.22905496 -0.10711838
20528750000 -0.14775178 -0.10454967 4.7427675e-005 5.2074829e-005 -0.0067544174 0.0032268753 0.21765149 -0.16569078
20550000000 -0.099144138 -0.2694163 0.00017187469 -2.070916e-005 0.0048737712 0.00074673269 0.19592527 -0.059258696
20571250000 -0.089346513 -0.14343375 -0.00010273352 6.4403728e-005 -0.0056267795 -0.00095279247 -0.01705597 0.039315931
20592500000 -0.10858215 -0.097272851 -6.7008921e-005 1.3477928e-005 0.0039020851 0.0076116393 0.36778525 0.22098696
20613750000 -0.093749754 -0.17903176 -1.2065861e-005 -0.00011763533 0.0034526894 -0.0057301759 -0.23899496 -0.18322825
20635000000 0.23832522 -0.26458371 -5.8429356e-005 -6.4480118e-005 -0.0028378312 0.0036616689 -0.41200212 0.57915223
20656250000 0.094332129 -0.24655196 4.3343971e-005 0.00010135054 0.007660985 -0.0014832804 0.23813748 0.47340736
20677500000 0.19113477 -0.3376224 -0.00010266209 3.174222e-005 -0.0077485396 -0.0059169261 -0.29351756 0.018880581
20698750000 0.2520102 -0.091553472 5.251756e-005 9.8823803e-005 0.0036841831 0.0092027988 -0.5459013 0.49531099
20720000000 0.11618152 -0.13737203 5.8674646e-006 -0.00014308693 1.0633744e-006 -0.0084532117 -0.2781752 0.30351189
20741250000 0.34135383 -0.11193616 7.7403951e-005 -6.2454266e-005 -0.0033218544 0.0088316072 -0.78464162 0.23914161
20762500000 0.34982753 -0.041802611 0.00011058563 0.00011615935 0.0094264774 -0.0044056829 -0.68645358 0.29518002
20783750000 0.24565396 -0.074488185 8.8921108e-005 1.0667218e-005 -0.0076937242 -0.0023523937 -0.4780125 0.34954485
20805000000 0.40185359 0.053324748 -3.62766e-005 -7.0368842e-005 0.0072606797 0.002963562 -0.42089671 -0.06044092
20826250000 0.26603791 0.21828994 -8.4619496e-005 0.00014173944 -0.004601859 -0.0094454959 -0.91129011 -0.21875739
20847500000 0.2048503 0.089255385 -4.8409216e-005 -0.00016868077 -0.004072838 0.0072021885 -0.58916914 -0.014980013
20868750000 0.27348554 0.1492271 2.4794874e-005 -0.00018812904 0.0046433816 -0.0031294583 -0.43655974 -0.73883092
20890000000 0.17846909 0.18676016 0.00022275267 -4.4522883e-005 -0.0082136663 0.0019889073 -1.0625079 -0.33672199
20911250000 0.22692046 0.10698084 5.4821732e-005 3.8324783e-005 0.0079364209 0.0045066914 -0.38688791 -0.18512523
20932500000 0.21043012 0.28688526 -0.00016750731 9.4638272e-005 -0.0033871317 -0.0075484146 -0.47432965 -0.74543363
20953750000 -0.029804945 0.34208393 -0.00012897936 0.00012897399 -0.000850685 0.0062998924 -0.44500113 -0.61943817
20975000000 0.1655805 0.043646012 -3.4418008e-005 -0.00018715847 0.0037687144 -0.0058132564 -0.21361372 -0.55202091
20996250000 0.070562869 0.10625567 9.9206205e-005 -2.0889267e-005 -0.0091448789 0.0023919204 -0.17473307 -0.56324184
21017500000 -0.10677595 -0.0074019996 -0.00013459589 8.3283208e-005 0.0056107841 0.0052074473 -0.15586795 -0.72529674
21038750000 -0.014925311 0.055734824 9.3987263e-005 -3.312459e-005 -0.0038328613 -0.00295729 -0.22485022 0.16997473
21060000000 -0.19990495 0.16060473 -2.2276952e-005 -0.00010003111 0.0020651277 0.0078904945 0.58518392 -0.31950489
21081250000 -0.21954927 -0.019384576 1.5841035e-005 7.8950317e-005 0.0058266367 -0.0051643378 0.05816526 -0.62298435
21102500000 -0.085759372 -0.063484386 4.7426129e-005 8.004866e-005 -0.0047603347 0.00013413798 0.10297498 0.019654868
21123750000 -0.11396238 -0.12899917 1.1937206e-005 -0.00014782348 0.0061045922 0.0010055869 0.44775888 -0.26665917
21145000000 -0.047610652 -0.33749652 -5.7839759e-005 3.1703439e-005 -0.0058712 -0.0063440213 -0.078771375 -0.37097171
21166250000 0.056803599 -0.16709386 -9.6424701e-005 -1.4253557e-005 0.00113618 0.0081367092 0.13037445 0.37284264
21187500000 -0.03463579 -0.18608105 1.1606635e-006 -0.00015877014 0.003446898 -0.0060317093 0.095935486 0.10040756
21208750000 0.016031783 -0.37542841 4.0359369e-005 -0.00011351232 -0.0057207141 0.0048439936 0.15547106 0.081550516
21230000000 0.035604585 -0.22668537 0.00022934015 1.5510739e-006 0.010912561 -0.0012227265 -0.11725769 0.046268255
21251250000 -0.1270649 -0.43585357 2.6705558e-005 5.9740232e-005 -0.0076955808 -0.0075590615 -0.0059215343 0.52991271
21272500000 0.16290417 -0.39148584 0.00017654221 -0.00017256207 0.0020785327 0.0070502525 0.15465209 0.015613061
21293750000 0.25047824 -0.18256009 -3.7145459e-005 -0.00014273456 -0.00055857806 -0.0098992046 -0.7169925 0.36342084
21315000000 0.24571508 -0.29748818 -7.355956e-005 -1.3695014e-005 -0.0081641832 0.0070451717 -0.066796921 0.54087222
21336250000 0.30682132 -0.27606335 -2.0216883e-005 -7.9061188e-005 0.008752685 0.00098324276 -0.24202619 -0.031093456
21357500000 0.18790376 -0.21196131 -9.1726208e-005 -4.2885193e-005 -0.0069766869 -0.0032180562 -0.6548537 0.29169935
21378750000 0.082649685 -0.29552066 -4.1955733e-005 -2.9556577e-005 0.004367386 0.0074676471 -0.362838 0.35879284
21400000000 0.29620335 -0.26131582 -5.1019048e-005 -0.00020948518 0.0013554179 -0.0099990191 -0.60123444 -0.080679938
21421250000 0.20800911 -0.11295544 0.00010017981 -9.6992291e-005 -0.0080152182 0.0070556486 -0.73084897 0.12387593
21442500000 0.30450284 -0.21886936 -0.00016368496 0.00013119861 0.0084882556 -0.0029765142 -0.59695286 0.17717436
21463750000 0.34418523 -0.025779637 -0.00011907569 5.365863e-005 -0.011724899 -0.00066274911 -0.28928941 0.06876345
21485000000 0.09268681 -0.04966573 8.2749912e-006 -8.6179316e-005 0.0083690695 0.010196516 -0.6384958 -0.34682521
21506250000 0.19477688 -0.12005775 0.00026269202 -5.9934271e-005 -0.00028006037 -0.0086379759 -0.53455049 0.084922448
21527500000 0.091136649 0.054736305 -9.4939322e-005 7.4937765e-005 -0.00255487 0.0085031511 0.061370958 -0.24467467
21548750000 0.028843645 -0.076037928 -6.6912558e-005 6.768795e-005 0.0098368945 -0.0068020103 -0.82224488 -0.51947314
21570000000 0.18567812 -0.065204106 -0.00021868647 -9.1845191e-005 -0.0086183017 -0.0016599954 -0.20406125 0.086267717
