!Keysight Technologies,N5242B,MY47200105,A.14.00.23
!Date: Friday, May 10, 2024 11:06:30
!Correction: S11(C  2-Port  ) 
!S21(C  2-Port  ) 
!S12(C  2-Port  ) 
!S22(C  2-Port  ) 
!S2P File: Measurement: :
# Hz S  RI   R 50
18000000000 0.13510156 -0.029226838 -8.8375928e-005 8.7191387e-005 -0.0011971684 0.011943844 0.88210422 -0.42394045
18021250000 0.063613497 -0.21480414 -9.8287666e-005 7.5181539e-005 0.0048064906 -0.003300216 0.3174004 -0.190588
18042500000 0.22342038 -0.090453096 -2.2775368e-005 -8.7275097e-005 -0.0034462404 0.0036400429 0.50176889 -0.046658576
18063750000 0.14677492 0.013894704 0.00021517379 -3.6691061e-005 0.010551061 0.0024607433 0.41493154 -0.18866567
18085000000 0.20749117 -0.05224935 4.1236683e-005 2.1405063e-005 -0.0018489225 -0.011335271 0.43085498 0.093590923
18106250000 0.33158311 -0.0067554023 -3.2646349e-005 -4.6163834e-005 -0.00058711955 0.0057484251 0.48072538 -0.08998891
18127500000 0.20293415 -0.046631649 0.00017630561 -5.1652965e-005 0.00063970959 -0.0099681867 0.57263964 -0.20438382
18148750000 0.1999492 -0.04292316 -5.4232856e-005 0.00015488781 -0.0079695219 0.0061922269 0.30500698 -0.36596534
18170000000 0.30088109 0.081414774 -1.6978747e-005 0.00011200389 0.00735116 0.0019198855 0.098147899 -0.11626166
18191250000 0.15603672 0.18960235 -3.7072023e-005 7.0226735e-005 -0.0047748159 -0.0053593819 0.28120875 -0.081607901
18212500000 0.24406095 0.070719793 -5.8531456e-005 -6.6495404e-006 0.0037839937 0.0079445587 0.1028185 -0.12038206
18233750000 0.16076447 0.14302906 -4.3278003e-005 -0.0001446875 0.0020712621 -0.011802482 0.32696009 -0.15186116
18255000000 0.032714661 0.063779004 0.00012620777 3.0858377e-005 -0.0090903584 0.0055009713 0.43241459 -0.53753698
18276250000 0.14443284 0.012354485 -7.3274496e-005 -2.8563805e-005 0.0057493583 -0.0026905013 0.15417422 -0.46095231
18297500000 0.0687076 0.15337862 -9.3401519e-005 -6.4596054e-005 -0.011791309 0.00012569167 0.07844498 -0.46058229
18318750000 0.029545013 0.12419492 2.9410034e-005 1.562089e-005 0.0060782041 0.010079921 0.11772979 -0.33932498
18340000000 0.067900702 0.089231141 -0.00011319243 4.0784573e-005 -0.00081869308 -0.0064940741 0.14292641 -0.24177204
18361250000 -0.1185573 0.10906256 9.7763281e-005 0.00021585707 0.00042764822 0.0099442126 0.3600086 -0.47820348
18382500000 -0.078021616 -0.017387796 -0.00011498363 -5.3361327e-005 0.0086687496 -0.0083520468 0.39454833 -0.40711501
18403750000 0.0079799723 -0.016774233 -4.9367492e-005 -7.850433e-005 -0.0097479746 0.00046973309 0.27995485 -0.67318553
18425000000 -0.03009836 0.014668707 -2.3319662e-005 -0.00018819203 0.007480924 0.0035319 0.069305964 -0.56306845
18446250000 -0.028397098 -0.11823191 -3.1344134e-006 -4.9780236e-005 -0.0075691347 -0.0064111026 0.50469166 -0.42109656
18467500000 0.015951201 0.0061632921 -3.01658e-005 -0.00010802467 0.004006437 0.012835501 0.26633868 -0.54925019
18488750000 -0.19080243 -0.030752933 0.00011980023 -4.1086136e-005 0.0056382958 -0.00946749 0.36004508 -0.39298114
18510000000 -0.086895637 -0.1482835 -1.5357487e-005 6.0609047e-005 -0.0042064646 0.0055978782 0.50530303 -0.54771185
18531250000 -0.030654499 -0.023597769 -0.00015479275 6.847339e-005 0.010494815 -0.0044747838 0.37919122 -0.54547334
18552500000 -0.060447816 -0.1899111 -0.00011186894 9.3303104e-005 -0.0089557962 -0.0080147348 0.28733841 -0.53274846
18573750000 0.077303432 -0.1853559 -0.00013296542 9.1815367e-005 0.0014250482 0.0085522616 0.1600371 -0.19622023
18595000000 0.08410655 -0.07099542 -9.2761338e-006 -4.8714435e-005 0.00018140112 -0.011676435 0.43851185 -0.11374193
18616250000 0.05045139 -0.13512994 -2.219098e-005 7.210319e-005 -0.0078087123 0.010350129 0.38220587 -0.46858305
18637500000 0.17067063 -0.10509457 -8.9068562e-006 3.7667247e-005 0.010596171 -0.0031332895 0.26786676 -0.15948425
18658750000 0.081244625 -0.06987343 9.8016899e-005 -2.6177548e-005 -0.0091157844 -0.0018001226 0.49742508 -0.49445418
18680000000 0.087189183 -0.20458256 -0.00013313166 8.1256003e-006 0.0075491588 0.0048965476 -0.029778702 -0.44376707
18701250000 0.23397915 -0.095664427 0.00011403143 0.00012479172 -0.0047135898 -0.012081666 0.23504995 -0.10652962
18722500000 0.14790154 -0.054626673 9.4914321e-005 -2.7368256e-005 -0.0060706069 0.011153838 0.17685653 -0.29376289
18743750000 0.2296875 -0.15221331 3.4372391e-005 4.4473227e-006 0.0061431876 -0.0058085206 0.15953638 -0.25226477
18765000000 0.21528108 0.074913055 -8.5303691e-006 6.0011484e-005 -0.011632773 0.0049220617 0.19009081 -0.35506693
18786250000 0.086611331 -0.017086761 -4.749668e-005 8.1697028e-005 0.011064676 0.0078782877 0.055205792 -0.34053138
18807500000 0.22608785 -0.093445726 -7.6845972e-005 0.00013821783 -0.0015802564 -0.0090328222 0.03334146 -0.42842734
18828750000 0.14015396 -0.041194074 1.264399e-005 0.00010317453 5.8449656e-005 0.0088904602 -0.022890242 -0.45881206
18850000000 0.15966538 -0.050698344 6.512554e-005 -7.8489967e-007 0.0081178313 -0.0090972595 0.10554357 -0.11386679
18871250000 0.24057284 0.089430273 4.5999636e-006 8.8496134e-005 -0.010893551 0.0036157917 0.12587415 -0.59154457
18892500000 0.14146011 0.22609954 0.00011153737 1.9144809e-005 0.010098369 0.0023110423 0.046599593 -0.42990294
18913750000 0.10160178 0.029440325 -6.662614e-005 -0.00010450036 -0.0071266033 -0.0048328163 0.2022642 -0.61161339
18935000000 0.077160835 0.0090787513 1.581373e-006 -6.6783512e-005 0.0050634346 0.0092057399 -0.073852681 -0.67943662
18956250000 -0.032790851 -0.002282185 -8.3204483e-005 2.3985478e-005 0.0044200569 -0.0094427289 -0.014085299 -0.50348842
18977500000 0.028321607 -0.059117749 -2.3063352e-005 3.9887957e-005 -0.0045802505 0.0025073453 0.12814489 -0.41588607
18998750000 0.073897839 0.16839533 0.00016522771 1.3736568e-005 0.007333877 -0.0029830632 0.25171179 -0.53070414
19020000000 -0.046367183 0.13330664 -4.0318904e-005 5.5948458e-005 -0.0091276094 -0.0062298132 0.13214636 -0.59747124
19041250000 -0.1081277 0.011934135 -0.00010051775 -2.1762204e-005 0.0019837983 0.0078288838 -0.0060297092 -0.48992866
19062500000 -0.10238715 0.072887406 -2.2518887e-005 9.8148332e-005 -0.0019831154 -0.0075752032 0.28732532 -0.61746258
19083750000 -0.076870359 -0.17229222 -2.0737474e-005 7.8642108e-005 -0.0040506348 0.0087925149 -0.039377231 -0.61163014
19105000000 0.085344352 -0.056611653 -3.8532899e-006 -0.00018511314 0.0087107765 -0.0036383802 0.024417732 -0.22354384
19126250000 0.054586168 0.045098893 4.6091143e-005 -0.0001757135 -0.0094262566 -0.0018381651 0.46150142 -0.55843961
19147500000 -0.067155659 -0.041576408 0.0001170234 3.7180424e-005 0.0071714092 0.0051125954 0.10631456 -0.58942688
19168750000 -0.12275027 -0.103726 -1.7335782e-005 4.6568013e-005 -0.0065454086 -0.0096066752 0.16006637 -0.47074926
19190000000 -0.16419344 -0.19191219 8.4705447e-005 0.00011979388 -0.0030777068 0.012060956 0.14110121 -0.48403195
19211250000 -0.10438007 -0.29619327 -0.00016627365 0.00011121138 0.0056595295 -0.0048413239 0.20142508 -0.45361382
19232500000 0.12946887 -0.16763617 -5.9119899e-005 -6.8696805e-005 -0.0080630686 0.0053746938 -0.098636098 -0.33690241
19253750000 -0.010357654 -0.11035689 -3.2348456e-005 8.5601205e-005 0.011997384 0.0039759488 0.31451064 -0.27458405
19275000000 0.040694125 -0.19288589 -4.8347145e-005 -1.1289046e-006 -0.0035291587 -0.0077837612 0.18669128 -0.52722299
19296250000 -0.0016841114 -0.13263647 3.6085243e-005 -8.6778986e-005 0.0017187194 0.0082501788 0.027088961 -0.3957254
19317500000 -0.12185736 -0.2324952 4.6579884e-005 0.00013635622 0.0038048362 -0.010657245 0.2078069 -0.35882396
19338750000 0.1908821 -0.30116913 9.0157213e-005 -2.8554665e-005 -0.0083386935 0.0059672832 -0.12648976 -0.5329262
19360000000 0.17928079 -0.20972513 0.00010657751 5.1975843e-005 0.0095431032 1.1680989e-005 -0.10720482 -0.1971315
19381250000 0.16121294 -0.22736418 -0.00012561437 8.6717992e-005 -0.0067976736 -0.0037925032 0.16250215 -0.30715659
19402500000 0.20308736 -0.13336727 -9.2550014e-005 -2.5846421e-006 0.0058450135 0.0085523855 -0.052857537 -0.37055996
19423750000 0.037317969 -0.15880474 5.4758359e-005 -3.1083568e-005 0.0029705095 -0.011892963 0.058415648 -0.47439453
19445000000 0.095101319 -0.1650549 0.00012074399 -1.8743884e-005 -0.0067977305 0.004429725 -0.22038893 -0.36562681
19466250000 0.26027611 -0.11308149 2.007795e-005 -2.9196221e-005 0.0067063454 -0.0037178041 -0.073334962 -0.36455691
19487500000 0.19292264 -0.05823867 6.7364475e-005 5.6904413e-005 -0.0096707568 -0.0051686028 -0.27485514 -0.47578081
19508750000 0.22237843 -0.15137553 -2.4729125e-005 5.8213172e-005 0.0015512801 0.0097999796 -0.19786933 -0.081825994
19530000000 0.1590285 0.036486115 3.8443966e-005 -1.2214102e-005 -1.6192074e-005 -0.0075628995 0.12142862 -0.4215003
19551250000 0.061858702 -0.022425324 -2.8414581e-005 -8.7428969e-005 -0.0039084 0.0080780257 -0.44481692 -0.72886771
19572500000 0.21822743 -0.038710166 0.00010587632 8.9378897e-005 0.0079612117 -0.0028913356 -0.18343282 -0.22894838
19593750000 0.15554954 0.095490314 4.1821204e-005 -9.7670752e-005 -0.0072928672 -0.0035279486 -0.17655988 -0.62909049
19615000000 0.079083629 -0.015730267 -5.2725274e-005 0.0002278317 0.0026712755 0.0067573851 -0.3424364 -0.41134444
19636250000 0.10470337 0.052623674 -8.3417268e-005 -3.223939e-005 -0.0023853495 -0.0083568385 -0.12764503 -0.36530158
19657500000 -0.096966356 0.10090763 -1.6991933e-005 -0.00016173639 -0.0053653019 0.009638384 -0.17741795 -0.41054708
19678750000 -0.00089888222 0.0059648454 -5.3857144e-005 2.2403701e-005 0.0072089606 9.4039169e-005 -0.071631171 -0.74445802
19700000000 -0.010914294 0.083686784 -7.1558466e-006 -4.1887338e-006 -0.0051186797 0.00020808951 -0.38027588 -0.50302225
19721250000 -0.023871928 0.060678337 -0.00022305163 -0.00011512354 0.0097201103 0.00442346 -0.075736947 -0.32995981
19742500000 -0.14019674 -0.04082413 5.7191868e-005 6.0830938e-005 -0.0035925612 -0.0094504114 -0.14374341 -0.69747847
19763750000 -0.16902074 0.018756239 -0.00010011622 -0.00013713591 0.00051754515 0.0082869893 -0.28929487 -0.33941779
19785000000 -0.2126137 0.057985947 4.9836308e-005 5.768377e-005 0.0041518533 -0.0090803755 0.22246401 -0.28847969
19806250000 -0.079911955 -0.084955938 -2.0478945e-005 0.00011795505 -0.0097306967 0.0034745182 0.015017361 -0.82100499
19827500000 -0.097854227 0.021366669 6.3986634e-005 -7.5129537e-005 0.011339801 0.0037296012 -0.056551158 -0.35599685
19848750000 -0.21402451 -0.11535446 3.4042576e-005 0.00010653803 -0.0067424509 -0.0080329357 0.062382765 -0.4117468
19870000000 -0.1261892 -0.12745719 -0.00017794418 8.2306753e-005 0.0045517795 0.0094849821 -0.02256616 -0.41166607
19891250000 -0.24099515 -0.17571139 -0.00011698397 -6.7073997e-005 0.0026849846 -0.012536688 0.13544005 -0.29327384
19912500000 -0.096959822 -0.32381105 1.9878858e-005 8.7019005e-005 -0.0093563553 0.0048668124 0.1100475 -0.0134198
19933750000 -0.0082721775 -0.15239228 0.00027250309 -5.8972608e-005 0.0088361679 -0.0017076489 0.26460156 -0.48359197
19955000000 -0.10678146 -0.20891035 0.00015501954 -9.4618321e-005 -0.014516514 -0.0057723359 -0.30556419 -0.36847627
19976250000 -0.15784003 -0.23845184 5.6210116e-005 0.00017969457 0.0083244015 0.013868366 0.057761475 0.027209053
19997500000 -0.17843692 -0.22623223 -0.0002219982 -2.460011e-006 -0.0010665907 -0.013126816 0.034464307 -0.1615631
20018750000 -0.062916763 -0.278032 -4.3542823e-005 -1.648533e-005 -0.0048626992 0.012369105 -0.14888898 -0.010212906
20040000000 0.15947753 -0.31166831 6.5620283e-005 -8.2843662e-006 0.012126642 -0.0074497201 0.044841994 0.22725193
20061250000 0.30108091 -0.078466386 6.4049666e-005 3.9206392e-005 -0.013898864 -0.0036182429 0.018907405 -0.26957154
20082500000 0.10535566 -0.042428706 5.4626507e-005 2.1808659e-005 0.0073759099 0.010277641 -0.34504348 -0.21295068
20103750000 0.14057715 0.013964252 -0.00015280177 -1.2868899e-005 -0.0049514831 -0.010156054 -0.33226758 -0.093403324
20125000000 -0.12258335 0.052093808 0.00022159856 -0.00012504865 -0.0022026491 0.014441297 -0.34414414 0.10648629
20146250000 0.056658924 -0.18090208 -0.0002218928 7.1180955e-005 0.010204942 -0.0065252213 -0.27820188 -0.28861177
20167500000 0.27679387 -0.082075067 6.8537629e-005 -9.9846657e-005 -0.0099252323 0.0022377109 -0.7979489 -0.15910128
20188750000 0.21320748 0.013094692 -0.00017717185 0.00012975231 0.013168432 0.0033198313 -0.024531268 -0.1170013
20210000000 0.22099015 0.10906746 -0.00023341678 -1.1817193e-005 -0.0058540613 -0.013536558 -0.56926471 -0.84403706
20231250000 0.026561884 0.36185879 6.4905471e-005 9.2193695e-005 -0.00077076914 0.012651534 -0.74792171 -0.14340384
20252500000 -0.11278902 0.18119074 -5.0859544e-005 0.00015751855 0.0057453616 -0.010697713 -0.44066015 -0.43214926
20273750000 0.038513653 0.11068389 -3.7517799e-005 -9.5052215e-005 -0.011572456 0.0067873662 -0.39260721 -0.37492284
20295000000 0.087892547 0.201681 0.00013425505 -4.474846e-005 0.013359893 0.0021227093 -0.44904181 -0.47110051
20316250000 0.034757711 0.18144076 2.9131646e-005 -6.0504957e-005 -0.007742737 -0.0070056077 -0.17646655 -0.55121177
20337500000 -0.1121235 0.25048319 0.00017502486 1.8705412e-005 0.0048107533 0.0075977622 -0.066071451 -0.79491562
20358750000 -0.30263588 0.35413051 -1.8707835e-005 -5.0317769e-005 0.00028387437 -0.013146924 -0.58259088 -0.68553215
20380000000 -0.32965505 0.088633806 1.0972853e-005 9.8693723e-005 -0.007632805 0.0079409899 -0.31181473 -0.35079885
20401250000 -0.15599087 0.08179792 5.0420011e-005 -7.2349445e-005 0.0070845527 -0.0045405226 0.29470539 -0.67375433
20422500000 -0.23389409 0.056301661 4.545724e-005 -0.00010472227 -0.011259662 0.00060012814 -0.20537107 -0.63152504
20443750000 -0.13103813 0.046300463 -4.522004e-005 -0.00014910911 0.0085693505 0.007483325 0.15042695 -0.19213091
20465000000 -0.25368038 0.22093083 2.3273644e-005 -0.00015759301 -0.00020774818 -0.0087268027 0.38867575 -0.83081394
20486250000 -0.37882391 0.071299545 -4.4836885e-005 -9.7822603e-006 -0.0028723239 0.0073611247 -0.32130024 -0.32845917
20507500000 -0.19538592 -0.024158759 8.5369547e-006 0.00010548426 0.0061170333 -0.0063269017 0.22945921 -0.10767227
20528750000 -0.14700797 -0.10533836 -8.4508712e-005 -9.8566279e-006 -0.009985948 0.00057223748 0.21783453 -0.16558702
20550000000 -0.098826498 -0.27170411 -4.4557866e-005 -4.2501797e-005 0.006123275 0.003961233 0.19619435 -0.05921502
20571250000 -0.093068443 -0.14324592 4.1341909e-006 1.8729282e-006 -0.0046477653 -0.0043805898 -0.016962146 0.039683938
20592500000 -0.11006362 -0.098328099 -8.0988124e-005 0.0001600953 0.0014435484 0.0094386498 0.36769351 0.22150476
20613750000 -0.094038658 -0.17857499 -1.5140834e-006 9.0782858e-005 0.0068451129 -0.0056017577 -0.23892131 -0.1819215
20635000000 0.24097413 -0.26505253 -8.2371489e-006 -3.1749092e-005 -0.0054438673 0.0016149204 -0.4109197 0.57948023
20656250000 0.094659373 -0.25022244 8.3356121e-005 1.2700541e-005 0.0081723994 0.0017321479 0.23756792 0.47370437
20677500000 0.19264656 -0.34201339 0.00014219606 4.4757518e-005 -0.00650306 -0.0093897218 -0.29435655 0.019644473
20698750000 0.25087574 -0.090283863 2.1884553e-005 -2.1799959e-005 -0.00034835795 0.011315715 -0.54638577 0.49529511
20720000000 0.11328453 -0.13949277 -4.9356579e-005 -1.9552292e-005 0.0045990963 -0.0084878495 -0.27910748 0.30383158
20741250000 0.34641412 -0.11177137 -8.0566984e-005 -1.0472783e-005 -0.0076636383 0.0062793694 -0.78540027 0.24067843
20762500000 0.35131851 -0.041068632 0.00021736768 -4.4641412e-005 0.01224348 0.00058749999 -0.6871106 0.29565117
20783750000 0.24544565 -0.076341994 3.5529152e-005 -0.00011228283 -0.0076333205 -0.0076024602 -0.47817543 0.34849527
20805000000 0.40457582 0.053483784 -6.0248713e-005 4.621832e-005 0.004993997 0.0079571363 -0.42201325 -0.060972948
20826250000 0.26381403 0.22137293 0.00011904167 0.0001298608 -0.00020847013 -0.012409895 -0.91106701 -0.21906567
20847500000 0.20820372 0.088107102 6.368813e-005 -0.00011866802 -0.0096623274 0.0079024425 -0.58943397 -0.016279999
20868750000 0.27640003 0.14934039 -0.00011090405 2.595667e-005 0.0095399376 -0.00094799872 -0.43686172 -0.7393893
20890000000 0.17663302 0.18494542 0.00012983179 -8.8474539e-005 -0.011439091 -0.0019536726 -1.0619069 -0.33734363
20911250000 0.22815779 0.10510878 4.8768379e-005 -1.840099e-005 0.0090484181 0.0084901098 -0.38728175 -0.18581237
20932500000 0.20891321 0.2898643 -8.310761e-005 -0.00015189296 -0.0017021107 -0.011941937 -0.47406992 -0.74604547
20953750000 -0.032013673 0.3441442 -3.8419021e-005 -3.9604678e-005 -0.0035362006 0.0086809956 -0.44379091 -0.61908829
20975000000 0.16985925 0.041531514 -0.00012449695 4.675976e-006 0.0068804333 -0.0059092161 -0.21269891 -0.55161154
20996250000 0.070806503 0.10696904 -8.1696329e-005 0.00021549268 -0.01185425 0.0011130988 -0.17479981 -0.56378776
21017500000 -0.10766481 -0.011478496 -0.00029431222 2.2807499e-005 0.0064784912 0.0075442037 -0.15646827 -0.72383118
21038750000 -0.014330704 0.057484165 0.00016154804 7.697961e-005 -0.0036196583 -0.0048972112 -0.2241822 0.16941923
21060000000 -0.20411354 0.1630791 5.9619699e-005 -6.2901992e-005 0.00039611949 0.008757282 0.58334178 -0.31956416
21081250000 -0.21967353 -0.023397824 -3.9778322e-005 9.757941e-005 0.0077357008 -0.0052378452 0.057937428 -0.62042719
21102500000 -0.083306171 -0.062215481 -0.00014815787 -0.00020515163 -0.0063243811 -0.00097518135 0.10298862 0.019655257
21123750000 -0.11496569 -0.13058321 6.2622001e-007 4.3684278e-005 0.0070282393 0.0032723087 0.44676754 -0.26622042
21145000000 -0.046930715 -0.33993351 1.2913795e-005 0.00014580379 -0.0051610172 -0.0085771652 -0.078210063 -0.36931673
21166250000 0.056946907 -0.16411111 3.4700879e-005 -3.8929244e-005 -0.00067468768 0.0098755183 0.1304235 0.37203684
21187500000 -0.035223879 -0.18686 -8.4176703e-005 -3.070974e-005 0.0059080427 -0.006891741 0.095635861 0.1006463
21208750000 0.020987934 -0.37738553 -0.00013660203 0.00020072084 -0.0084924242 0.0039163185 0.15455683 0.08152052
21230000000 0.036930162 -0.22489648 9.7534576e-005 -7.6850156e-005 0.013110821 0.001394209 -0.11725682 0.046911579
21251250000 -0.12976716 -0.44153556 7.7196433e-005 -4.0066883e-005 -0.0085247904 -0.011279793 -0.0063043865 0.52905422
21272500000 0.16670603 -0.38996249 -0.00015393621 3.0518549e-005 0.00092008663 0.01074867 0.15307218 0.016091596
21293750000 0.24690522 -0.17804304 6.4357366e-005 1.8684168e-005 0.0017223679 -0.013265518 -0.71655619 0.36424193
21315000000 0.24763864 -0.30040613 -2.8127637e-005 6.1672021e-005 -0.011780966 0.0085884435 -0.06711597 0.53963739
21336250000 0.31028727 -0.27373478 1.8013272e-005 -0.0002041947 0.012581063 0.0013273773 -0.24210449 -0.030144356
21357500000 0.18666762 -0.21218491 3.6092806e-005 -2.8944234e-005 -0.01049341 -0.0048010536 -0.6546033 0.29212612
21378750000 0.083602473 -0.29665428 -8.66841e-005 -5.0686227e-005 0.0065603377 0.010628908 -0.36278373 0.35794824
21400000000 0.29739138 -0.25630289 0.00022132276 1.5494272e-005 0.0011466892 -0.013604654 -0.59990656 -0.080616951
21421250000 0.204538 -0.11118881 0.00015323955 -0.0001258202 -0.0097542042 0.010621826 -0.73082888 0.12340673
21442500000 0.3072437 -0.22056441 0.00017472875 0.0001693839 0.011437494 -0.0052823047 -0.59768194 0.17653774
21463750000 0.343532 -0.022677517 0.00015980107 4.7656413e-005 -0.015043131 8.9993911e-005 -0.28977495 0.068242848
21485000000 0.088390701 -0.052687254 -0.00010294434 -4.6692821e-005 0.01149322 0.011494131 -0.63878423 -0.34646267
21506250000 0.19720294 -0.11627302 -3.5528679e-005 -0.00010919328 -0.0020026695 -0.011170018 -0.53318733 0.084064655
21527500000 0.084635079 0.060106128 1.9708013e-005 -2.1205251e-005 -0.0026881329 0.012292589 0.06026252 -0.24563336
21548750000 0.028216425 -0.080847643 -0.00027009146 -7.0844289e-006 0.011275592 -0.0095142871 -0.8206836 -0.51932406
21570000000 0.18920562 -0.064298466 -9.4738811e-005 1.6434582e-005 -0.01127963 -0.00045427404 -0.2043045 0.085899889
21591250000 0.0137898 -0.036089294 -1.4469621e-005 -0.00019076212 0.0089889374 0.0056777764 0.11749775 -0.37103862
