!Keysight Technologies,N5242B,MY47200105,A.14.00.23
!Date: Friday, May 10, 2024 11:03:37
!Correction: S11(C  2-Port  ) 
!S21(C  2-Port  ) 
!S12(C  2-Port  ) 
!S22(C  2-Port  ) 
!S2P File: Measurement: :
# Hz S  RI   R 50
18000000000 0.1316541 -0.020595195 -4.8837926e-005 8.4110536e-005 0.00021840661 0.00055277493 0.88816714 -0.42646039
18021250000 0.061848126 -0.22289024 7.4032955e-006 0.00015686866 -0.0021069481 0.004959113 0.31495139 -0.18913567
18042500000 0.22228995 -0.086772278 0.00010604507 5.0291932e-005 0.0071912105 0.0011715423 0.5032298 -0.043374147
18063750000 0.1389187 0.016283561 6.2989813e-005 -5.9470625e-005 0.00074196042 -0.0016250805 0.41651765 -0.18771796
18085000000 0.20956683 -0.051807594 0.00012446947 6.4527754e-005 0.0039980817 -0.0016340096 0.43232009 0.095747709
18106250000 0.33634502 0.0010619359 -1.2952683e-005 -7.9365716e-005 -5.611316e-005 -0.0064897751 0.48210323 -0.089285225
18127500000 0.20288895 -0.052416701 4.9644354e-005 -9.1031958e-005 -0.0068556755 0.00090831448 0.57600707 -0.20309478
18148750000 0.195723 -0.04646286 -2.823869e-005 0.00013009047 0.0040517449 0.00055552018 0.30548969 -0.36678031
18170000000 0.30179027 0.088284008 2.803017e-005 4.8862254e-005 -0.0058360887 3.05838e-005 0.097154126 -0.11189584
18191250000 0.15338945 0.19304772 -3.2343403e-005 0.00010263885 0.0055368943 0.0035842552 0.28420448 -0.077338897
18212500000 0.25158861 0.072452411 0.00017057479 6.4147389e-005 -0.00045975638 -0.0053671557 0.1032335 -0.11780903
18233750000 0.16037528 0.14772935 -4.2982458e-005 -6.537087e-005 -0.00088460534 0.0014962531 0.32867068 -0.15004233
18255000000 0.027404934 0.056603026 -1.3331583e-005 7.673897e-006 0.00035763442 -0.0047563892 0.43571571 -0.53660673
18276250000 0.14614154 0.0096363174 -9.0479836e-005 -3.3892207e-005 -0.0073300549 3.2185362e-005 0.15512833 -0.45961645
18297500000 0.064946972 0.15619986 -3.8148868e-005 0.00011616512 0.00097204978 0.004824562 0.0778502 -0.45897585
18318750000 0.033509534 0.12651065 -2.2474722e-005 6.2012659e-005 -0.0020125029 -0.00077006099 0.11707208 -0.33694333
18340000000 0.078463048 0.090521298 -3.449461e-006 -0.00022412337 0.00052311545 0.0069547123 0.14260265 -0.2385121
18361250000 -0.12349714 0.10462916 -6.2321844e-005 1.1916363e-005 0.0062728412 -0.0021767817 0.35996407 -0.47885448
18382500000 -0.077605337 -0.021189271 1.9709869e-005 -6.2496314e-005 -0.0029160103 -0.0013071855 0.39375666 -0.40371943
18403750000 0.0021331878 -0.016824005 -4.9389713e-005 -7.1290131e-005 0.003478223 0.00092128298 0.2792798 -0.67341143
18425000000 -0.035751969 0.022590153 1.7793413e-005 -3.0297168e-005 -0.0030196193 -0.003482851 0.066221207 -0.563232
18446250000 -0.023739979 -0.11717476 -5.7139943e-005 2.549137e-005 -0.0025593692 0.0054548327 0.50604302 -0.42018512
18467500000 0.013951886 0.010826067 -0.00013136771 5.5131823e-005 0.0059606689 0.00075944531 0.26605418 -0.54997033
18488750000 -0.199983 -0.029357031 5.6764326e-005 -7.5685755e-005 -0.0023562699 -0.0010186866 0.36164457 -0.39432076
18510000000 -0.090841673 -0.15013364 -4.785394e-005 7.1985713e-005 0.0073749106 0.0028422824 0.50610626 -0.55059654
18531250000 -0.036315564 -0.011003921 2.860307e-005 4.2932111e-006 0.00017993659 -0.0083746593 0.37933832 -0.54726839
18552500000 -0.055268746 -0.19009531 -2.4175275e-005 8.8504748e-005 -0.0029202166 0.00087641523 0.28760934 -0.53525156
18573750000 0.080733433 -0.1866699 -0.00010924626 -6.6803764e-006 0.0022142555 -0.0022378701 0.15918238 -0.195215
18595000000 0.084070437 -0.073255219 3.1805321e-005 -2.3554117e-005 -0.0069021843 -0.0023537788 0.44154364 -0.1117944
18616250000 0.043238968 -0.14342687 8.4721396e-005 -8.0257312e-005 0.0026680422 0.0055127991 0.3848145 -0.47121361
18637500000 0.16461138 -0.10289252 -0.00010852228 -6.4360276e-005 -0.00092669949 -0.0047595399 0.26967692 -0.15758546
18658750000 0.077368282 -0.064496458 -2.1898433e-005 2.9373799e-005 -0.00052051066 0.0054973601 0.50320083 -0.49565247
18680000000 0.08769156 -0.1999827 7.805747e-005 7.808263e-005 0.0045774584 -0.0052486965 -0.028820088 -0.44429964
18701250000 0.24145883 -0.091654278 -5.1495277e-005 8.5383253e-005 -0.0080924314 -0.0019802258 0.23988172 -0.10364424
18722500000 0.1441184 -0.059532169 -3.0382645e-005 2.4773402e-005 0.0024778824 0.0043208837 0.18073083 -0.29276812
18743750000 0.22897638 -0.15610157 -2.0378235e-005 3.0160387e-005 -0.0046678162 -0.0038970953 0.16249402 -0.25111699
18765000000 0.2177206 0.078449801 -8.2509978e-005 -2.1836548e-005 -0.0015826116 0.0085656336 0.19209836 -0.35442588
18786250000 0.089477897 -0.020397097 -4.5447996e-005 3.7504185e-005 0.0052038636 7.7299861e-005 0.055428635 -0.33838946
18807500000 0.23762773 -0.095509902 1.2006531e-006 4.2320866e-005 -0.0010501546 0.00065176055 0.033593301 -0.42679891
18828750000 0.13485774 -0.052116677 -0.00015882577 -3.3082131e-005 0.0040495829 0.00063662149 -0.023348806 -0.45703679
18850000000 0.15179968 -0.049321786 6.2071613e-006 -8.7449713e-005 0.0003294808 -0.0043743276 0.10644962 -0.10735232
18871250000 0.24031952 0.097750083 -3.6911228e-005 -9.4728486e-005 -0.0027927246 0.002916771 0.12632972 -0.59129477
18892500000 0.14231826 0.23657691 -6.2546627e-005 3.5922567e-005 0.0036616896 -0.0017405055 0.045486901 -0.42787999
18913750000 0.11496835 0.033274908 0.00013777739 0.00010129341 -0.0041507063 0.0015333763 0.20242934 -0.6115272
18935000000 0.083109066 0.0012586826 1.2604712e-005 8.9408852e-005 0.0060209148 0.0027433436 -0.076964058 -0.68036085
18956250000 -0.04203999 -0.009295743 8.2839424e-006 -0.0001349931 0.00025913335 -0.0048608477 -0.015625337 -0.50235122
18977500000 0.019428678 -0.061984956 6.6641282e-005 -4.2221847e-005 0.00092251122 0.0018686387 0.12770212 -0.4141095
18998750000 0.063959137 0.17594182 -0.00020087266 -6.418991e-005 0.0020700444 -0.0062576113 0.25294501 -0.53081787
19020000000 -0.043902766 0.14060546 -1.0156958e-005 1.567039e-005 -0.0061883735 -0.00065386097 0.13149342 -0.59897292
19041250000 -0.10743941 0.0026720841 -3.0180168e-005 0.00011445448 0.0024272737 0.0011146865 -0.0083524054 -0.49022609
19062500000 -0.11611909 0.074412026 3.3985256e-005 9.5978663e-005 -0.0061122775 -0.0018081797 0.28987461 -0.61872715
19083750000 -0.08585877 -0.17663851 9.4236439e-006 9.019635e-005 0.0024032954 0.0060727131 -0.040303402 -0.61464226
19105000000 0.07747481 -0.048905618 -2.7976745e-005 -6.9553302e-005 0.001279443 -0.004893566 0.025114877 -0.22227524
19126250000 0.057484329 0.049695265 -0.00017405213 -3.3911048e-005 -0.0030097729 0.0020187639 0.46614841 -0.56397939
19147500000 -0.067063726 -0.050043225 3.7039281e-005 9.2577277e-005 0.0031816228 -0.00090476155 0.10704163 -0.59303683
19168750000 -0.13601694 -0.11128579 3.6352823e-005 9.2443828e-005 -0.0060464162 -0.0030017744 0.16145392 -0.47252974
19190000000 -0.17363003 -0.19709834 -6.2177896e-005 6.3405823e-005 -0.00035205187 0.0063953097 0.14346743 -0.48447052
19211250000 -0.11925768 -0.29628035 -0.00012455494 4.7825291e-005 0.00031767949 -0.001516156 0.20496675 -0.45471483
19232500000 0.13489498 -0.15958142 4.5350538e-005 5.7570913e-005 -0.0014133754 0.0047007008 -0.099840671 -0.33620894
19253750000 -0.00687605 -0.11558276 -0.00016445114 4.6433961e-005 0.0054631033 0.0017236006 0.32021919 -0.27257887
19275000000 0.043279614 -0.20286584 2.6477199e-005 2.6811196e-005 0.00051115686 -0.0035671988 0.18981884 -0.52892023
19296250000 -0.00185358 -0.14144918 1.4815138e-005 5.9210438e-006 0.0005867079 0.0028877368 0.028176546 -0.39550546
19317500000 -0.13507938 -0.23786046 2.6301104e-005 0.0001140893 0.001995825 -0.0051396769 0.21104974 -0.35737807
19338750000 0.19685952 -0.29465997 -5.971103e-005 -8.0963429e-005 -0.0041621039 0.0020518943 -0.12634462 -0.53327918
19360000000 0.19128232 -0.21016558 -4.0954012e-005 5.166281e-005 0.0040817647 0.0020208415 -0.10748026 -0.19447848
19381250000 0.17262341 -0.23516755 -5.0574536e-006 5.3095286e-005 -0.0016171167 -0.003350273 0.16508836 -0.30576444
19402500000 0.20548844 -0.14044531 -0.000109697 2.2880555e-005 0.0018569713 0.0057829553 -0.053279527 -0.36932132
19423750000 0.037007991 -0.16338901 1.130669e-005 0.00010646668 0.0046899384 -0.0079945037 0.058539703 -0.4752225
19445000000 0.10160779 -0.16314992 2.6758953e-005 -7.0175793e-006 -0.005350708 -7.8445169e-005 -0.22307771 -0.36369765
19466250000 0.27266186 -0.11995823 0.00013621266 1.1978595e-005 0.00366003 -0.00044430676 -0.072275579 -0.36371502
19487500000 0.19981411 -0.062742382 -8.2812308e-005 -9.3157054e-005 -0.0056761359 -0.0060747303 -0.27637199 -0.47728264
19508750000 0.22609091 -0.16470769 -2.3174463e-005 -0.00020319325 -0.0024371389 0.0082624275 -0.19920649 -0.079369619
19530000000 0.14977878 0.033565473 -0.00010802051 0.00021621853 0.0021572504 -0.0037820418 0.12459029 -0.42336351
19551250000 0.056309719 -0.013750837 -0.00010712186 -9.4192117e-005 -0.0032917859 0.0032370535 -0.44877186 -0.73424441
19572500000 0.22550352 -0.028790385 -5.4533561e-005 7.3552779e-005 0.0046366588 0.0010692369 -0.18348262 -0.22791925
19593750000 0.16602218 0.10418189 0.00013197873 0.00011266325 -0.0023204207 -0.0055440706 -0.17689446 -0.63184291
19615000000 0.09007895 -0.016873702 -0.00019659783 3.9721286e-005 -0.0025511312 0.0049863453 -0.34307179 -0.41178888
19636250000 0.1088907 0.046789128 8.1709353e-005 4.2688895e-005 0.0018784503 -0.0030989067 -0.12745027 -0.36509219
19657500000 -0.10594575 0.097861208 3.4773722e-005 3.6900627e-005 -0.0065275133 0.0023036443 -0.17643981 -0.4095616
19678750000 -0.0013414681 0.011934146 6.0405462e-005 -0.00018923526 0.0042340527 0.0071066339 -0.068912245 -0.74704725
19700000000 -0.0092952177 0.089458227 1.087518e-005 -6.4781634e-005 0.0011653979 -0.0047748522 -0.38218546 -0.50324714
19721250000 -0.011765749 0.065815188 0.00011195101 4.8072681e-005 0.0014690264 0.0055187964 -0.072899282 -0.32688427
19742500000 -0.14167596 -0.04014039 3.0690393e-005 2.1996942e-005 0.0041859401 -0.0054196818 -0.14257844 -0.69945717
19763750000 -0.16752732 0.019218702 0.00010098728 -1.7014231e-006 -0.0044660755 0.00026214286 -0.29046801 -0.3371399
19785000000 -0.21467435 0.064192988 -0.00019320434 -1.2150323e-005 0.0045149759 0.00043925559 0.22595064 -0.28537858
19806250000 -0.074932173 -0.083165102 5.6295557e-006 0.00010639185 -0.0048324624 -0.0039448454 0.016364923 -0.82435954
19827500000 -0.087608628 0.022136919 -5.5779521e-005 9.2704431e-005 0.0028201898 0.0079736626 -0.057030626 -0.35473093
19848750000 -0.21546021 -0.12142073 -6.8779751e-005 5.7535388e-005 0.0031773001 -0.0069106468 0.063141569 -0.41126445
19870000000 -0.13462999 -0.12788922 -6.0503578e-005 -2.5879541e-005 -0.003215465 0.0029627555 -0.023114061 -0.41214311
19891250000 -0.25667855 -0.16974585 0.00014098175 -7.3306008e-005 0.0063368487 -0.0027861339 0.13570751 -0.29575792
19912500000 -0.099153154 -0.3140223 -6.7991925e-005 9.0465437e-005 -0.0067038159 -0.0060023605 0.10931402 -0.011074965
19933750000 -0.0036837659 -0.13961479 0.00010387679 0.00014500589 0.00016889133 0.0049417415 0.26535347 -0.48692822
19955000000 -0.096119687 -0.21003628 -0.00010196691 -4.8142778e-005 -0.0024789562 -0.0066241776 -0.31068748 -0.37277013
19976250000 -0.16032386 -0.23957765 0.00015779544 0.0001747744 -0.0030647805 0.0085642925 0.057217747 0.027837314
19997500000 -0.18888743 -0.22867903 -5.6686291e-005 -9.1521317e-005 0.0053310543 -0.0020056893 0.034658864 -0.16409926
20018750000 -0.073377341 -0.27123022 4.9220012e-005 8.1544851e-005 -0.0042238627 -0.00090470683 -0.14926223 -0.012130834
20040000000 0.15323983 -0.30709645 -6.723524e-005 7.4640018e-005 0.0042850785 0.0046877074 0.045085825 0.22767381
20061250000 0.30503067 -0.073281266 -0.00016025189 -0.00011364048 -0.00081626658 -0.0089992117 0.021257237 -0.27329659
20082500000 0.096963421 -0.043884031 4.9269453e-005 6.3348511e-005 -0.0073250914 0.0074492386 -0.34432942 -0.21722306
20103750000 0.13564177 0.012002808 -7.4304786e-005 -0.00016104097 0.0056845704 -0.00028343269 -0.33134058 -0.096095502
20125000000 -0.13963906 0.051662643 -9.3681811e-006 0.00011079657 -0.005381437 -4.693116e-005 -0.34197414 0.10567922
20146250000 0.051958967 -0.18109865 -3.5278907e-005 -0.00016131971 0.0044945818 0.0073679555 -0.27426943 -0.29258484
20167500000 0.27857924 -0.081392117 -6.5139408e-005 0.0001410223 0.0041056583 -0.0067152409 -0.80035329 -0.15994465
20188750000 0.21696076 0.0050376602 0.00010713779 5.4780514e-005 -0.0020946197 0.0047117993 -0.016263288 -0.11537077
20210000000 0.21999921 0.096904129 -6.5468485e-005 -0.00029695977 0.0069516138 -0.0042116535 -0.56544113 -0.8471536
20231250000 0.0094981678 0.35063717 -0.00014882413 0.00011337675 -0.0070580323 -0.0029837785 -0.74760193 -0.13956036
20252500000 -0.12745042 0.17690754 -9.7556091e-005 5.0153121e-005 0.0023500652 0.0064457813 -0.43831566 -0.431328
20273750000 0.037224445 0.11479483 -2.8893173e-006 -8.0575308e-005 0.001087832 -0.0066974005 -0.38914204 -0.37260795
20295000000 0.094463781 0.19684149 -0.00010981194 0.00016586095 -0.0041447338 0.0065975026 -0.45136541 -0.46969756
20316250000 0.039966103 0.17578825 0.00025418354 -0.00010655565 0.0096552186 -0.0025438596 -0.17472486 -0.54765213
20337500000 -0.11766696 0.23920041 0.00015188515 -0.00023085529 -0.0059935674 -0.0069600148 -0.065968215 -0.79338366
20358750000 -0.30873173 0.35194817 1.2799577e-005 -2.1874608e-005 0.0024245926 0.0058922982 -0.58791959 -0.68366635
20380000000 -0.33037347 0.083255 6.658143e-005 -0.00014712432 -0.0012725795 -0.0097651044 -0.3151058 -0.34544808
20401250000 -0.14979859 0.082804136 -1.3636173e-005 7.0825586e-006 -0.0071404474 0.0064340704 0.29608789 -0.67244917
20422500000 -0.2291664 0.055410203 -3.3698747e-005 -3.4980825e-005 0.004959757 -0.00041154205 -0.21060929 -0.6330905
20443750000 -0.12671541 0.04381441 -1.5587022e-005 0.00015122912 -0.0061915601 -0.00018297922 0.14822507 -0.18862484
20465000000 -0.26017961 0.22825369 -9.3332492e-005 0.0002389008 0.0050303973 0.0064728232 0.39047694 -0.83669639
20486250000 -0.37796542 0.079989009 0.00014253509 -5.0466078e-006 -0.00069351465 -0.0079953168 -0.32904604 -0.330589
20507500000 -0.18159918 -0.014810391 6.1551655e-005 8.9020228e-005 -0.0030032166 0.0046255714 0.22842719 -0.10897677
20528750000 -0.13798076 -0.10451324 -3.6283265e-005 0.00013386321 0.0039094025 -0.0012141451 0.21652474 -0.16987915
20550000000 -0.096693315 -0.28275651 -3.7492428e-005 -5.6204226e-006 -0.006672421 -0.0021239521 0.19421124 -0.064151071
20571250000 -0.11087652 -0.1399606 5.8095928e-005 1.3980817e-006 0.0026468376 0.0094256783 -0.019343985 0.035700884
20592500000 -0.12495701 -0.08683259 4.2361622e-005 -4.4892731e-005 0.0028871882 -0.0058499128 0.37087068 0.22011799
20613750000 -0.10383932 -0.17416243 9.2524882e-005 -3.2189906e-005 -0.0038399224 0.0066429707 -0.23965646 -0.19026218
20635000000 0.25167227 -0.2608403 -0.00017467892 1.7688895e-005 0.011247411 -0.0039608181 -0.41134721 0.57981825
20656250000 0.086525589 -0.25126404 6.1321157e-006 1.5436557e-005 -0.0073820828 -0.0037021432 0.2456976 0.47160858
20677500000 0.18305473 -0.34855485 5.3530886e-005 3.775673e-005 0.0053739436 0.0039053527 -0.2907902 0.01246818
20698750000 0.23960611 -0.082246013 -2.68691e-005 -0.00010689821 -0.0036095083 -0.0070943106 -0.54270846 0.49498358
20720000000 0.095018052 -0.14559358 0.00021621166 -2.8288125e-005 -0.0024456906 0.0075628706 -0.27188325 0.30296776
20741250000 0.34053323 -0.10638858 0.00013151373 -2.4575407e-005 0.0074376017 -0.0045768837 -0.78192723 0.23766464
20762500000 0.34650815 -0.038188029 -9.360753e-005 9.916722e-005 -0.0057323729 0.00025384067 -0.68405634 0.29768479
20783750000 0.23597215 -0.077890165 7.422785e-005 7.3566858e-005 0.0057193353 0.0015134509 -0.47180447 0.35324043
20805000000 0.40356192 0.053581938 -9.1924056e-005 -4.4316614e-005 -0.0017801381 -0.0076184911 -0.41492534 -0.059125878
20826250000 0.25591579 0.22461675 3.7766793e-005 0.00016041702 -0.0040405295 0.0036002486 -0.91040421 -0.21505862
20847500000 0.21246992 0.082924433 -7.7586044e-008 -6.2376799e-005 0.0028024348 -0.0032752836 -0.58713406 -0.0092514073
20868750000 0.28685296 0.13675685 0.0001718639 0.00024058633 -0.0081872502 0.00062772143 -0.43083802 -0.73735577
20890000000 0.17548399 0.17141464 -7.8542122e-005 0.00010762267 0.0035617705 0.0062568174 -1.0690143 -0.33064944
20911250000 0.23212142 0.091283403 2.7669848e-005 -2.8481647e-005 0.0010817043 -0.0045219194 -0.38593414 -0.17859602
20932500000 0.21159381 0.28499663 9.3025235e-005 -0.00016229748 -0.0041209552 0.0039515495 -0.47884768 -0.74528217
20953750000 -0.034964729 0.34309122 0.00017007471 5.7658697e-005 0.0078796167 -0.0016004244 -0.45176309 -0.61876673
20975000000 0.18858841 0.025696099 -0.00020193151 7.3444317e-005 -0.0087755779 -0.0044837482 -0.22056745 -0.55049616
20996250000 0.079715677 0.099777728 4.0459727e-005 0.00011293669 0.0034768854 0.0081334347 -0.1798844 -0.56048656
21017500000 -0.1044888 -0.021424647 -0.00014197422 8.4932217e-005 -1.097309e-005 -0.0073105395 -0.16308622 -0.72819525
21038750000 -0.013614545 0.052577805 0.00010434434 -9.7808108e-005 -0.0050072409 0.010871695 -0.23208374 0.17512459
21060000000 -0.20932639 0.168173 8.6593209e-005 6.0871222e-005 0.012511674 -0.0032862418 0.58378994 -0.32187712
21081250000 -0.21634109 -0.0299569 -3.4198911e-005 -0.00010145638 -0.0095664952 6.6269735e-005 0.052143831 -0.62901145
21102500000 -0.07791239 -0.065228663 -8.3951112e-005 -5.9039718e-005 0.011231501 0.0025547084 0.098262124 0.017470866
21123750000 -0.11362949 -0.12877493 2.73094e-006 0.00015320965 -0.0058079772 -0.0104418 0.44627279 -0.27370897
21145000000 -0.055064347 -0.34730056 9.8487108e-006 0.00022129186 -0.0017966841 0.0090582632 -0.082830243 -0.3813383
21166250000 0.048037983 -0.1495263 -9.9542594e-005 0.00022139528 0.0047564437 -0.0071873497 0.12620011 0.36938334
21187500000 -0.041661579 -0.17577629 -0.00017018484 6.4253756e-005 -0.0072553656 0.004477602 0.094796479 0.095322467
21208750000 0.01963399 -0.3808457 7.349829e-005 8.4173327e-005 0.0075693135 0.0016414573 0.15641128 0.075299807
21230000000 0.039784815 -0.21963438 -3.4921054e-006 4.9320377e-005 -0.00086985587 -0.004841472 -0.11679447 0.039836437
21251250000 -0.14895706 -0.44731614 -3.2654163e-005 -0.00012256397 -0.0017019949 0.00094177359 -0.0025940901 0.53030497
21272500000 0.15364398 -0.37878719 -1.5020574e-005 -0.00011067287 0.0029925455 -0.0025582185 0.16221905 0.010731571
21293750000 0.24021412 -0.16098863 -0.00013134434 -2.6262565e-005 -0.0072156484 -0.0028372488 -0.71620613 0.36206636
21315000000 0.24410924 -0.29748195 -0.00015350839 0.00018343022 0.00056117249 0.0060601546 -0.059696354 0.54110932
21336250000 0.32099205 -0.27895436 2.9172385e-005 -2.0841582e-005 0.00011857147 -0.0048283939 -0.23602709 -0.035023071
21357500000 0.19101977 -0.22178206 -4.2845957e-005 -7.8030222e-005 -0.0032313506 0.0075673107 -0.65364939 0.29339227
21378750000 0.071006693 -0.30631 -0.00024763547 6.6724373e-005 0.00756172 -0.0040070727 -0.35808867 0.36242718
21400000000 0.29679772 -0.26078793 5.5840621e-005 0.00014028943 -0.0078170784 -0.00069886894 -0.59709883 -0.079881594
21421250000 0.1945671 -0.1083107 3.3803346e-005 -9.9015073e-005 0.0058813808 0.0041303802 -0.72991538 0.12835208
21442500000 0.31136897 -0.23435679 -2.3878682e-005 0.00011743937 -0.0040802662 -0.0075914888 -0.59518892 0.18369301
21463750000 0.35098517 -0.033054363 0.00011091625 8.0716592e-005 -0.0026141906 0.010794619 -0.28489378 0.073945731
21485000000 0.078834437 -0.057634585 -0.00022984552 0.0002739433 0.0067854216 -0.0054086489 -0.63986921 -0.34352592
21506250000 0.20429353 -0.12216302 5.5594384e-005 3.8392121e-005 -0.0048927912 0.0046246597 -0.53522342 0.091342501
21527500000 0.085018575 0.063631743 -0.00013268704 0.00010362083 0.0088898791 0.00094152387 0.063823096 -0.24132775
21548750000 0.035793118 -0.086610906 7.3076422e-005 -7.0753587e-005 -0.003872975 -0.0056672711 -0.83015954 -0.51990014
21570000000 0.20363812 -0.079969339 -1.259116e-005 2.3559624e-005 0.0022136746 0.0043976358 -0.20706201 0.090677969
