!Keysight Technologies,N5242B,MY47200105,A.14.00.23
!Date: Friday, May 10, 2024 11:01:47
!Correction: S11(C  2-Port  ) 
!S21(C  2-Port  ) 
!S12(C  2-Port  ) 
!S22(C  2-Port  ) 
!S2P File: Measurement: :
# Hz S  RI   R 50
18000000000 0.13371597 -0.02085886 0.00014625415 7.5628082e-006 -0.0077610947 0.0062659197 0.89298522 -0.42717427
18021250000 0.058449429 -0.22026381 -0.00019451855 1.63076e-005 0.0069058966 0.0040772036 0.31319374 -0.18854681
18042500000 0.22288842 -0.090683058 3.7334859e-005 7.9873549e-005 -0.0008269411 -0.003333607 0.50420403 -0.041146286
18063750000 0.13876764 0.016991543 -1.4380173e-005 -8.2567029e-005 0.0045835879 0.006161591 0.41689184 -0.18731467
18085000000 0.20563973 -0.052640408 -8.6343032e-005 9.5144067e-005 0.0051922593 -0.01066 0.43350455 0.09819898
18106250000 0.33697438 -0.0026484428 7.1018178e-005 0.00015066963 -0.0061447225 0.00056136871 0.48390156 -0.088430233
18127500000 0.20270056 -0.049094971 -4.2435935e-005 -0.00011204417 0.0019850296 -0.0015908888 0.57906568 -0.20242031
18148750000 0.19531868 -0.050302356 2.8847986e-005 -5.9580638e-005 -0.0047394922 -0.0021303685 0.30578128 -0.36764035
18170000000 0.30279902 0.085600957 -8.6872962e-005 -6.0448609e-005 -0.00042124771 0.0073933075 0.095745757 -0.10917364
18191250000 0.15342957 0.19353807 2.1466712e-005 -6.6162233e-005 0.0052983281 -0.0058342502 0.28572014 -0.073747516
18212500000 0.24981055 0.06889268 2.8684631e-006 3.4748173e-005 -0.0053821225 0.0028763402 0.10345862 -0.11515875
18233750000 0.16401257 0.14789173 2.7546701e-005 7.2500923e-005 0.007822359 -0.0021835945 0.33018523 -0.14783794
18255000000 0.025949594 0.057932951 -3.8817205e-005 -8.2203449e-005 -0.0093741603 -0.0065993052 0.43864748 -0.53631335
18276250000 0.14642681 0.0075809117 -5.8294521e-005 5.3868109e-005 -1.3762219e-005 0.0073746732 0.15552936 -0.45949963
18297500000 0.068164505 0.15899445 4.0538966e-005 -6.3658255e-005 -0.001553113 -0.0054971403 0.077390186 -0.45824254
18318750000 0.030295534 0.1267478 -2.0777235e-005 7.9361882e-005 -0.0057529518 0.0094390791 0.11621094 -0.33510721
18340000000 0.080305383 0.090347312 5.4865319e-005 -8.2596898e-006 0.0093239322 0.00041495266 0.14241357 -0.23633523
18361250000 -0.1209016 0.10849035 3.8168444e-005 0.00012398834 -0.0049129911 -0.0011956902 0.35975048 -0.47893476
18382500000 -0.080295175 -0.020773318 -7.4880609e-006 -5.9649577e-005 0.0069750529 0.0041929944 0.39392218 -0.40232038
18403750000 0.0066503137 -0.015570022 -1.3523518e-005 3.8621952e-006 -0.0019915325 -0.0087866094 0.2783612 -0.67451388
18425000000 -0.036680728 0.024743572 -0.00014845433 -5.976007e-005 -0.0040419381 0.0069515025 0.064195096 -0.56374925
18446250000 -0.025637303 -0.11790718 2.4684312e-005 3.0962059e-005 0.0049426216 -0.0029713479 0.50770491 -0.4189657
18467500000 0.015360669 0.012166419 -3.8190759e-005 -3.2971762e-005 -0.0044521238 0.0037371293 0.26635036 -0.55033046
18488750000 -0.20388564 -0.025932232 0.00010855355 -0.00015834588 0.007585533 0.0029800278 0.36313584 -0.39435691
18510000000 -0.090858318 -0.15143804 7.2681291e-007 0.0001105742 0.00040738384 -0.0063586207 0.5066846 -0.55325514
18531250000 -0.034966588 -0.010698752 2.1400461e-005 -7.3877498e-005 0.00035049513 0.0024867803 0.37959927 -0.54840839
18552500000 -0.058626089 -0.18975578 1.0591351e-005 -7.950174e-005 0.0034120404 -0.0080034127 0.28807172 -0.53677088
18573750000 0.081638575 -0.19008212 4.9560407e-005 -3.5811358e-005 -0.0090138456 0.0013334567 0.1585992 -0.19419166
18595000000 0.083240047 -0.071438253 -0.00014756656 0.00013114604 0.005056533 0.00036805641 0.44374743 -0.10935924
18616250000 0.042166598 -0.14521818 4.4990007e-005 0.00015031516 -0.0061987485 -0.0026262365 0.38647604 -0.47202423
18637500000 0.16638497 -0.10551947 -4.3881951e-006 1.5412948e-005 0.0013592602 0.0067789489 0.27149171 -0.15587007
18658750000 0.077384569 -0.064742729 5.2178355e-005 -6.1921346e-005 0.0039169798 -0.0053207302 0.50672024 -0.49669272
18680000000 0.087051153 -0.20415379 -4.1082145e-005 -0.00012483157 -0.0051112603 0.0012638458 -0.029731749 -0.44355908
18701250000 0.24258925 -0.092764869 9.8498231e-006 -3.4011144e-005 0.0038770628 -0.0013909242 0.24123706 -0.10073422
18722500000 0.14404434 -0.059528105 -8.7323657e-005 9.2174159e-005 -0.0075814687 -0.0026215934 0.18272789 -0.29153413
18743750000 0.23017076 -0.15895727 -1.2144385e-005 -0.00011633345 0.0001793827 0.0070438101 0.16386254 -0.24974908
18765000000 0.22075965 0.078651167 -4.4809774e-005 -3.5170964e-005 0.0002739034 -0.0028892595 0.19323233 -0.35404938
18786250000 0.09012226 -0.021024352 3.9248503e-006 3.5545836e-005 -0.0028126927 0.0080498559 0.054836228 -0.33685943
18807500000 0.2400634 -0.097340308 -4.4787397e-005 -9.0920847e-005 0.010010956 -0.0014390296 0.033094447 -0.42593712
18828750000 0.1386466 -0.049352694 -5.0408028e-007 -5.5191413e-005 -0.0060956893 -0.004006675 -0.023868687 -0.45535573
18850000000 0.15323798 -0.050580766 -7.057016e-005 8.8573717e-005 0.005538444 0.0056018382 0.10695316 -0.10294205
18871250000 0.24449478 0.096773162 3.8816816e-005 -1.1060247e-005 -0.0022101949 -0.0082390681 0.12733275 -0.59141695
18892500000 0.14369337 0.23675095 -3.6956757e-005 -2.6393463e-005 -0.0035653014 0.0072033047 0.044769932 -0.42677194
18913750000 0.11393248 0.03227387 5.8208948e-006 0.00010391122 0.0065240548 -0.0021658209 0.20268826 -0.61203104
18935000000 0.08449246 0.0031477006 -2.2646014e-005 -0.0001135159 -0.0045644008 -0.00039018234 -0.079547651 -0.68105161
18956250000 -0.043406583 -0.0063491394 2.3775594e-005 8.8376735e-005 0.0068920786 0.0037815312 -0.017549176 -0.50148684
18977500000 0.018861303 -0.06164483 -7.4984382e-005 -8.6190106e-005 0.00063134689 -0.0096647888 0.12719858 -0.41261694
18998750000 0.064757563 0.1790514 9.3553739e-005 9.7804177e-006 -0.004121366 0.0040488518 0.25383195 -0.53082389
19020000000 -0.046446797 0.14219335 7.4869663e-006 0.0001664727 0.0041465671 -0.0055826455 0.13098547 -0.60027242
19041250000 -0.10799813 0.0037005667 1.7481689e-005 0.00010347027 -0.0088285217 -0.00043957902 -0.0099198436 -0.49029419
19062500000 -0.11644631 0.076397665 8.7166401e-005 0.00013315417 0.002505353 0.0057348148 0.29107922 -0.61992276
19083750000 -0.088894844 -0.17577006 -7.0541995e-005 6.3421197e-005 0.00013598386 -0.0049275537 -0.041226786 -0.6162855
19105000000 0.077971175 -0.050114404 -0.00014151669 -8.2121456e-005 -0.0032674847 0.0063912245 0.025279613 -0.22016056
19126250000 0.055323184 0.050742213 -0.00010012503 9.7091297e-006 0.0066040079 -0.0044890521 0.46943581 -0.56655931
19147500000 -0.069817796 -0.05229865 -4.3207717e-007 8.7972061e-005 -0.0073963432 -0.00092188356 0.10730831 -0.59496397
19168750000 -0.13472386 -0.1119872 8.6908367e-005 0.00010213129 0.0030497173 0.0032668042 0.1623449 -0.47388104
19190000000 -0.17568801 -0.1971844 4.1038391e-005 5.7141711e-005 -0.0042468896 -0.0042089461 0.14459375 -0.48528275
19211250000 -0.11914162 -0.29977933 7.6156932e-005 1.3800311e-005 -0.0023718751 0.0092449142 0.20683569 -0.45556796
19232500000 0.13569137 -0.16101858 -3.3285392e-005 -3.8873418e-006 0.007123604 -0.0024339431 -0.10065315 -0.33568934
19253750000 -0.0078573143 -0.11823653 -0.00021175468 -6.3159947e-005 -0.0060065198 0.0026170942 0.32381773 -0.270969
19275000000 0.044663422 -0.20503703 -8.5761079e-005 5.4157466e-005 0.01016489 0.0017005979 0.19226538 -0.53008497
19296250000 0.00049704209 -0.14110331 0.00013354192 -0.00011720975 -0.0045087598 -0.0070669781 0.028864963 -0.39525115
19317500000 -0.13392514 -0.24009772 6.7361329e-006 -2.6260113e-005 0.00025777932 0.0062901289 0.21366784 -0.35661638
19338750000 0.20014766 -0.29708421 -0.00019125782 2.1481359e-005 0.0032907843 -0.0059913229 -0.12673259 -0.53447253
19360000000 0.19153282 -0.20936599 0.00013121354 -7.2716655e-005 -0.0079529714 0.0035514443 -0.10809475 -0.19243215
19381250000 0.17346105 -0.23555136 -4.8845763e-005 -5.2334541e-005 0.0097805634 0.0019375618 0.16711475 -0.30471903
19402500000 0.20987223 -0.13963474 9.4257739e-005 -7.0968563e-005 -0.0048890659 -0.0046458007 -0.053443637 -0.36930427
19423750000 0.037198357 -0.16167538 -1.8857354e-006 4.3253378e-005 0.0051874784 0.0040367013 0.059417672 -0.47597855
19445000000 0.10415445 -0.16376145 -1.3189439e-005 1.5625987e-005 0.0011000668 -0.010183982 -0.22447126 -0.36335346
19466250000 0.2739647 -0.11719406 -2.5462383e-005 -5.0847269e-005 -0.0070899627 0.0041609132 -0.071337566 -0.36343852
19487500000 0.19794226 -0.061057784 -2.2371903e-005 -6.2264233e-005 0.0060436418 -0.0038602625 -0.27696583 -0.47863239
19508750000 0.22743669 -0.163259 -9.9491408e-005 0.00012658809 -0.010851838 -0.00027335106 -0.20023715 -0.077583373
19530000000 0.14987282 0.03756988 5.6726651e-005 -6.6032771e-005 0.0046222014 0.0068477048 0.12756209 -0.42368037
19551250000 0.055558722 -0.013790618 -0.00018886091 -5.4851891e-005 0.0016699444 -0.0065006595 -0.45064557 -0.73724085
19572500000 0.22631124 -0.029438691 -1.6372835e-006 0.00015523199 -0.0053085643 0.0065056309 -0.18358593 -0.22663344
19593750000 0.1628897 0.10773477 9.5758725e-005 0.00010888666 0.009067311 -0.0050044516 -0.17685509 -0.6333254
19615000000 0.088338219 -0.01908336 0.0001532881 1.6951548e-005 -0.011213597 -0.0020285598 -0.34327346 -0.4120484
19636250000 0.10734653 0.04789963 0.00023652625 -6.4203858e-005 0.0051850006 0.0070000202 -0.12716816 -0.36475107
19657500000 -0.10877167 0.098907679 -3.9268991e-005 -1.6539574e-005 -0.0030891879 -0.0075750886 -0.17614268 -0.40860829
19678750000 -0.0036221207 0.008740454 -2.0565423e-005 8.7937326e-005 -0.0044094394 0.013010608 -0.066915914 -0.74767202
19700000000 -0.0097801182 0.092054419 0.00031938212 8.1036153e-005 0.012304946 -0.0048749708 -0.38324633 -0.50350308
19721250000 -0.014441634 0.064158604 -8.1071739e-005 -7.5897246e-005 -0.0086312611 -1.6307913e-005 -0.07163547 -0.32478192
19742500000 -0.14033529 -0.042261653 5.0892682e-005 3.018124e-005 0.0090896059 0.004015136 -0.14215785 -0.70029855
19763750000 -0.16736126 0.020216227 0.000141399 2.2281549e-005 -0.0027315076 -0.010749019 -0.29126552 -0.33573782
19785000000 -0.21742907 0.059265826 0.00010018215 -0.00014581843 -0.0030491902 0.0094948746 0.22806251 -0.28347543
19806250000 -0.073330566 -0.083448447 0.00010700223 4.6345896e-005 0.0061252788 -0.006306815 0.016985968 -0.82606524
19827500000 -0.088712163 0.023461411 -7.4265583e-005 0.00013835377 -0.007683842 0.0046410006 -0.057810124 -0.35380033
19848750000 -0.21545352 -0.12180574 -4.9649534e-005 8.5990148e-005 0.0099137332 0.0015233102 0.063712791 -0.41054082
19870000000 -0.12846702 -0.12603964 -0.00034121558 -3.2230073e-005 -0.0038119596 -0.0077423225 -0.023406597 -0.41215378
19891250000 -0.25616035 -0.16946349 -8.3319312e-005 -6.2658197e-005 0.0014216272 0.0063614114 0.13577119 -0.2957105
19912500000 -0.095906965 -0.31531405 0.00022253804 3.4917059e-005 0.0029118464 -0.011537959 0.10798237 -0.0091115125
19933750000 0.0010408832 -0.13906489 -0.0001349075 1.7635259e-005 -0.0095161414 0.0040350235 0.26602623 -0.48927614
19955000000 -0.097624995 -0.20791821 3.0458188e-005 0.00024230653 0.0049615311 0.00033485534 -0.3136515 -0.37533244
19976250000 -0.15469928 -0.24082291 5.3662163e-005 0.00010340596 -0.0056325207 -0.0013135901 0.057022274 0.029344315
19997500000 -0.18801269 -0.22594769 -5.755245e-005 2.9406809e-005 0.0024184291 0.0075111901 0.034485079 -0.16525707
20018750000 -0.07494545 -0.27197716 -0.0001178016 -0.00022583643 0.0029816295 -0.0069586234 -0.14953257 -0.013101465
20040000000 0.15632352 -0.3085404 -5.8319507e-005 -1.2273103e-005 -0.0052595465 0.0060615088 0.046610691 0.22825265
20061250000 0.29954123 -0.06910979 -8.5907435e-005 -0.0002736428 0.0068051964 -0.004246904 0.023435308 -0.27552915
20082500000 0.096105181 -0.044730633 -9.6782744e-005 -9.1332258e-005 -0.010917506 -0.0012807118 -0.34364948 -0.2190443
20103750000 0.13515855 0.014389426 9.4866387e-005 3.2046217e-005 0.0041156374 0.0085175876 -0.3306219 -0.097262032
20125000000 -0.14252771 0.055128202 -6.9341804e-005 -0.00014940269 0.0007552891 -0.0068405257 -0.34124526 0.10733049
20146250000 0.050822891 -0.18667924 -6.349873e-005 4.9413735e-005 -0.0039201016 0.0094999596 -0.27105311 -0.29352173
20167500000 0.27634791 -0.079628758 0.00010735587 -1.5829266e-005 0.012116778 -0.0033128776 -0.80180007 -0.1592792
20188750000 0.21322592 0.0045040059 -0.00011059243 -0.00015727534 -0.0074075251 -0.0018346668 -0.011075639 -0.11325793
20210000000 0.22014625 0.092296787 4.8970443e-005 5.2437452e-005 0.0071274741 0.0040322961 -0.56580275 -0.84903747
20231250000 0.0090041636 0.35361692 4.0893519e-005 0.00011496555 -0.0035474324 -0.0097713321 -0.74749583 -0.13554251
20252500000 -0.12927583 0.17168023 -1.5533396e-005 -6.5807646e-005 -0.0037645015 0.0093619628 -0.43709084 -0.43016922
20273750000 0.039915048 0.11166441 6.5392538e-005 4.592157e-006 0.0077600004 -0.0051567131 -0.38777378 -0.37003976
20295000000 0.095475525 0.19703797 6.575507e-005 2.3419556e-005 -0.0085145878 0.0012032565 -0.45273268 -0.4681811
20316250000 0.038302038 0.1683154 -2.6788237e-005 -6.1513951e-005 0.011114923 0.0037416667 -0.17423585 -0.5457319
20337500000 -0.11100265 0.24046601 -1.6005541e-005 7.9620695e-006 -0.0031010974 -0.012465289 -0.067103811 -0.79224217
20358750000 -0.30860367 0.3501904 0.00011735664 0.00016852272 -0.0026829988 0.0087918788 -0.59315318 -0.68291587
20380000000 -0.32684571 0.079531118 4.6162542e-005 0.00019371757 0.0048776609 -0.009272729 -0.31814483 -0.34184706
20401250000 -0.14390525 0.08432395 0.00010373817 0.00014599209 -0.012001932 0.002247195 0.29682249 -0.67145437
20422500000 -0.22944206 0.054229259 6.2286344e-005 4.1555213e-005 0.0071194028 0.0051108408 -0.2133643 -0.63270676
20443750000 -0.12042293 0.045018174 3.6186848e-006 -4.1096169e-005 -0.0052173245 -0.0058596414 0.14688408 -0.18552814
20465000000 -0.25440049 0.23129775 -4.8859951e-005 5.5914192e-005 0.00057801884 0.0098914737 0.39144641 -0.83917964
20486250000 -0.3789475 0.079095043 9.9829478e-005 -9.7064541e-005 0.004526 -0.0091803474 -0.33397987 -0.33190432
20507500000 -0.17723185 -0.013302743 -9.7879689e-005 2.9112134e-005 -0.0083989482 0.0030975016 0.22835331 -0.10957151
20528750000 -0.14105955 -0.098174527 -0.00017450497 5.7623045e-005 0.0073816078 0.0019163537 0.21707812 -0.17170148
20550000000 -0.099211626 -0.2796286 -0.00011960345 -0.00020003636 -0.0076229945 -0.0059416629 0.19357949 -0.066355027
20571250000 -0.10436306 -0.13575079 5.4040182e-005 2.2607073e-005 0.0009991196 0.012957284 -0.020922001 0.033449538
20592500000 -0.1303052 -0.081802815 3.9606137e-005 -1.44703e-005 0.0058835703 -0.0078609241 0.37243199 0.21932134
20613750000 -0.10323335 -0.17576344 9.602325e-006 8.8807763e-005 -0.0071450244 0.0071165725 -0.2400451 -0.19563431
20635000000 0.24591732 -0.2567654 -3.9118448e-005 -4.0820432e-005 0.013750913 -0.002827714 -0.41180754 0.580302
20656250000 0.078715533 -0.24588424 -7.2811352e-005 5.4499495e-005 -0.0080165314 -0.0058701239 0.25004598 0.47066507
20677500000 0.1832075 -0.34565893 4.9411715e-006 -0.00023305442 0.0043178122 0.0060684839 -0.28905419 0.0085710827
20698750000 0.23723081 -0.078654774 -0.00028884466 -4.570737e-006 -0.0013028908 -0.0084940679 -0.54069602 0.49354783
20720000000 0.091886513 -0.14775141 3.1155614e-005 0.00011971106 -0.0052170004 0.0076632476 -0.2684688 0.30221432
20741250000 0.33880505 -0.11104459 9.2773444e-005 0.00019201176 0.0094616078 -0.0034107869 -0.77954584 0.23532537
20762500000 0.34151506 -0.03440294 -5.0430706e-005 0.00011681762 -0.0067274123 -0.0019435433 -0.68314499 0.29858622
20783750000 0.23322885 -0.0840405 -2.822518e-005 -1.8661211e-005 0.0052802078 0.0037413826 -0.46848905 0.35703275
20805000000 0.40394565 0.052553769 -6.5255175e-005 -2.808257e-005 0.00054148393 -0.0095513565 -0.41064781 -0.05714944
20826250000 0.25440091 0.22174014 4.4510052e-005 6.172838e-005 -0.007443374 0.0045663919 -0.91103274 -0.2126697
20847500000 0.21111767 0.074541479 6.6742607e-005 9.9962148e-005 0.0064097857 -0.0027219648 -0.58591896 -0.0046879216
20868750000 0.28874865 0.13740477 -8.6156426e-005 -0.00013119982 -0.011368872 -0.00180817 -0.42732394 -0.73406243
20890000000 0.17468016 0.16758198 7.313794e-005 -4.9627004e-005 0.0055731367 0.0097415922 -1.0723525 -0.32644701
20911250000 0.23621264 0.088310875 7.9280348e-005 -0.00011776151 0.00047148473 -0.0081904801 -0.38572511 -0.17388754
20932500000 0.21742612 0.2866962 -8.9536705e-005 5.9534374e-005 -0.0051092422 0.0078133214 -0.48188502 -0.7451582
20953750000 -0.033820778 0.33717537 -5.4302302e-005 -0.00012088887 0.0098852394 -0.0042187888 -0.45650059 -0.61825597
20975000000 0.19451122 0.027394118 -1.4771486e-005 2.8766051e-005 -0.011353791 -0.0033867788 -0.22532777 -0.54904807
20996250000 0.083434612 0.10270668 -5.5640676e-006 9.4308089e-005 0.0060183457 0.0090724984 -0.18499668 -0.55898815
21017500000 -0.10274689 -0.021013165 -9.3102302e-005 0.00019869741 -0.0017597674 -0.0098958053 -0.16831243 -0.73195225
21038750000 -0.0044625327 0.058500879 7.6425589e-005 -0.00016855866 -0.0040382133 0.014470911 -0.23872706 0.17808418
21060000000 -0.20919846 0.17366347 -0.00011332409 -0.00010893449 0.013311803 -0.0066446965 0.58500606 -0.32482609
21081250000 -0.21244375 -0.027890673 -1.4822375e-005 -9.4538351e-005 -0.011039007 0.0024525253 0.048470594 -0.6369155
21102500000 -0.074181557 -0.058833629 -0.00014953534 -6.9292706e-005 0.01373935 0.001644609 0.094553031 0.014913077
21123750000 -0.11989561 -0.12341374 2.8426031e-005 -8.5079919e-006 -0.0085729025 -0.011795532 0.44568166 -0.28044969
21145000000 -0.051441625 -0.34189475 -9.6148069e-005 0.00010433982 -0.00028538317 0.011680632 -0.085756682 -0.39067137
21166250000 0.046223499 -0.14279 -9.2215865e-005 4.218868e-005 0.0047234399 -0.010312994 0.12443246 0.36657989
21187500000 -0.048678409 -0.1747251 0.00014691005 0.00019299095 -0.0095679173 0.0068465997 0.094627336 0.090370201
21208750000 0.018502623 -0.37949318 1.3668529e-005 8.981784e-005 0.011318502 0.00040972413 0.15844575 0.070815742
21230000000 0.028265834 -0.21456534 0.00025661121 6.2050713e-005 -0.0052470053 -0.0063269953 -0.11592612 0.033746675
21251250000 -0.15273951 -0.44488889 -0.00010772133 5.4684015e-006 0.0015965421 0.0045059994 0.0010692016 0.53030759
21272500000 0.1529139 -0.37761661 0.00017023661 0.00013165413 0.0017847616 -0.007807164 0.16933936 0.0061079594
21293750000 0.23261991 -0.1601962 -0.00016538007 9.9000317e-005 -0.0086426316 0.0031972143 -0.71481049 0.3610884
21315000000 0.24091032 -0.30410999 2.2648734e-005 -6.2065621e-005 0.0050484501 0.001724042 -0.055098176 0.54224598
21336250000 0.3160193 -0.27876893 -1.5458449e-005 0.00011911634 -0.0063275746 -0.0031962004 -0.23082963 -0.038098212
21357500000 0.18358824 -0.22427703 0.00015371609 -0.00034241116 0.0039996323 0.0093146618 -0.65187573 0.29402101
21378750000 0.074142598 -0.31284606 -4.7369158e-005 9.0920657e-005 0.0026569176 -0.0086471206 -0.35494626 0.36542237
21400000000 0.29636815 -0.25931811 -0.00018711554 -5.6711033e-005 -0.0060131657 0.0061189104 -0.59444541 -0.078849107
21421250000 0.19420394 -0.11740302 0.00013933038 0.00018152218 0.0082052015 -0.0020513686 -0.72860307 0.13284481
21442500000 0.31452459 -0.2381745 0.00013721897 0.00014295409 -0.0090114642 -0.0042287153 -0.59364301 0.18919069
21463750000 0.35148194 -0.032413714 -0.00015662363 -3.1757765e-005 0.003761007 0.011057826 -0.28145847 0.078644194
21485000000 0.084775016 -0.066183768 -0.00017451696 0.00022148702 0.0009321855 -0.0095311804 -0.6408996 -0.34029856
21506250000 0.21227649 -0.12201282 -0.00012818379 -0.00014120263 -0.0024055454 0.011007893 -0.53583843 0.095565014
21527500000 0.08953955 0.062832683 0.0002025391 9.6992764e-005 0.011398622 -0.0064932196 0.065033659 -0.23783521
21548750000 0.039470237 -0.088897064 -9.8255303e-005 0.00022686592 -0.009609757 -0.00028209144 -0.83425403 -0.51878536
21570000000 0.20963578 -0.072138935 -6.7434332e-005 0.00017619471 0.0091663366 0.0033065814 -0.20884913 0.094422258
21591250000 0.017805884 -0.038339127 -0.00023744807 -5.0079183e-005 -0.0065765842 -0.010600167 0.11619743 -0.37108007
