!Keysight Technologies,N5242B,MY47200105,A.14.00.23
!Date: Friday, May 10, 2024 11:05:25
!Correction: S11(C  2-Port  ) 
!S21(C  2-Port  ) 
!S12(C  2-Port  ) 
!S22(C  2-Port  ) 
!S2P File: Measurement: :
# Hz S  RI   R 50
18000000000 0.13120215 -0.022153135 -0.00013795 -4.4523049e-006 0.0015068003 0.00040907096 0.88346636 -0.42351532
18021250000 0.064760163 -0.22299863 -9.9884615e-005 4.1589625e-005 -0.0033499508 0.0038240785 0.31723028 -0.18987153
18042500000 0.22300062 -0.084744215 6.6326429e-006 0.00013530153 0.0077667213 0.0028099031 0.50209594 -0.04610116
18063750000 0.14076662 0.015360263 -5.7827008e-005 -2.3271088e-005 0.00067550055 -0.0029055467 0.4159075 -0.18774454
18085000000 0.21133839 -0.05152883 -6.7809844e-005 2.6071746e-005 0.0030022438 -0.0012516896 0.43162805 0.092972293
18106250000 0.33729082 0.0011617573 0.00011431373 2.6734979e-005 0.00070815324 -0.0056645074 0.4807809 -0.090132147
18127500000 0.20374475 -0.052248381 -6.5230553e-005 2.6505713e-005 -0.0073284353 -0.00069636648 0.5732004 -0.20375375
18148750000 0.19723378 -0.043634132 5.5507742e-005 -2.7202723e-005 0.0037855324 0.0024677275 0.30522028 -0.36574084
18170000000 0.30265683 0.088482015 -3.7993654e-005 2.6159239e-005 -0.0046083597 -0.0012780791 0.098859616 -0.11516084
18191250000 0.15592313 0.19268151 -4.4859229e-005 0.00020549235 0.0038926445 0.0040313206 0.28201166 -0.080605052
18212500000 0.25306436 0.07387916 -8.4759464e-005 -1.7284689e-005 0.0018990318 -0.0047740517 0.10379171 -0.12014856
18233750000 0.16010758 0.14665042 -1.9351168e-005 9.8849581e-005 -0.0030849501 0.00011684884 0.32653779 -0.15213259
18255000000 0.028910443 0.057159554 -4.514902e-005 -1.1345184e-005 0.0022638603 -0.003149309 0.43175727 -0.53494358
18276250000 0.14652668 0.010937744 -0.00019748868 0.00022291204 -0.0080367597 -0.001505116 0.15537466 -0.45968157
18297500000 0.064120814 0.15577035 -3.1795871e-006 3.4750726e-006 0.00091214746 0.0059156665 0.078334548 -0.45990136
18318750000 0.033663489 0.12677358 5.0334278e-005 7.1859577e-005 -0.0012637841 -0.001465328 0.11752152 -0.33819285
18340000000 0.076471642 0.089655027 5.6794517e-005 1.9530737e-005 -0.00043702457 0.0070088389 0.14303279 -0.24119864
18361250000 -0.12439707 0.10343497 -2.2841637e-005 5.1057174e-005 0.0066891932 -0.0021693825 0.35884777 -0.47807914
18382500000 -0.078033037 -0.021263868 5.9839117e-006 -0.00011761529 -0.0028773937 -0.0012196067 0.39289162 -0.4057973
18403750000 -0.00061379472 -0.01662435 -3.1776257e-005 -2.5122423e-005 0.0028537982 0.00061976939 0.27925751 -0.67236602
18425000000 -0.036174696 0.021622933 1.2316622e-005 -3.2282427e-005 -0.0023753939 -0.0030200535 0.06880296 -0.56323278
18446250000 -0.02443504 -0.11800889 -3.209167e-005 0.00014849709 -0.0030183541 0.0046284492 0.50342518 -0.421413
18467500000 0.012674157 0.0096629225 7.7397635e-005 -9.7734555e-005 0.0061686216 0.0016977797 0.26659214 -0.54858875
18488750000 -0.19935586 -0.03030912 -4.575335e-005 3.8950243e-006 -0.0022790164 -0.0016326794 0.36089027 -0.39477354
18510000000 -0.09228716 -0.14965172 -3.4384258e-005 8.7823319e-005 0.0070518097 0.0031704388 0.5036937 -0.54880244
18531250000 -0.035911381 -0.012176635 4.6160294e-005 -0.00014245197 0.00052591506 -0.0083306022 0.37942395 -0.54577488
18552500000 -0.054408982 -0.19113445 3.9102e-005 -4.5225253e-005 -0.0030114716 0.00074435613 0.28723538 -0.53362495
18573750000 0.078976169 -0.18554913 8.7423978e-005 0.00019057617 0.001716838 -0.0021224988 0.16072275 -0.19742885
18595000000 0.084291175 -0.074787162 6.3389802e-005 -4.6510322e-005 -0.0062435344 -0.0025346044 0.43860859 -0.11499717
18616250000 0.04368287 -0.14207706 -4.0631483e-005 -2.0265199e-005 0.0017927471 0.0055398676 0.38258752 -0.46944416
18637500000 0.16386387 -0.10143346 4.876652e-005 7.7330915e-006 -0.00024792075 -0.0044009238 0.26902023 -0.16062747
18658750000 0.077831849 -0.065109372 8.3193227e-006 5.6976427e-005 -0.00080670184 0.0049016643 0.49859169 -0.49484697
18680000000 0.087988012 -0.19760895 4.6344463e-005 0.00013143802 0.0043255999 -0.0048766532 -0.028007133 -0.44310626
18701250000 0.24009599 -0.092227757 5.3027838e-005 6.2830899e-005 -0.0075612781 -0.0022153936 0.23697257 -0.10657632
18722500000 0.14555313 -0.060765997 1.3082664e-005 -3.1679032e-005 0.0016183101 0.0042790379 0.17845547 -0.29295781
18743750000 0.2275757 -0.15189068 -6.2770006e-005 -8.2879822e-005 -0.0036474615 -0.0036722482 0.16037281 -0.25258958
18765000000 0.21525635 0.076094717 -2.6229529e-007 -3.6973506e-005 -0.0021702661 0.0083524836 0.1898745 -0.35450593
18786250000 0.089828596 -0.019882007 3.8168066e-005 -0.00010293799 0.0054709241 0.0006924973 0.055567898 -0.33913687
18807500000 0.233542 -0.093696684 2.5145831e-005 -3.6453312e-005 -0.00092732208 -3.6692083e-005 0.033932913 -0.42722028
18828750000 0.13175341 -0.054197837 5.7616857e-005 -1.620486e-005 0.0037130928 0.0012313265 -0.0221329 -0.45726275
18850000000 0.15213868 -0.047147263 8.7593544e-005 6.2893254e-005 0.00060948165 -0.0052208714 0.10628758 -0.11196776
18871250000 0.23690465 0.097542748 5.8488302e-005 -7.4131123e-005 -0.003106477 0.0037500344 0.12582096 -0.59056836
18892500000 0.14149895 0.23499414 -9.3788774e-005 0.00019089444 0.0043730889 -0.0021757018 0.04606742 -0.42873436
18913750000 0.11587317 0.034687608 -0.00015098997 -4.1152729e-005 -0.005058114 0.0019730453 0.20144887 -0.60994488
18935000000 0.07920938 -0.0021106761 5.7483448e-005 3.8701492e-005 0.0073886043 0.0027746877 -0.074420527 -0.67827994
18956250000 -0.038892519 -0.011642202 -7.6688368e-005 2.4275841e-005 -0.0013746123 -0.0052133137 -0.014600364 -0.50372452
18977500000 0.019727083 -0.061633255 8.2780294e-005 6.2347453e-006 0.0028387595 0.002218056 0.12679945 -0.41548464
18998750000 0.062631212 0.17156132 0.00012545384 6.3003565e-005 0.00047451802 -0.0069760196 0.25116572 -0.53009754
19020000000 -0.039676424 0.13797277 -0.00011517204 -2.3450926e-005 -0.0055656047 4.0732921e-005 0.13159122 -0.59773338
19041250000 -0.10869312 0.0033980797 -4.444454e-005 3.8337341e-005 0.0027405976 0.00049345731 -0.006865568 -0.49037835
19062500000 -0.11426754 0.070694357 6.4018518e-006 0.00013521119 -0.0070827566 -0.0011482582 0.28658018 -0.61778849
19083750000 -0.081669517 -0.17723179 8.8061781e-005 6.9148438e-005 0.0035357082 0.0058603017 -0.039758187 -0.61204284
19105000000 0.076498508 -0.048829619 4.9527735e-005 -0.00010156396 0.00048872101 -0.0050225588 0.025234025 -0.2237606
19126250000 0.059632815 0.047096848 2.8614177e-005 -5.7842564e-005 -0.002732795 0.0027553488 0.46195832 -0.56007344
19147500000 -0.065188535 -0.048775151 7.4932395e-006 5.3986787e-005 0.0041642147 -0.0020207395 0.10675158 -0.59043878
19168750000 -0.13586952 -0.11071075 6.5608794e-005 7.5986565e-005 -0.007314133 -0.0022806576 0.160457 -0.47121477
19190000000 -0.16994126 -0.19753402 9.4119627e-005 3.4824072e-005 0.0012139374 0.0063507464 0.14221789 -0.48359799
19211250000 -0.11847893 -0.29273269 -0.00010978126 0.00017127189 -0.00048248153 -0.0024169041 0.20323624 -0.4537051
19232500000 0.13546903 -0.16082394 -8.7120643e-005 2.250493e-005 -0.0014556897 0.0065187705 -0.098398969 -0.33733025
19253750000 -0.0045370432 -0.11504103 8.4165382e-005 3.8547987e-005 0.0065947608 -0.00043363558 0.31542584 -0.27471009
19275000000 0.042267147 -0.19881013 -4.5607194e-005 1.2019141e-006 -0.0015135751 -0.0021509216 0.18723781 -0.5274049
19296250000 -0.0029829617 -0.14353071 -7.1236442e-005 -5.1401981e-005 0.0029237734 0.0024413229 0.028140198 -0.39595151
19317500000 -0.13382556 -0.23398866 -7.0233342e-005 -2.2796496e-005 -0.00026148214 -0.0062785563 0.20869619 -0.35902089
19338750000 0.19505149 -0.29168665 1.6445925e-005 -2.9636856e-005 -0.0032912288 0.004455741 -0.12575135 -0.53279859
19360000000 0.19073048 -0.21094416 2.0045465e-005 9.8054021e-005 0.0044476888 -0.0014740246 -0.1071591 -0.19679339
19381250000 0.17242366 -0.23293799 5.1952407e-005 -2.881571e-005 -0.0034344438 -0.00011995818 0.16344018 -0.30639875
19402500000 0.2028883 -0.14120404 -7.3647643e-005 3.9162511e-005 0.0047589024 0.003604807 -0.052166041 -0.37026066
19423750000 0.0363313 -0.16345643 6.0293485e-005 -7.6843942e-005 0.0018154943 -0.0076081031 0.057813637 -0.4746044
19445000000 0.10109268 -0.16108213 0.00014444528 0.00010608327 -0.0035418354 0.0017041632 -0.22087599 -0.36456481
19466250000 0.27045229 -0.12160092 8.7976478e-005 -1.1657894e-005 0.0028804278 -0.0031577684 -0.072555698 -0.36433664
19487500000 0.20152287 -0.063071594 1.0213128e-005 -4.544605e-005 -0.0063124271 -0.0032692547 -0.27466691 -0.47593778
19508750000 0.22438861 -0.16446602 -1.2204271e-005 -6.7507267e-006 -0.0004529554 0.0066527845 -0.19774134 -0.082632355
19530000000 0.14787216 0.030873509 -8.0648075e-005 -6.1367755e-005 0.00019579755 -0.0037251941 0.12106633 -0.42146477
19551250000 0.058722619 -0.012383501 4.066879e-005 7.078777e-005 -0.00183046 0.0046139653 -0.4453353 -0.72874081
19572500000 0.22349715 -0.028681261 -1.3761763e-005 5.9075417e-005 0.0042418269 -0.0014674572 -0.18331686 -0.22944781
19593750000 0.16800687 0.10287201 2.3801691e-005 3.3787561e-005 -0.0031953806 -0.002994349 -0.17683214 -0.62895697
19615000000 0.09220276 -0.016214754 -8.1168873e-005 -6.6633256e-005 -0.0004027581 0.0041491031 -0.34205088 -0.4112044
19636250000 0.10863858 0.046644129 -8.5258849e-005 5.1236009e-005 -0.00089256588 -0.0042958832 -0.12831217 -0.36563423
19657500000 -0.10174484 0.098122805 4.9867831e-006 -5.143958e-005 -0.0043620635 0.0050281901 -0.17691438 -0.40994883
19678750000 -0.00015641603 0.013465877 -0.000102629 -7.7353754e-005 0.0041831867 0.0033609753 -0.070855036 -0.7448346
19700000000 -0.010185752 0.088975385 0.00019471785 -2.4839761e-005 -0.00026026423 -0.0012345599 -0.37986419 -0.50332367
19721250000 -0.0075448737 0.064992063 -0.00019153878 -9.8302415e-005 0.0044439249 0.003599307 -0.075422771 -0.32970336
19742500000 -0.14442371 -0.03544623 -2.8315182e-005 -2.4800098e-005 0.00048559823 -0.0057560103 -0.14363705 -0.69672626
19763750000 -0.16740517 0.016884863 -0.00016594958 -2.4235847e-005 -0.0012960165 0.0026101985 -0.28825465 -0.33897075
19785000000 -0.21201356 0.065778896 6.8058343e-006 9.9529701e-005 0.0029938102 -0.0031764458 0.2225313 -0.28869313
19806250000 -0.077457882 -0.079677016 7.3978612e-005 0.00011151876 -0.0059907939 -0.00048958295 0.015184589 -0.82086563
19827500000 -0.087470271 0.01996343 -3.0837986e-005 5.5321634e-006 0.0059802555 0.0053972206 -0.056430019 -0.35634154
19848750000 -0.21745296 -0.12018452 4.6548437e-005 9.1629554e-005 -0.001351143 -0.0064968937 0.062537022 -0.41102397
19870000000 -0.13696912 -0.12801453 2.4811157e-005 0.00011441398 0.00093327794 0.0052110716 -0.021919819 -0.41140711
19891250000 -0.2583358 -0.17062058 0.00012549365 9.7791097e-005 0.0040726126 -0.0067060208 0.13491884 -0.29454741
19912500000 -0.10177515 -0.31234375 9.6833894e-005 -1.1786349e-005 -0.0072923037 -0.0014645611 0.10972057 -0.013377616
19933750000 -0.0062940433 -0.14071044 0.00010384004 0.00022619301 0.0035081566 0.0023364646 0.26429182 -0.4828926
19955000000 -0.098880626 -0.21103488 0.00015406073 -8.8237584e-006 -0.0070877224 -0.005875947 -0.30493388 -0.3681702
19976250000 -0.16362567 -0.23733692 1.4594297e-005 -2.287596e-005 0.0016488911 0.010294035 0.057320815 0.026001913
19997500000 -0.19197115 -0.23099157 5.6831464e-005 -3.6440259e-005 0.0026262589 -0.0062984638 0.033730038 -0.16106306
20018750000 -0.073617764 -0.26992464 4.0751369e-005 0.00018532811 -0.0048630093 0.0039782748 -0.14759329 -0.010836861
20040000000 0.15222029 -0.30768892 8.591955e-005 -5.5514502e-005 0.0078155845 0.00036656673 0.045019191 0.22592409
20061250000 0.30478495 -0.075599641 -3.2211221e-005 1.3316223e-005 -0.0062141414 -0.0072959014 0.019372365 -0.26937714
20082500000 0.099573925 -0.041132297 -0.00018664628 7.1111674e-005 -0.0017780717 0.0090235826 -0.34374523 -0.21391912
20103750000 0.13145261 0.0084633715 -0.00010951784 -3.8669958e-005 0.0021268134 -0.0046304381 -0.33120906 -0.093344718
20125000000 -0.13520516 0.050465938 2.8572038e-005 6.049731e-005 -0.0052122008 0.0056786141 -0.34253451 0.10593012
20146250000 0.053650595 -0.17752692 3.6119611e-005 5.0049919e-005 0.0075312555 0.0027566056 -0.27693734 -0.28879955
20167500000 0.27717578 -0.082731873 -0.00017095864 -9.0446403e-005 -0.0017799948 -0.0045814747 -0.79584891 -0.15910675
20188750000 0.22104616 0.0050552371 -4.3121985e-005 6.2071529e-005 0.00349372 0.0055042501 -0.024155455 -0.11737435
20210000000 0.21929613 0.098982558 -1.1372063e-005 -0.00014992645 0.0035746773 -0.008735884 -0.56903768 -0.84083873
20231250000 0.0105172 0.3503491 -8.1999191e-005 0.00015686847 -0.0073853866 0.0036161374 -0.7457369 -0.14168681
20252500000 -0.12382872 0.17899886 5.2390362e-005 -0.00010998151 0.0060587348 0.00016960899 -0.43989757 -0.42997536
20273750000 0.035457894 0.11702494 -5.9214722e-007 -3.7913011e-005 -0.0053762412 -0.0029369777 -0.39184374 -0.37394357
20295000000 0.095265925 0.19791207 -1.60419e-005 4.4526398e-005 0.0033169026 0.0069641625 -0.45071387 -0.47044683
20316250000 0.039894905 0.17858152 -9.6898184e-005 0.00017897812 0.0037216709 -0.0060743256 -0.17764308 -0.54843825
20337500000 -0.1203863 0.24119075 7.3753225e-005 -3.2013824e-005 -0.003728542 -0.00033368103 -0.068618283 -0.79375619
20358750000 -0.30690753 0.35283253 8.5450221e-005 -0.00016650236 0.0039517931 -0.00084506988 -0.58511484 -0.68333614
20380000000 -0.33258992 0.087543815 7.6619333e-005 -7.6554665e-005 -0.0054111043 -0.0048533599 -0.31272709 -0.34980336
20401250000 -0.1541539 0.081906691 9.0211754e-005 0.00014280214 -0.0017012262 0.0048902398 0.2928873 -0.6737749
20422500000 -0.22809118 0.054822274 -3.0642484e-005 9.2892937e-005 0.00076656888 -0.0023613803 -0.20666076 -0.63147986
20443750000 -0.13244024 0.046878736 4.6082143e-005 5.304841e-005 -0.0033517322 0.0038499364 0.1491517 -0.19290924
20465000000 -0.26309431 0.22550608 -0.00016350334 -6.8525122e-005 0.0059658079 0.0018544372 0.38712704 -0.83137268
20486250000 -0.37863603 0.080459878 -8.0598889e-005 -0.00012220352 -0.0039196732 -0.0052326987 -0.32151321 -0.32900193
20507500000 -0.18573815 -0.015063911 2.4467929e-005 -0.00010085572 0.00095362653 0.0051148729 0.22829944 -0.10923748
20528750000 -0.13968965 -0.11083854 7.3182382e-005 2.2979641e-006 0.00090396532 -0.0051674377 0.21738169 -0.1669239
20550000000 -0.098825261 -0.28365824 5.1716364e-005 -0.00022505612 -0.0058817281 0.003558351 0.19582301 -0.060704526
20571250000 -0.11328702 -0.14255755 0.0002367712 0.00019735561 0.0051650354 0.0033404741 -0.016578482 0.038336884
20592500000 -0.12362629 -0.090988338 -0.0001596058 5.7799632e-005 -0.0026736113 -0.002543469 0.36897263 0.21941444
20613750000 -0.1017404 -0.17330047 2.6097894e-006 -4.9252121e-005 0.0031206883 0.0074270619 -0.23817515 -0.18332441
20635000000 0.25017449 -0.26659039 4.681381e-005 0.00010410259 0.0049046283 -0.0084493225 -0.40817121 0.57829732
20656250000 0.089119017 -0.25452879 -0.00010530608 2.979987e-005 -0.0049717645 0.0032012742 0.2396179 0.47190922
20677500000 0.18252285 -0.34955797 -7.0527007e-005 -0.00011386322 0.0065718861 -0.0035965929 -0.29203516 0.018449675
20698750000 0.23840462 -0.086285077 -0.00018582231 -1.2556865e-005 -0.0088790245 -0.0010183468 -0.54210591 0.49327609
20720000000 0.10007374 -0.14298321 3.3112578e-005 -3.3239096e-005 0.0043179472 0.0057648225 -0.27629122 0.30310553
20741250000 0.34039205 -0.10483251 0.00020664888 5.3683641e-005 3.3969114e-005 -0.0066366028 -0.78157645 0.24011448
20762500000 0.34877017 -0.041550457 -4.2733795e-006 4.4839253e-005 -0.0017915729 0.0060209325 -0.68416375 0.29653844
20783750000 0.24149725 -0.074511386 -7.4512631e-005 -8.2913e-005 0.0060989545 -0.004737359 -0.47523758 0.35010967
20805000000 0.40217686 0.05493103 0.00016319663 -5.9818878e-005 -0.0060532615 -0.0031143576 -0.41925898 -0.059609413
20826250000 0.25933972 0.22551984 -1.3898643e-005 8.1365317e-005 0.0024853714 0.0034336292 -0.9096579 -0.21589433
20847500000 0.21423925 0.086267032 -0.00015295298 2.1569182e-005 -0.0030707184 -0.0072232853 -0.58809179 -0.012800693
20868750000 0.28501317 0.1390132 -4.3064822e-005 -5.0477087e-005 -0.0055083102 0.0086280815 -0.43518168 -0.73573321
20890000000 0.17799357 0.17340423 0.00010523396 -1.9668063e-005 0.0061112526 -0.0016809251 -1.061186 -0.3334718
20911250000 0.22966428 0.093404986 -0.00017847154 0.00013298015 -0.0051626926 0.00048486024 -0.38812727 -0.18324111
20932500000 0.21031283 0.28545722 8.7394947e-005 0.00013936704 0.0051744934 0.0039357594 -0.47703946 -0.74290627
20953750000 -0.034255438 0.34393203 0.00014620903 0.00012180529 -0.00059769314 -0.0074737198 -0.44720343 -0.61835092
20975000000 0.18302986 0.027037494 6.0064853e-005 -0.00017019459 -0.0043482729 0.0053510545 -0.21599209 -0.55165017
20996250000 0.078622319 0.098253943 -0.00018261925 0.00021484862 0.0049450402 -0.0029090461 -0.17769085 -0.56184191
21017500000 -0.10493653 -0.020663453 -5.7874433e-005 -6.1418286e-005 -0.0077425656 0.00031830923 -0.1598004 -0.72508526
21038750000 -0.018765338 0.051114336 0.00014955887 3.6637281e-005 0.0059289187 0.0076464014 -0.22609746 0.16933006
21060000000 -0.20691961 0.16011694 7.6888566e-005 1.389835e-005 0.0012150656 -0.0070423693 0.58110136 -0.32289931
21081250000 -0.21788689 -0.028893804 8.9319983e-005 5.2738356e-005 -0.0013437007 0.0084332032 0.054487627 -0.62299705
21102500000 -0.080107369 -0.069553792 -5.2536248e-005 -5.53805e-005 0.0081470674 -0.0079727881 0.10041499 0.017233174
21123750000 -0.10896491 -0.13290033 -0.00014158267 3.7016791e-006 -0.0093172593 -0.00080357783 0.44391045 -0.26851341
21145000000 -0.057272796 -0.3457925 -7.1540984e-005 8.8200948e-005 0.006263535 0.0036031529 -0.079300195 -0.37255102
21166250000 0.049553726 -0.15744214 -0.00023211171 0.00012517661 -0.0043103765 -0.0065633752 0.1290943 0.36925465
21187500000 -0.034534078 -0.17579623 1.607334e-005 9.045867e-006 -0.00047387692 0.0089698015 0.094689801 0.098367915
21208750000 0.019284671 -0.37994403 -6.1258543e-005 -2.9933823e-005 0.0056800987 -0.0058478466 0.15470856 0.080050439
21230000000 0.044782899 -0.22680907 7.2985793e-005 -3.4641467e-005 -0.0037194944 0.001867195 -0.11737324 0.045323227
21251250000 -0.1411529 -0.44330996 -0.0001191293 1.0142421e-005 0.0054404014 -0.0023369233 -0.0040029315 0.5289911
21272500000 0.15239213 -0.38092002 0.00013360014 -6.0772963e-005 -0.0055580228 -0.004823755 0.1550837 0.014641674
21293750000 0.24579328 -0.16391703 1.6926517e-005 -2.5475222e-007 -0.00021823792 0.0046086195 -0.71462286 0.36481774
21315000000 0.24856734 -0.28809819 -3.3254473e-005 5.9840939e-005 -0.00068583066 -0.0039438778 -0.065399922 0.53872037
21336250000 0.31878808 -0.28110343 -1.2492364e-005 -9.8867939e-005 -0.0042475346 0.0050195046 -0.24098411 -0.029571302
21357500000 0.19855437 -0.21780792 -6.2500665e-005 -0.0001040289 0.0064137736 0.0013051697 -0.65322137 0.29274005
21378750000 0.069221728 -0.29772595 -2.9892572e-005 5.3962845e-005 -0.0039927992 -0.0037106865 -0.36301711 0.35913479
21400000000 0.29477724 -0.26291943 -0.00020365474 0.00014163095 0.0025623848 0.004966334 -0.6006242 -0.078183278
21421250000 0.20299456 -0.10193041 -0.00022624999 6.7837645e-005 0.00077167834 -0.0065307482 -0.73049158 0.1264687
21442500000 0.30427304 -0.22677921 -2.0806679e-005 -4.0419709e-005 -0.0054805772 0.0027385666 -0.5961954 0.17945966
21463750000 0.3485291 -0.032855906 5.3833843e-005 -7.0737835e-005 0.0045840912 0.0029037427 -0.2895751 0.070452355
21485000000 0.079547442 -0.047157131 3.2567852e-005 -7.0453229e-005 -0.0038758062 -0.0033549978 -0.63969958 -0.34241948
21506250000 0.19488838 -0.11809443 2.465905e-005 -2.1871817e-006 0.0042939349 0.0082313251 -0.53345561 0.087362103
21527500000 0.087358437 0.062516324 9.5995085e-005 0.00011742333 0.0045024143 -0.0087485956 0.057522155 -0.24410565
21548750000 0.031229308 -0.08104647 0.00013647425 -0.00021273915 -0.005394212 0.0048177009 -0.82372767 -0.51528114
21570000000 0.19449984 -0.080768473 -3.0201978e-005 1.0100072e-006 0.009133772 -0.0025035979 -0.20618592 0.086150758
