!Keysight Technologies,N5242B,MY47200105,A.14.00.23
!Date: Friday, May 10, 2024 11:20:58
!Correction: S11(C  2-Port  ) 
!S21(C  2-Port  ) 
!S12(C  2-Port  ) 
!S22(C  2-Port  ) 
!S2P File: Measurement: :
# Hz S  RI   R 50
18000000000 0.14533985 -0.029766316 -0.0001020412 -0.00014477635 0.0036287969 0.0064304555 0.87319523 -0.42203593
18021250000 0.069782458 -0.21219231 -3.1117113e-005 -5.8299969e-007 -0.0019994131 -0.0014030918 0.32027984 -0.19654311
18042500000 0.23003538 -0.093763366 -8.5804066e-005 7.9765734e-005 0.0036754466 0.0061998339 0.49617386 -0.057127219
18063750000 0.15521708 0.019224651 0.00013461614 -2.7292212e-005 0.0056686066 -0.0038690779 0.40610325 -0.19290809
18085000000 0.21072517 -0.049806263 -1.4138957e-005 -1.9300744e-005 -0.0013155484 -0.0031966248 0.42284974 0.089869544
18106250000 0.33812207 -0.0091765849 -9.1415794e-005 -6.5667606e-005 0.0034705056 -0.002123748 0.47912803 -0.092260048
18127500000 0.20573528 -0.042005453 6.1308616e-005 7.5194657e-005 -0.0075976215 -0.0046952623 0.56300044 -0.21017396
18148750000 0.19645414 -0.039593045 -8.3247018e-005 -4.0247807e-005 0.0019146169 0.0057228124 0.30300421 -0.36628082
18170000000 0.30138481 0.084385179 -0.00012178866 0.00015892148 -0.00150603 -0.0027278247 0.097628847 -0.13236637
18191250000 0.15540655 0.19642429 -6.0957231e-005 -7.6061253e-005 0.00064748613 0.0036494399 0.26823136 -0.093399681
18212500000 0.23964986 0.069201693 -8.8498608e-005 6.3498082e-005 0.0039005948 -0.0030754688 0.097571924 -0.12788603
18233750000 0.16266645 0.14536871 6.7847133e-005 -7.0856586e-005 -0.0036360247 -0.0022959388 0.32377118 -0.15588489
18255000000 0.02795719 0.066292137 2.1759719e-005 5.8257865e-005 0.0012809465 -0.00067444379 0.42809209 -0.546731
18276250000 0.13807425 0.011192063 -4.0652278e-005 2.987665e-005 -0.0062773591 -0.0024956772 0.14948149 -0.467668
18297500000 0.06325537 0.15661506 0.00013717773 -2.4177773e-005 -0.0015781234 0.0057890397 0.077704377 -0.46605974
18318750000 0.020297108 0.12478944 2.826094e-005 -6.478853e-009 0.00051353849 -0.0004596748 0.1148136 -0.34914541
18340000000 0.066731714 0.081327014 7.0169182e-005 6.2203304e-005 -0.0010845192 0.0056685675 0.14023113 -0.248686
18361250000 -0.1222106 0.10467564 -9.8805307e-005 -6.9375837e-006 0.0066951159 -0.00050093624 0.363644 -0.47474393
18382500000 -0.084330596 -0.024642488 -0.00011454616 -7.3521784e-005 -0.0027617798 -0.0029655895 0.39930558 -0.41757587
18403750000 0.0049351896 -0.022849534 -8.4610969e-005 -1.6810887e-005 0.002614961 0.001735684 0.28335303 -0.6755802
18425000000 -0.032749169 0.014863241 -2.4125704e-005 -6.4198284e-005 -0.0024710584 -0.0040054014 0.075366065 -0.56332386
18446250000 -0.026125556 -0.12731501 -7.0962793e-005 -3.4341996e-005 -0.0029849026 0.0051805298 0.49958605 -0.42495859
18467500000 0.022467358 -0.0041480395 8.0848375e-005 9.5195253e-005 0.0064609032 0.00010533939 0.2639645 -0.54777133
18488750000 -0.18850096 -0.037956066 2.7555654e-005 9.3442344e-005 -0.002464056 -0.00019418415 0.35599431 -0.38533404
18510000000 -0.085538104 -0.15877134 -1.4468324e-006 3.5353449e-005 0.0085297944 0.0018596873 0.50912476 -0.54011363
18531250000 -0.027502097 -0.022669522 -4.1796507e-006 1.5554342e-005 -0.0018667057 -0.0077470709 0.37500894 -0.54299963
18552500000 -0.059949372 -0.19053572 7.0443304e-005 5.4629119e-005 -0.00073194265 0.0015849902 0.28377536 -0.52571213
18573750000 0.081455961 -0.18984254 6.1754086e-005 7.5846974e-006 -0.00051920221 -0.0044950172 0.15843889 -0.19892268
18595000000 0.092169844 -0.070333809 1.9367615e-005 5.0239964e-007 -0.0054448955 0.00065702299 0.42615181 -0.11534401
18616250000 0.049717393 -0.13733771 -6.9973503e-005 -0.00011409135 0.0027630674 0.0020527176 0.37567449 -0.46047428
18637500000 0.17196526 -0.10309896 8.0573045e-005 5.491328e-006 -0.003161472 -0.0020852741 0.26258427 -0.16545103
18658750000 0.081214868 -0.062698543 -5.1456733e-005 8.9089095e-005 0.0034120558 0.0043274555 0.48278928 -0.49256048
18680000000 0.084070303 -0.19936709 -1.1152974e-005 0.00014145418 0.00036844725 -0.0064003724 -0.0358584 -0.44817135
18701250000 0.23815861 -0.089745112 6.1797273e-006 -0.0001188878 -0.0052721472 0.0017506123 0.21943998 -0.11351497
18722500000 0.14517778 -0.052256405 0.00010574285 -3.2056378e-005 0.001480898 -0.0006369708 0.1626084 -0.29955557
18743750000 0.22405475 -0.14646578 4.0977062e-005 -0.00013050287 -0.0065928595 0.00061872997 0.14790173 -0.2528882
18765000000 0.21446463 0.08173582 7.3684074e-005 6.5116066e-005 0.0028105201 0.0055275033 0.18572743 -0.35775998
18786250000 0.077948943 -0.011165968 2.9844803e-005 8.7965564e-005 -7.3093957e-005 9.2180953e-006 0.053077713 -0.3505708
18807500000 0.22452006 -0.092110276 -0.00012376953 6.9758658e-005 0.0040975502 0.0036849084 0.030241691 -0.43508998
18828750000 0.13535331 -0.045429271 4.592946e-006 1.4208254e-005 0.0019200374 -0.0046154456 -0.02289867 -0.46500105
18850000000 0.14499049 -0.052465621 8.7199049e-005 0.0002375331 -0.00087389961 0.0017024969 0.100839 -0.13013089
18871250000 0.23371446 0.086421199 1.5626327e-005 3.2122305e-005 0.0018844849 -0.0010374956 0.12584594 -0.59080982
18892500000 0.13411056 0.23117343 7.5621465e-005 0.00012305852 -0.0030863062 -0.00031716796 0.050895423 -0.43461481
18913750000 0.10297038 0.026558019 2.0337098e-005 -3.2662008e-006 0.0022088382 0.0042634341 0.20573495 -0.61300611
18935000000 0.081281312 -0.0019086613 -2.8630815e-005 -5.3152376e-006 0.0023035831 -0.0029542691 -0.067234948 -0.68298697
18956250000 -0.035775058 -0.0099196918 5.543211e-006 -2.1731823e-005 -0.0006307172 0.0023330336 -0.012153371 -0.503304
18977500000 0.029339341 -0.070325211 0.0001519699 -1.9034296e-005 0.006109606 -0.0052347053 0.13077243 -0.42084345
18998750000 0.074569523 0.16196321 -0.00010331886 -1.7517373e-006 -0.0062021394 -0.00293715 0.24699625 -0.52783054
19020000000 -0.043983124 0.12941687 6.5085237e-006 -3.0977641e-005 0.0027295831 0.0002388937 0.13567881 -0.59221137
19041250000 -0.10027144 0.0033969712 -7.1307702e-005 -6.9339767e-005 -0.0043018828 -0.004103072 -0.00050314091 -0.48910502
19062500000 -0.096335113 0.070276551 -0.00018417972 -5.2821102e-005 -0.0030589802 0.0069569787 0.27994534 -0.6132322
19083750000 -0.071579203 -0.17908745 4.5657216e-005 9.067996e-006 0.0045397789 -0.0029210888 -0.041830443 -0.60335159
19105000000 0.089132547 -0.059601329 -8.3082574e-005 -0.00011960473 -0.0052238381 0.0016605294 0.020011654 -0.22334564
19126250000 0.061420519 0.052137781 6.6248354e-006 9.156407e-005 0.0057667438 0.00033600177 0.448612 -0.54044288
19147500000 -0.057264727 -0.042277079 -1.6931264e-005 3.3455843e-005 -0.0041659679 -0.0043007131 0.10535459 -0.57860595
19168750000 -0.11411571 -0.10093989 -4.1075814e-006 -0.00012265814 -0.0015064614 0.0042734426 0.15775548 -0.4644278
19190000000 -0.16121206 -0.18901993 6.4717329e-005 -9.5296702e-005 3.501837e-006 -0.0025874644 0.13296163 -0.48403403
19211250000 -0.10616095 -0.29145971 4.5085442e-005 8.9639489e-006 -0.0047212644 0.0055019259 0.18780559 -0.44721305
19232500000 0.13422249 -0.15738866 -5.6228342e-005 -0.00013371909 0.0065747546 0.0014841233 -0.098403715 -0.33836788
19253750000 -0.0088999206 -0.10296781 -4.8106347e-005 -8.7068969e-005 -0.0030533054 -0.0009244075 0.29639322 -0.27632403
19275000000 0.04381625 -0.18673326 -2.0631049e-005 4.9767448e-005 0.0065755146 0.0029200604 0.17941245 -0.52147794
19296250000 -0.0029202274 -0.13034871 -2.7103875e-005 -3.3330965e-005 -0.0010970364 -0.0060207727 0.023959886 -0.39779601
19317500000 -0.13050574 -0.22778194 0.00015682445 4.5460267e-005 -0.0014589957 0.0033212008 0.19895536 -0.3656792
19338750000 0.18952173 -0.29660162 -9.5640025e-005 3.2359676e-005 0.0031275065 -0.0024968048 -0.1323069 -0.53481716
19360000000 0.17560336 -0.20911686 -0.00011035972 -1.0324803e-005 -0.0051286984 0.0012509128 -0.1088602 -0.20158137
19381250000 0.1580587 -0.22999789 -3.9046408e-005 0.00010394981 0.005877865 0.0027011931 0.15675394 -0.31166637
19402500000 0.19952901 -0.14034244 3.4097015e-005 -1.3820867e-005 -0.0014133776 -0.0032088307 -0.054415058 -0.37256116
19423750000 0.028263139 -0.16063498 5.349264e-005 0.00015609726 0.0031594611 0.0012621464 0.058398634 -0.47036642
19445000000 0.091271743 -0.16698743 -0.00016421019 -1.0545246e-005 0.00078515551 -0.0062183756 -0.21230987 -0.37331671
19466250000 0.25953639 -0.11609729 5.598049e-005 -0.00012109535 -0.0053634103 0.0016502172 -0.079151355 -0.36767647
19487500000 0.19505987 -0.063977592 -0.00012012723 -6.2251427e-005 0.0026349395 -0.0028451416 -0.27273244 -0.47141129
19508750000 0.22811626 -0.16589969 7.9773454e-006 -4.2987263e-005 -0.0079741729 0.00064266031 -0.19717638 -0.086158484
19530000000 0.15575303 0.027390357 -3.1063828e-005 0.00012183742 0.003748745 0.0041387537 0.11622548 -0.4156757
19551250000 0.060326409 -0.026235515 2.4339228e-005 -3.9853363e-005 0.00066157017 -0.0033979381 -0.43507656 -0.71990758
19572500000 0.22148024 -0.038792938 -0.00017078822 -0.00019196616 -0.0024241891 0.0047681821 -0.1828576 -0.23077984
19593750000 0.16449808 0.097255051 3.6337577e-005 -0.00016529905 0.0050759744 -0.0043909843 -0.17568082 -0.62700999
19615000000 0.085196771 -0.020331929 0.00014699128 -0.00010758028 -0.008028687 0.00063354266 -0.34602439 -0.40913549
19636250000 0.11400799 0.053506151 -5.2797925e-005 -0.00014368341 0.0035035631 0.0028702561 -0.1257716 -0.36400092
19657500000 -0.091284074 0.10473575 0.00011840819 -4.2315445e-005 -0.00404455 -0.0035419615 -0.18003055 -0.41550952
19678750000 0.0025715604 0.0088991998 0.00013048672 -0.00012107953 -0.00035654867 0.0096071279 -0.078144051 -0.73788989
19700000000 -0.0045824284 0.093416154 -8.1073929e-005 0.00012149899 0.0074821063 -0.0039372225 -0.37580273 -0.50588906
19721250000 -0.021398256 0.06512703 7.5595555e-005 0.00012252673 -0.0035394721 0.0018451674 -0.085778594 -0.33764637
19742500000 -0.13712718 -0.034953125 3.5063385e-005 1.5575764e-005 0.0057823686 0.00020612546 -0.14753552 -0.69198257
19763750000 -0.16754833 0.028277993 0.00011255342 0.00028100656 -0.0023046555 -0.0050459416 -0.28883517 -0.34260574
19785000000 -0.2161992 0.063757204 -8.6405547e-005 0.0002420563 -0.00074777193 0.0049560391 0.21600302 -0.29296777
19806250000 -0.078913637 -0.073330022 -5.9695536e-005 -6.4766515e-005 0.00076843519 -0.0046831244 0.011876701 -0.81382138
19827500000 -0.099185906 0.025880253 3.4401721e-005 -9.4156741e-005 -0.002802633 0.0053240932 -0.054922 -0.35864106
19848750000 -0.21742401 -0.11944995 8.5590102e-005 5.2233436e-006 0.0058878101 -0.0026335937 0.059016965 -0.41471884
19870000000 -0.13008128 -0.12860571 2.598731e-005 -0.00010605968 -0.002941259 -0.0024201565 -0.026198285 -0.40921026
19891250000 -0.25247702 -0.17346871 -0.00020063053 1.4293846e-006 0.00360028 0.0011491833 0.13525176 -0.28405467
19912500000 -0.10564802 -0.32394433 0.00013852042 -6.6899498e-005 -0.0024380086 -0.0082950201 0.11550169 -0.017466526
19933750000 -0.012042447 -0.14928973 -0.00015030832 -5.7477893e-005 -0.003290497 0.0052447869 0.26414189 -0.47377041
19955000000 -0.11188351 -0.21441366 -4.0353232e-005 9.5217234e-005 0.00033927688 -0.0042960555 -0.29492071 -0.35772938
19976250000 -0.15762001 -0.24724396 2.6378257e-005 1.5235141e-005 -0.0039375983 0.0059758602 0.055862088 0.030578084
19997500000 -0.18013926 -0.22996037 -1.0679873e-005 -0.00011159181 0.0049848361 0.00035746949 0.032864004 -0.15312602
20018750000 -0.062500753 -0.28357986 8.8628176e-006 0.00010556998 -0.0039505451 -0.0022463233 -0.15215668 -0.00083283725
20040000000 0.1647048 -0.31404895 -3.8646802e-005 -2.8268332e-005 0.0036137372 0.0048568398 0.043575097 0.23344761
20061250000 0.30898204 -0.085152082 -7.1300899e-005 -5.3995773e-005 -0.00092263089 -0.0091043254 0.011220584 -0.261933
20082500000 0.11311395 -0.054010961 0.00015830061 6.3915162e-005 -0.0061901649 0.0075351354 -0.3519887 -0.20156164
20103750000 0.14908743 0.0069502876 1.3039245e-005 5.8125588e-005 0.0054414878 -0.00095922098 -0.3409735 -0.088516377
20125000000 -0.11958768 0.052607764 9.5087613e-005 5.3858956e-005 -0.0058102864 0.001601767 -0.35793352 0.1064712
20146250000 0.060850609 -0.17404746 -3.4787685e-005 0.00016569413 0.0062873052 0.0061614127 -0.29415932 -0.27642006
20167500000 0.28837195 -0.073067598 0.00017250003 -3.3185817e-005 0.0004132599 -0.0060325321 -0.79596066 -0.1585627
20188750000 0.22182222 0.018180683 -6.8042966e-005 3.991443e-005 0.00092888321 0.0055007697 -0.04682469 -0.12061656
20210000000 0.22920977 0.11229842 -8.2526742e-005 -4.9720908e-005 0.0046378756 -0.0080009829 -0.57574856 -0.8400355
20231250000 0.032989208 0.37073806 -4.8680991e-005 6.8557463e-005 -0.0070238016 0.001995631 -0.75662655 -0.1555313
20252500000 -0.11634199 0.19433953 8.6821237e-005 4.3343978e-005 0.005396863 0.00080377812 -0.44901919 -0.43496683
20273750000 0.038643789 0.12836695 9.2075665e-005 -9.5542142e-005 -0.0038795753 -0.0031290094 -0.40519661 -0.38107237
20295000000 0.08604674 0.21905778 6.565699e-005 -0.00022836261 0.0029702226 0.0063398792 -0.43979701 -0.47315702
20316250000 0.032935731 0.19263805 3.7080106e-005 -2.3295931e-006 0.0041517545 -0.0051512681 -0.17685406 -0.56482643
20337500000 -0.11276008 0.25824457 8.8054978e-005 -0.00010625342 -0.0034389361 -4.8868114e-005 -0.066763669 -0.80008
20358750000 -0.31311238 0.36597446 -0.00012159436 -0.00023134102 0.0029393958 -0.0014658467 -0.56469351 -0.6938622
20380000000 -0.34073669 0.096043222 -0.00010913252 1.2522948e-005 -0.005969556 -0.0034316441 -0.3038924 -0.36370376
20401250000 -0.16594489 0.08764407 -2.9641773e-005 -3.8864487e-006 -0.00054394908 0.0033870761 0.29667985 -0.67202806
20422500000 -0.24878198 0.057178859 0.00015630283 8.1829631e-007 -0.0016906658 -0.0019124782 -0.18844061 -0.62884969
20443750000 -0.14502193 0.036289934 -0.00013224407 -8.7282577e-005 -0.0011544008 0.0047662021 0.16151474 -0.1996498
20465000000 -0.2709401 0.21682711 8.5246338e-006 -1.1226769e-005 0.0048059835 -0.00082750735 0.39245835 -0.8177371
20486250000 -0.39284661 0.066121601 -9.4368579e-006 -4.8886977e-005 -0.0041082231 -0.0018188083 -0.30286029 -0.32001397
20507500000 -0.19668855 -0.033767004 3.2457086e-005 -9.4818852e-006 0.0030821306 0.0014782776 0.23458114 -0.096519545
20528750000 -0.1515094 -0.11343465 5.7026933e-005 -0.0001089356 -0.0032984577 -0.0036657038 0.22024426 -0.15017186
20550000000 -0.10058607 -0.29404253 -0.00011834846 -0.00018100646 -0.00064724841 0.0041491236 0.20316236 -0.038588393
20571250000 -0.090837926 -0.15566047 1.4927098e-005 -1.055386e-005 0.0012978695 0.0004072242 -0.0069812834 0.054427195
20592500000 -0.11326601 -0.10198864 0.00019421591 8.6743694e-007 -0.001121911 0.0027297153 0.36014012 0.23044525
20613750000 -0.087226659 -0.18721829 5.1544455e-005 0.0001330224 0.0049553444 0.001318216 -0.23864199 -0.15863293
20635000000 0.25950578 -0.26946339 -6.9540743e-005 -0.00013568248 -0.00037281043 -0.0036777728 -0.41779229 0.58558333
20656250000 0.10761566 -0.26268992 4.8882684e-005 -0.00012024344 0.0019128451 0.0022159042 0.21267061 0.48600641
20677500000 0.20644845 -0.36058027 -1.2230337e-005 -3.0428333e-005 -0.0010517191 -0.0062902202 -0.3054226 0.039518882
20698750000 0.26092786 -0.090564936 5.005761e-005 3.3426972e-005 -0.003257822 0.0051442464 -0.56101018 0.49932054
20720000000 0.11989638 -0.13821653 0.00014812208 4.355246e-005 0.0035636048 -0.00237133 -0.3005265 0.30606866
20741250000 0.36191863 -0.10732426 2.5903822e-005 6.3446918e-005 -0.0032849316 0.001093816 -0.80759132 0.24965653
20762500000 0.36434034 -0.035362236 -6.4417931e-005 4.3916421e-005 0.0059125652 0.0012881206 -0.70103502 0.29227105
20783750000 0.25466561 -0.073203608 -7.4693693e-005 4.86805e-005 -0.001983332 -0.0049972618 -0.50160462 0.33580878
20805000000 0.41400048 0.06095209 -5.6178392e-006 -0.00020032949 0.0017192665 0.0025786129 -0.44322005 -0.063352883
20826250000 0.26481268 0.23488933 9.4037627e-005 1.2108243e-005 -0.00076122524 -0.004968883 -0.9108932 -0.23267837
20847500000 0.21150701 0.10196601 -4.232319e-005 -0.00010117846 -0.0054776086 0.0029558898 -0.59574622 -0.039415497
20868750000 0.27931282 0.16358222 -3.1281343e-005 -1.8305333e-005 0.001609989 0.0010399648 -0.45390302 -0.75773096
20890000000 0.16825485 0.19339381 3.2001491e-005 3.5566118e-005 -0.0040112771 0.00015687168 -1.0487072 -0.3601743
20911250000 0.2178137 0.10549879 -0.00014482607 -3.2496944e-005 0.0030995044 0.0035680414 -0.38912189 -0.20711169
20932500000 0.19432016 0.29824495 -0.00017053391 -0.0001254174 -7.8204394e-005 -0.0051107663 -0.46132526 -0.75282836
20953750000 -0.052468732 0.35289967 0.0001041853 -0.0001368029 -0.00078667875 0.0024728614 -0.42368644 -0.62317646
20975000000 0.1553233 0.04389945 -2.6521959e-005 -0.0001482207 0.0021479614 -0.0033696475 -0.19064899 -0.55992669
20996250000 0.053592551 0.10854971 0.00016574362 4.2830728e-005 -0.0054699033 0.0020365247 -0.16062337 -0.57393283
21017500000 -0.11919507 -0.021295493 2.5068644e-005 -2.8728175e-005 0.0030057004 0.0030532076 -0.13532311 -0.70987004
21038750000 -0.025213772 0.045388568 7.3055409e-005 -7.0872033e-005 -0.0020663803 0.0011927136 -0.20398758 0.15822244
21060000000 -0.21773197 0.15328561 -2.1197933e-005 -0.00019721889 0.0024826562 0.003469605 0.58920687 -0.3048031
21081250000 -0.22926837 -0.034622423 8.9708141e-005 5.8160407e-005 0.0028195078 -0.0020565016 0.080520682 -0.59864324
21102500000 -0.084455892 -0.071490891 -7.5032054e-005 3.4684992e-005 -0.0010704015 -0.001416799 0.11669851 0.030692862
21123750000 -0.11634903 -0.14749873 -9.9355981e-005 -4.9298527e-005 0.002555636 -0.00099353131 0.45294422 -0.24129617
21145000000 -0.043671276 -0.36553591 9.676793e-005 6.8497488e-006 -0.0037723582 -0.0026982736 -0.067107335 -0.33620629
21166250000 0.065845229 -0.17138508 1.381909e-005 1.252038e-005 0.0016145856 0.0036696175 0.13954325 0.38593405
21187500000 -0.02274831 -0.19554818 -9.7596341e-005 -2.7933922e-005 0.00028131614 -0.0025886074 0.095392428 0.11916262
21208750000 0.042193376 -0.38543651 8.5366199e-005 -0.00013299128 -0.0012589872 0.0035460205 0.14939405 0.10522902
21230000000 0.058766138 -0.23088661 -0.00012903464 -3.2645501e-005 0.0073447847 -0.0022856824 -0.12013023 0.067386664
21251250000 -0.11817397 -0.4605903 -8.0079735e-005 -7.6139295e-005 -0.0060238126 -0.004764725 -0.024623429 0.53002357
21272500000 0.17725278 -0.3937754 -4.073367e-005 7.5961885e-005 0.0030974539 0.0036146459 0.12659416 0.035999864
21293750000 0.25573027 -0.17178884 -0.00016516572 -0.00010503186 -0.0039891391 -0.0074608526 -0.72668839 0.36519545
21315000000 0.26090488 -0.28932291 -4.9873477e-005 6.1354483e-005 -0.0039698821 0.0067633782 -0.092076138 0.54301918
21336250000 0.32722095 -0.25647482 -0.00014143922 -5.2236624e-005 0.0044334857 -0.0023287118 -0.26109272 -0.020511294
21357500000 0.19245771 -0.2050236 1.0804056e-006 -0.00010033845 -0.004761246 0.0020248706 -0.66659993 0.28751084
21378750000 0.085195042 -0.2887097 -5.0575291e-005 0.00012332342 0.0062668533 0.0016747887 -0.37607029 0.34571922
21400000000 0.29569849 -0.23985761 0.00030494118 -5.6737405e-005 -0.0032905121 -0.0047246781 -0.61385584 -0.089965492
21421250000 0.19497533 -0.098960668 0.00011664068 -8.6885215e-005 0.00010590004 0.0057939291 -0.73514366 0.10746031
21442500000 0.30484667 -0.20626454 7.4481213e-005 0.00013223609 0.00058988191 -0.0060881274 -0.6019448 0.15331993
21463750000 0.32934195 -0.010599851 -0.00011719864 4.945734e-006 -0.0063167289 0.0073085409 -0.30027273 0.053318795
21485000000 0.064253174 -0.048690174 0.00020387604 2.2903774e-005 0.0072902716 -0.0009600246 -0.62462598 -0.3590475
21506250000 0.1825659 -0.10691291 5.3362281e-005 1.1532557e-005 -0.0038636473 0.00086089439 -0.5303635 0.064613864
21527500000 0.062277507 0.065724149 0.00021440178 -2.924655e-005 0.0059618414 0.0027702388 0.057638317 -0.25366023
21548750000 0.013760727 -0.083990261 -0.00013358181 -0.00015807644 -0.0017355077 -0.0062553813 -0.79319477 -0.51976937
21570000000 0.17705438 -0.074108057 0.00032488097 -6.2368315e-005 0.00092935044 0.0033742536 -0.19201463 0.076071724
