!Keysight Technologies,N5242B,MY47200105,A.14.00.23
!Date: Friday, May 10, 2024 11:09:05
!Correction: S11(C  2-Port  ) 
!S21(C  2-Port  ) 
!S12(C  2-Port  ) 
!S22(C  2-Port  ) 
!S2P File: Measurement: :
# Hz S  RI   R 50
18000000000 0.13731244 -0.026853941 -8.8472349e-005 -2.0001338e-005 0.018809272 -0.01787067 0.87990934 -0.42278779
18021250000 0.063975163 -0.21674916 -0.00017515496 3.2411015e-005 -0.02607183 0.01092639 0.3190383 -0.19159481
18042500000 0.22261596 -0.090047151 -9.3607036e-005 -3.9505339e-005 0.032237582 0.007779913 0.50060242 -0.048901964
18063750000 0.14973137 0.016242305 5.3676082e-005 -6.9263617e-005 -0.017809808 -0.01771413 0.41364282 -0.18866053
18085000000 0.20626283 -0.05214398 0.00013014827 -9.6957054e-005 0.012021996 0.021980248 0.42922834 0.092191711
18106250000 0.33533335 -0.0053690411 -5.6477438e-005 7.5410506e-005 0.0028012851 -0.031469818 0.48008454 -0.090293542
18127500000 0.20358452 -0.047404375 -0.00017599121 2.397724e-005 -0.021838179 0.021154022 0.57074642 -0.20544679
18148750000 0.19761947 -0.041444369 -9.1467897e-005 4.8678685e-005 0.025550626 -0.0095028952 0.30454284 -0.3656826
18170000000 0.30398285 0.081991695 7.2128234e-005 5.9072423e-005 -0.028832583 -0.0025282372 0.098956078 -0.11939178
18191250000 0.15417568 0.19151737 -8.5778149e-005 -7.551966e-005 0.024720561 0.016386332 0.27864534 -0.084263533
18212500000 0.24494721 0.070602968 -7.4773219e-005 -5.4484928e-005 -0.010847346 -0.026699929 0.10217835 -0.12233692
18233750000 0.16139391 0.14304543 -9.2341965e-005 -3.1066615e-005 -0.0029048112 0.026308488 0.32579458 -0.15376034
18255000000 0.029440226 0.065806903 6.4150743e-005 -0.00017526353 0.014809184 -0.027039886 0.43062544 -0.53804296
18276250000 0.14461201 0.0095021101 2.7445831e-005 4.5322049e-005 -0.030409873 0.012202744 0.15385474 -0.46197993
18297500000 0.067208938 0.15542908 -5.8633077e-006 1.183508e-005 0.026370458 0.0053071701 0.077914856 -0.46114808
18318750000 0.028779376 0.12482424 0.00012015249 -1.8688144e-005 -0.024985893 -0.013700285 0.11742711 -0.34117308
18340000000 0.068482108 0.085026801 3.1613683e-005 0.00012114365 0.013684093 0.030906148 0.14256132 -0.24392252
18361250000 -0.11968302 0.11070006 -0.0001079581 -8.5012987e-005 0.0052188858 -0.030906405 0.35987973 -0.47724673
18382500000 -0.07941594 -0.020759542 -7.346231e-005 5.8395181e-005 -0.01640787 0.024592595 0.39456663 -0.4087714
18403750000 0.0068182116 -0.017318305 -5.308057e-005 -9.8175755e-005 0.028160974 -0.015285315 0.280323 -0.67307073
18425000000 -0.029577034 0.016044298 4.5297103e-005 -9.7748954e-005 -0.03209313 -0.0024206571 0.071045451 -0.56309587
18446250000 -0.028334299 -0.12129851 3.9240862e-005 7.7470606e-005 0.024340076 0.020833068 0.50228018 -0.42243999
18467500000 0.018931815 0.0061385809 -6.9542555e-005 5.0312829e-005 -0.0097126653 -0.024736894 0.26603386 -0.54864925
18488750000 -0.19273072 -0.031818792 -4.8242116e-005 8.4632084e-005 -0.0030508118 0.028846227 0.35950968 -0.39272338
18510000000 -0.087769732 -0.15064485 7.8687211e-005 -7.3537813e-005 0.022943271 -0.025834348 0.5049929 -0.54569113
18531250000 -0.028198291 -0.021644859 -3.1602598e-005 7.9921054e-005 -0.028241936 0.007870825 0.37899581 -0.54471833
18552500000 -0.062075727 -0.18974686 -0.00010233217 6.3497268e-005 0.029954067 0.0016736264 0.28664169 -0.531201
18573750000 0.079749949 -0.18630983 0.00016651044 9.8501172e-005 -0.026572146 -0.020916458 0.16128601 -0.19722098
18595000000 0.08556436 -0.070822082 0.00010010671 5.9862301e-005 0.0097175762 0.028374586 0.43611723 -0.11520592
18616250000 0.048332136 -0.1353761 -2.5200159e-005 2.7506689e-005 0.0022746073 -0.029003059 0.38047126 -0.46675542
18637500000 0.17189895 -0.10518732 -9.3327515e-005 6.9164831e-005 -0.019683702 0.025399638 0.26691774 -0.16173495
18658750000 0.07973633 -0.06682469 -6.1259261e-006 0.00012535015 0.030671012 -0.011631025 0.49350119 -0.49408776
18680000000 0.086823873 -0.20325306 3.2585776e-005 7.3624476e-005 -0.030385682 -0.0062334607 -0.029635748 -0.4446778
18701250000 0.23531809 -0.09429998 -0.00014332852 2.0993197e-005 0.022316171 0.017785544 0.23177718 -0.10910601
18722500000 0.14578672 -0.053372964 -5.2748816e-005 9.7427117e-005 -0.014556369 -0.028404338 0.17386222 -0.29450735
18743750000 0.22787903 -0.15250148 -1.7741979e-005 1.0140805e-005 -0.0062449779 0.032635473 0.15723085 -0.25341067
18765000000 0.21373042 0.077464685 -4.2500495e-005 -8.4189502e-005 0.018043006 -0.021888888 0.18835786 -0.35505277
18786250000 0.08402928 -0.016341567 -8.6017004e-005 -1.8727724e-005 -0.026139336 0.015553114 0.055477042 -0.34211531
18807500000 0.22670974 -0.09325128 5.559971e-005 -1.7290991e-005 0.033609729 0.0028148338 0.033441119 -0.43005171
18828750000 0.1384268 -0.042738158 9.4811454e-005 4.1400278e-007 -0.025288288 -0.019405268 -0.02194071 -0.45959371
18850000000 0.15465723 -0.052420609 4.5786674e-005 6.1482671e-005 0.014198632 0.029298328 0.10511855 -0.11779398
18871250000 0.23801242 0.09008339 1.7310842e-005 -1.2445785e-005 0.00099792844 -0.031611502 0.12538719 -0.59113193
18892500000 0.13930203 0.22921714 -1.2764421e-005 -6.9490648e-005 -0.018093748 0.026352836 0.047837257 -0.43124789
18913750000 0.10265986 0.029899547 -2.5948973e-005 -2.7475024e-005 0.028075572 -0.012479594 0.20222124 -0.61142582
18935000000 0.079693809 0.0065037142 -5.3201652e-006 7.873054e-005 -0.029153964 -0.0028724496 -0.071352765 -0.67921549
18956250000 -0.035292868 -0.0051943236 2.0508902e-005 -3.4229583e-005 0.027057691 0.017918734 -0.013297793 -0.50428545
18977500000 0.02766552 -0.062040698 -5.2513969e-005 0.00010148767 -0.0099418862 -0.032288905 0.12819943 -0.41694531
18998750000 0.07347519 0.16779508 -1.3752942e-005 7.361632e-005 -0.0051500625 0.029324442 0.2505511 -0.52979618
19020000000 -0.045942474 0.13351493 3.2554304e-005 -7.2912182e-005 0.016550859 -0.027103974 0.13245687 -0.59599143
19041250000 -0.10554317 0.0078446046 -3.2603883e-005 4.2271499e-006 -0.031281594 0.011047732 -0.0048449659 -0.4892835
19062500000 -0.10337725 0.073003106 -5.442465e-006 8.6697342e-005 0.028656246 0.0047049536 0.28572488 -0.61615092
19083750000 -0.077249877 -0.17460948 -8.9961468e-005 3.8032733e-005 -0.021647001 -0.017021298 -0.039474528 -0.60975546
19105000000 0.085700937 -0.056779947 -4.846005e-005 -7.692325e-005 0.011119361 0.029169705 0.023256339 -0.22421698
19126250000 0.056111272 0.048275076 -1.8927549e-005 2.8122786e-006 0.004372397 -0.030461736 0.45769322 -0.55434608
19147500000 -0.064092211 -0.043373466 3.9825019e-005 1.671884e-007 -0.018118497 0.021279374 0.10626446 -0.58750594
19168750000 -0.12214567 -0.10407016 2.7496526e-005 -5.9592985e-005 0.022736397 -0.011030847 0.15926249 -0.46932858
19190000000 -0.16498768 -0.19167262 0.00013552497 -5.0430546e-005 -0.029165013 -0.0030175522 0.13985458 -0.4837037
19211250000 -0.10726057 -0.29591864 2.5161196e-005 -5.3350308e-005 0.019940061 0.020245114 0.19861384 -0.4528943
19232500000 0.13118669 -0.16306926 9.0585439e-005 -5.5083774e-006 -0.0062042451 -0.023661908 -0.098530337 -0.33738881
19253750000 -0.0099099241 -0.10917167 4.9775303e-005 -1.2293175e-005 -0.0043373397 0.028991664 0.31053269 -0.27580771
19275000000 0.041155197 -0.19225693 3.095618e-005 -2.3158702e-005 0.020696986 -0.020256115 0.18492241 -0.52592492
19296250000 -0.002082698 -0.13241 0.0001374463 -8.3185725e-005 -0.025461199 0.0060206475 0.027268546 -0.39663041
19317500000 -0.12630612 -0.23210822 7.5539858e-005 -1.9491143e-005 0.026426457 0.0052791131 0.20570017 -0.36092973
19338750000 0.19140895 -0.29839674 3.3261502e-005 -6.6643159e-005 -0.019291542 -0.018469244 -0.12630613 -0.53352779
19360000000 0.17976482 -0.20952564 1.1414839e-005 3.1414205e-005 0.0053595179 0.027614318 -0.10750499 -0.1995021
19381250000 0.16075864 -0.22960772 -6.0759521e-005 -1.2558769e-005 0.0092899855 -0.025520233 0.16097544 -0.30799466
19402500000 0.20176308 -0.13479893 -0.00012530979 -2.0713089e-005 -0.018732531 0.017932083 -0.052127603 -0.37169892
19423750000 0.032652173 -0.15970649 6.5860375e-005 4.5484747e-005 0.028999873 -0.009496632 0.057903659 -0.47388926
19445000000 0.093867831 -0.163533 -2.0946351e-005 -2.772108e-005 -0.026462872 -0.01250538 -0.21790931 -0.36717924
19466250000 0.26117322 -0.11373448 0.00023162276 7.4169286e-005 0.016795112 0.021068094 -0.074405879 -0.36636692
19487500000 0.19397153 -0.059634689 4.6441681e-005 -6.5099106e-005 -0.0053279903 -0.029838201 -0.27394655 -0.4745045
19508750000 0.22478391 -0.15603434 -9.0789923e-005 2.828301e-005 -0.015538806 0.030517966 -0.19700584 -0.084030226
19530000000 0.15474042 0.03305335 -4.2446404e-006 -0.00010032467 0.023516484 -0.017540241 0.11964563 -0.41967365
19551250000 0.060280584 -0.022239428 -6.4833388e-005 7.7579542e-005 -0.029205397 0.003040669 -0.44180503 -0.72627056
19572500000 0.21890226 -0.038294844 6.1430143e-007 7.6643948e-005 0.027683515 0.013348535 -0.18323818 -0.23070753
19593750000 0.15604369 0.096549727 5.4604163e-005 -6.9135582e-005 -0.017172912 -0.026686627 -0.17629129 -0.62750816
19615000000 0.080626927 -0.017477637 -0.00011705598 -4.5463497e-005 -0.00057445461 0.030008497 -0.34219539 -0.41145241
19636250000 0.10572217 0.052890986 -0.00015573851 1.4379517e-005 0.011962245 -0.026936242 -0.12809315 -0.36494127
19657500000 -0.097426176 0.10241729 -1.2120539e-005 -0.00019995705 -0.025991004 0.018803779 -0.17764583 -0.41138071
19678750000 0.00081281667 0.0067954329 -2.2690713e-006 -0.00022111322 0.028473038 0.003548821 -0.073719032 -0.74324077
19700000000 -0.010199398 0.086335048 -0.00011646488 -4.4660439e-005 -0.022527076 -0.012581026 -0.37840414 -0.50344735
19721250000 -0.020664606 0.060137726 0.00014320789 7.4336429e-005 0.018352766 0.023848958 -0.07787139 -0.33284402
19742500000 -0.14092639 -0.040167741 6.7556924e-005 -8.983451e-005 -0.0012010898 -0.029881714 -0.14500766 -0.69556683
19763750000 -0.16965126 0.021014998 -5.3459087e-005 -6.5334483e-005 -0.012583286 0.024521176 -0.28840739 -0.34047014
19785000000 -0.21356557 0.058843046 -1.1265402e-005 3.5076322e-005 0.022834837 -0.018462457 0.21954268 -0.29000375
19806250000 -0.079045162 -0.081448384 2.0106894e-005 -9.2333343e-005 -0.028696826 0.00082626363 0.014150115 -0.81920987
19827500000 -0.095908351 0.021411302 -3.2832268e-005 9.976259e-005 0.027190125 0.015231803 -0.056456376 -0.35769549
19848750000 -0.21537653 -0.11877163 -8.980338e-006 -0.00010526637 -0.014700324 -0.025790662 0.061219901 -0.41228133
19870000000 -0.12763099 -0.12704723 -6.0376646e-005 8.9909881e-005 0.0032378465 0.028464885 -0.022617029 -0.41173378
19891250000 -0.24530591 -0.17637409 2.2251593e-006 -9.5720025e-005 0.012812302 -0.028068798 0.1346436 -0.29168585
19912500000 -0.099177726 -0.32328966 -2.5323647e-005 -4.7866593e-005 -0.026582213 0.014819927 0.11161824 -0.014505393
19933750000 -0.0088420678 -0.15119271 6.0486418e-005 0.00022487635 0.026097735 -0.0010041542 0.26348507 -0.48071346
19955000000 -0.10906409 -0.21180348 0.00012461208 -2.1952937e-005 -0.030322092 -0.014569065 -0.30188698 -0.36546305
19976250000 -0.157295 -0.23944803 0.00010139201 -0.00016038612 0.018347191 0.029234709 0.057498559 0.02677446
19997500000 -0.18110162 -0.2270781 -9.5148542e-005 -2.6861102e-005 -0.0022055563 -0.032048654 0.034077462 -0.15918961
20018750000 -0.064490445 -0.27778998 -9.7957731e-005 8.7703418e-005 -0.012580706 0.030508248 -0.14836694 -0.0089668399
20040000000 0.16232541 -0.3120825 -3.036303e-005 5.7998677e-005 0.028550746 -0.020806875 0.043909643 0.22761144
20061250000 0.30174699 -0.079713471 -4.3011627e-005 -5.2981686e-005 -0.034047399 -0.00067962817 0.017788544 -0.26731303
20082500000 0.10738501 -0.045427017 -7.6685181e-005 3.8826412e-005 0.025611082 0.017521663 -0.3459233 -0.21070425
20103750000 0.14176886 0.010797964 -7.3792362e-005 5.7765233e-006 -0.017791603 -0.025520859 -0.33412886 -0.091563068
20125000000 -0.12611619 0.053605955 -0.00013924461 0.00018220179 0.0018395645 0.034187805 -0.34678015 0.10562232
20146250000 0.058488362 -0.18141006 0.00021163069 -3.7523379e-005 0.015415232 -0.025064526 -0.28277162 -0.28578123
20167500000 0.2781052 -0.078997731 -0.00015573774 1.0851851e-006 -0.024741594 0.016777972 -0.79637551 -0.15883783
20188750000 0.21498296 0.014221572 2.2888624e-005 -1.3401053e-006 0.031226574 -0.0036260237 -0.030979279 -0.1185734
20210000000 0.2230114 0.10685737 -1.9439924e-005 1.060278e-006 -0.025525473 -0.018232439 -0.57109672 -0.84071517
20231250000 0.026223741 0.36587229 0.00011791239 -1.3187379e-006 0.016089782 0.024755076 -0.74939126 -0.14692682
20252500000 -0.11505246 0.18072449 -0.00015765864 -4.4704175e-005 -0.0033426462 -0.027743237 -0.4431271 -0.43223196
20273750000 0.037373181 0.11445209 6.1374791e-005 -1.0562599e-005 -0.012411436 0.026443746 -0.39459315 -0.3772406
20295000000 0.088505246 0.20562455 6.92061e-005 0.00016209914 0.024005245 -0.013257626 -0.44779918 -0.47245374
20316250000 0.032551758 0.18026529 0.00011995035 -0.00011551161 -0.023873707 0.0014693376 -0.17636161 -0.55336475
20337500000 -0.11199678 0.25426805 -2.1416798e-005 -0.00018275165 0.022420226 0.010373961 -0.066632971 -0.79661149
20358750000 -0.30738625 0.355829 -0.0001444385 -1.572568e-005 -0.012879685 -0.022853075 -0.57883281 -0.68672752
20380000000 -0.33383977 0.088331796 3.5433823e-005 2.2744298e-006 -0.0012480911 0.023159016 -0.30907363 -0.35510063
20401250000 -0.15384732 0.084700517 0.0001041646 1.4789685e-005 0.0097015556 -0.020380937 0.29366758 -0.67451954
20422500000 -0.24094895 0.054474596 -5.7364199e-005 -6.4970533e-005 -0.021121908 0.013058667 -0.20089364 -0.63022059
20443750000 -0.13204849 0.043651551 -0.00012093908 7.9430632e-005 0.023296973 -0.00088517246 0.15284936 -0.19535196
20465000000 -0.25774822 0.22111236 -4.905778e-005 -7.8016574e-006 -0.017665755 -0.011330267 0.38979298 -0.82720906
20486250000 -0.38572216 0.070590355 3.2311098e-005 4.3788994e-005 0.011714844 0.018441729 -0.31558484 -0.32726413
20507500000 -0.18918236 -0.026971577 -3.6445726e-005 3.3278669e-005 -0.0018519913 -0.023099862 0.23051125 -0.10579178
20528750000 -0.15100911 -0.1051314 0.00010275626 0.00019924421 -0.013286605 0.019822991 0.21951739 -0.1625559
20550000000 -0.099219427 -0.28072733 0.00015246939 -5.2604122e-005 0.017588973 -0.011104912 0.19744933 -0.055680145
20571250000 -0.089783311 -0.14643078 3.0539486e-005 -6.437616e-005 -0.022504663 0.0024864292 -0.013717728 0.043445207
20592500000 -0.11710975 -0.093941003 4.2989072e-005 5.9706931e-006 0.019636042 0.013259728 0.36695126 0.22302753
20613750000 -0.091772571 -0.18556766 -0.00017163264 0.00017184891 -0.0084435483 -0.018322 -0.23878065 -0.17475446
20635000000 0.24599731 -0.26520175 -0.00015345089 0.00013405127 0.0021693611 0.020424455 -0.41083813 0.57991165
20656250000 0.094744131 -0.25202674 -2.9136996e-005 3.1643896e-005 0.011788411 -0.016584642 0.23072772 0.47602788
20677500000 0.19538386 -0.35211995 7.3393734e-005 -1.3145439e-005 -0.019516546 0.00609397 -0.2967234 0.02591978
20698750000 0.25128102 -0.085143879 -7.3496798e-005 1.7275028e-005 0.020829065 0.0036966475 -0.54866308 0.49509573
20720000000 0.11163738 -0.14258483 -5.6805267e-005 1.512745e-005 -0.016901899 -0.012282234 -0.28450602 0.30494171
20741250000 0.34986094 -0.11210295 -6.8932713e-005 -3.6760513e-005 0.012217804 0.020650582 -0.78899217 0.24307279
20762500000 0.35542771 -0.037587997 8.4247709e-005 -0.00016252826 0.0041278554 -0.022092637 -0.69029725 0.29526514
20783750000 0.24406917 -0.081056543 -4.9790258e-005 -9.8713092e-005 -0.012686037 0.01494746 -0.48280168 0.34637672
20805000000 0.4098011 0.05713867 0.00013648668 0.00012039507 0.021847535 -0.0091506401 -0.42722979 -0.061048049
20826250000 0.2627739 0.22409363 -0.00017463768 3.50072e-005 -0.024985086 -0.0077442518 -0.91109431 -0.22023454
20847500000 0.20606276 0.088710152 -0.00010520234 -3.8986738e-005 0.013546619 0.016714564 -0.5902465 -0.021792592
20868750000 0.28162259 0.15266064 7.3684459e-005 0.00019756678 -0.0059383572 -0.021958884 -0.44104719 -0.74144673
20890000000 0.17048271 0.18371455 -0.00020075361 2.7775475e-005 -0.009122733 0.023000391 -1.0573752 -0.3429043
20911250000 0.22944289 0.10422419 -1.6006188e-005 -7.5418458e-005 0.017272843 -0.013286895 -0.38854092 -0.19158943
20932500000 0.20880766 0.29076937 0.00015817791 7.0079528e-005 -0.021467522 0.0024858341 -0.47134566 -0.7470122
20953750000 -0.040515631 0.34693313 3.9054674e-005 -4.0553368e-005 0.020922426 0.007555719 -0.44038644 -0.62098068
20975000000 0.17347023 0.03881957 0.00026069721 0.00017164987 -0.014590107 -0.017357342 -0.20816734 -0.55357152
20996250000 0.065877959 0.10654989 5.0964616e-005 8.1679842e-005 0.0022918789 0.024993744 -0.17019768 -0.56632549
21017500000 -0.10879622 -0.015031752 2.636385e-005 8.6494292e-005 0.0095002577 -0.018958215 -0.1522831 -0.72117716
21038750000 -0.013475969 0.051622398 -9.2017675e-005 -5.9209553e-005 -0.018365981 0.017557008 -0.21785435 0.16590983
21060000000 -0.21172051 0.16684289 0.00011910003 0.00011413795 0.025185227 -0.0011199034 0.58325714 -0.31768239
21081250000 -0.21797131 -0.028672665 -9.4041694e-005 -8.9147754e-005 -0.018996939 -0.0081799375 0.063566215 -0.61400348
21102500000 -0.083139449 -0.062970154 8.6784705e-005 -1.6306514e-005 0.015572266 0.014371139 0.10651174 0.021144219
21123750000 -0.11387341 -0.13198964 -2.8365019e-005 2.6730022e-006 -0.0024905351 -0.023860984 0.44712922 -0.25929764
21145000000 -0.04477185 -0.35232496 -2.7737851e-005 0.00011185631 -0.011271929 0.019558333 -0.074389026 -0.36155802
21166250000 0.058535386 -0.15872605 -0.00014627168 7.2676361e-005 0.017459041 -0.012584215 0.13138136 0.37494576
21187500000 -0.03171717 -0.18981907 9.8267468e-005 -8.7722503e-005 -0.021247724 0.0031717985 0.095212519 0.10552841
21208750000 0.02582312 -0.37979844 -1.4298386e-005 -0.00015205239 0.019800324 0.0092574228 0.15280296 0.087077893
21230000000 0.04595229 -0.222784 0.00022912682 -2.6888698e-005 -0.010224824 -0.017538836 -0.11817148 0.052339461
21251250000 -0.13077834 -0.45159566 0.00013854013 -7.6288663e-005 0.0012482844 0.015927456 -0.010267941 0.52898788
21272500000 0.17030942 -0.38632482 -8.15085e-005 9.4566443e-005 0.0069652833 -0.019117562 0.14663747 0.021117814
21293750000 0.25042453 -0.17560078 0.00010672228 -0.00012188713 -0.017701214 0.011442242 -0.71701121 0.36406755
21315000000 0.24873894 -0.29837641 0.00010977668 2.6388929e-005 0.017160775 -0.00036716487 -0.073629975 0.53991181
21336250000 0.32025328 -0.26876715 -0.00012301926 1.0661106e-005 -0.017883604 -0.0059476527 -0.24718451 -0.026846515
21357500000 0.18413897 -0.21399526 -9.5718897e-005 -2.6844282e-005 0.012116682 0.016358977 -0.65720463 0.29038996
21378750000 0.084902875 -0.29355726 1.0391253e-005 -0.00015162436 -0.0031291347 -0.017335936 -0.36676687 0.35560608
21400000000 0.29979375 -0.25322247 -0.00019001841 -0.0002064513 -0.0040569277 0.016301669 -0.60366887 -0.083400697
21421250000 0.19885266 -0.10684071 -7.7915181e-005 9.8339242e-006 0.011727422 -0.012810638 -0.73289651 0.11852968
21442500000 0.31255484 -0.22000167 4.6229849e-005 7.9541942e-006 -0.015864113 0.001925036 -0.59838235 0.17171949
21463750000 0.33796123 -0.020995835 -3.8360573e-005 -5.6591762e-005 0.012840142 0.007795719 -0.29230779 0.064662352
21485000000 0.082010306 -0.050618194 -4.7090933e-005 7.2729228e-005 -0.0077347113 -0.011419047 -0.63578403 -0.34808451
21506250000 0.19605501 -0.11785695 -4.8805334e-005 0.00018815062 0.0036870569 0.01694815 -0.53204525 0.079460584
21527500000 0.076244235 0.066702917 -9.065913e-005 -0.00029873973 0.0095633892 -0.014408735 0.058711588 -0.24790516
21548750000 0.029179193 -0.083662383 0.00027740252 0.00015719471 -0.011292481 0.0084091332 -0.81397474 -0.51901531
21570000000 0.18646125 -0.06762699 9.5337462e-005 0.00024063795 0.014681753 -0.0033227974 -0.20149718 0.082481377
21591250000 0.010089944 -0.036519911 0.00013695459 0.00016669281 -0.017333666 -0.0083647324 0.12032356 -0.36992413
21612500000 -0.11346792 -0.17306551 0.00018104128 7.0295796e-006 0.0086371563 0.013700566 -0.30477792 -0.54064375
21633750000 -0.08630427 -0.024174949 -1.5349749e-005 -0.0001276 -0.00058847776 -0.013772491 -0.16837335 -0.013588151
