!Keysight Technologies,N5242B,MY47200105,A.14.00.23
!Date: Friday, May 10, 2024 11:06:50
!Correction: S11(C  2-Port  ) 
!S21(C  2-Port  ) 
!S12(C  2-Port  ) 
!S22(C  2-Port  ) 
!S2P File: Measurement: :
# Hz S  RI   R 50
18000000000 0.13328019 -0.028254004 6.4428896e-005 -5.8951977e-005 -0.012987305 0.00021763188 0.88283169 -0.42417032
18021250000 0.06579151 -0.21592623 -4.0499515e-005 -5.552125e-005 0.0084288614 0.011282697 0.31719396 -0.19054876
18042500000 0.22186343 -0.089397386 -1.8503912e-005 -5.942538e-005 0.0015063513 -0.010257978 0.50166243 -0.046551738
18063750000 0.14712605 0.014575988 -0.0001892642 7.7925652e-005 -0.00051964429 0.011531816 0.41465047 -0.18846753
18085000000 0.20813663 -0.052926391 -4.3213855e-005 4.5942466e-005 0.012783566 -0.012699915 0.42999527 0.093882494
18106250000 0.33021411 -0.0040966081 0.00019482868 0.00010279097 -0.013985109 8.5455882e-005 0.48058021 -0.090171464
18127500000 0.20379339 -0.049459346 5.2776308e-005 -1.4911655e-005 0.0086568734 0.0024476284 0.57228535 -0.20443305
18148750000 0.20019285 -0.041766893 -6.567836e-005 -2.8766517e-005 -0.0086015873 -0.0081156539 0.30470067 -0.36603817
18170000000 0.29967514 0.08331497 4.3211548e-005 -0.00010546816 -7.0006397e-005 0.013784115 0.097525686 -0.1163756
18191250000 0.15627299 0.18728803 -0.00011276545 3.6021771e-005 0.0079453159 -0.011079423 0.28034124 -0.081692621
18212500000 0.24418706 0.072388753 6.8622088e-005 -1.7512379e-005 -0.0096042641 0.0058217272 0.10198732 -0.12063222
18233750000 0.16131881 0.1425001 -0.0001442236 -2.6815875e-005 0.012803499 -0.0028253105 0.32683852 -0.15208291
18255000000 0.030621851 0.062951818 0.00013119259 4.3429711e-005 -0.01370643 -0.0082608107 0.4329243 -0.53815228
18276250000 0.14545688 0.013299685 3.3611559e-005 1.8490151e-005 0.0022582943 0.011027071 0.15408781 -0.46150422
18297500000 0.067791596 0.15236767 -6.927151e-007 5.6829173e-005 -0.0014227402 -0.0091089914 0.078149498 -0.4607895
18318750000 0.029168902 0.12561968 -3.3408927e-005 2.2907259e-005 -0.0074794097 0.012566934 0.11748274 -0.33968148
18340000000 0.068778917 0.088611856 9.9334989e-005 3.9786304e-005 0.012101742 -0.0012592339 0.14274587 -0.24206419
18361250000 -0.12099832 0.10822086 2.1473494e-005 8.5768654e-005 -0.0083217118 -0.0018154694 0.36025608 -0.478255
18382500000 -0.075324528 -0.016518492 -6.3917156e-005 6.7823232e-005 0.0098967971 0.0066035939 0.394674 -0.40706056
18403750000 0.0055068852 -0.017217737 8.2048236e-006 -0.00011126413 -0.0032241056 -0.01283791 0.28008121 -0.67315114
18425000000 -0.029820437 0.015198387 2.035636e-005 -6.969794e-005 -0.0050014723 0.011283064 0.069179185 -0.56319493
18446250000 -0.026699563 -0.11935814 -3.0485808e-005 -5.0187195e-005 0.0078769382 -0.0063858391 0.50454932 -0.42132786
18467500000 0.014368666 0.0067787995 -0.0002491037 -6.4947367e-006 -0.0086191166 0.0052307649 0.26649642 -0.54884619
18488750000 -0.19019978 -0.030834002 -5.2568063e-005 -9.8842036e-005 0.01189425 0.0040407311 0.36049992 -0.3925316
18510000000 -0.088065118 -0.15005626 2.6285056e-006 5.3258042e-005 -0.0032135583 -0.0094796903 0.50554264 -0.54710293
18531250000 -0.029959789 -0.022009935 -8.0306978e-005 3.921708e-005 0.0017009496 0.0073319515 0.37908831 -0.54538506
18552500000 -0.060393695 -0.19121104 0.00016579316 0.00012543808 0.0040615387 -0.01327804 0.28732109 -0.53229833
18573750000 0.076391585 -0.18517603 6.0256276e-005 -5.8166956e-005 -0.012378354 0.0053155413 0.16017659 -0.19609578
18595000000 0.085455202 -0.071899876 8.701966e-005 3.1154737e-005 0.010278469 -0.0013377409 0.43812951 -0.11326965
18616250000 0.049944788 -0.13625309 3.5825244e-005 -0.00010799379 -0.011694279 -0.0035043866 0.3818973 -0.46837622
18637500000 0.1708256 -0.10363924 2.0971598e-005 1.1184531e-005 0.0061634206 0.010706708 0.26750305 -0.15973812
18658750000 0.081546672 -0.071673825 -1.1377182e-005 -0.00010749981 0.00174753 -0.010929944 0.49726695 -0.49431896
18680000000 0.08684732 -0.20309696 -8.8791621e-006 -6.4368091e-005 -0.0057187984 0.0066743349 -0.030382458 -0.44409162
18701250000 0.23505406 -0.096021168 -0.00010748855 7.5133466e-005 0.0077425269 -0.0060297363 0.23437053 -0.10639708
18722500000 0.14758721 -0.056492385 2.8669949e-005 0.0001707515 -0.013188442 1.5707847e-005 0.17618787 -0.29375866
18743750000 0.23020038 -0.15026681 4.0748229e-005 -3.9223564e-006 0.006063615 0.0080584195 0.15913688 -0.25229505
18765000000 0.21415277 0.072781719 -4.469643e-005 4.3672742e-005 -0.0042698332 -0.0067190523 0.1897427 -0.35503554
18786250000 0.086151168 -0.016323328 4.6360059e-005 7.5182274e-005 -0.0012330593 0.013145842 0.055021826 -0.34093216
18807500000 0.22758043 -0.093302332 3.1001986e-005 7.0973176e-005 0.011437504 -0.0070832856 0.033238944 -0.42888832
18828750000 0.13854523 -0.04246939 -6.0591214e-005 8.4453357e-005 -0.0099641904 0.00035516042 -0.022859046 -0.45895559
18850000000 0.16062237 -0.049907457 -0.00010126393 3.8793169e-005 0.012040518 0.0044046603 0.105329 -0.11429863
18871250000 0.23873778 0.088654898 1.0883559e-005 8.6057335e-005 -0.007741923 -0.009565657 0.12594175 -0.59139043
18892500000 0.14092879 0.22621904 -0.00012095168 3.7710623e-005 8.5995591e-005 0.011299252 0.046952508 -0.43015811
18913750000 0.10470293 0.030960711 -0.00013234839 2.8818573e-005 0.0059095505 -0.0077204024 0.20278038 -0.61101896
18935000000 0.074456185 0.0083653107 -1.3265769e-005 1.0684739e-005 -0.0071185799 0.0046691936 -0.073101029 -0.67948472
18956250000 -0.030629376 -0.003971233 0.00012390227 -4.510695e-005 0.012149835 0.0013689323 -0.013896918 -0.50349337
18977500000 0.028017862 -0.05942351 1.2582772e-005 1.3564277e-005 -0.0056366012 -0.010847461 0.12822334 -0.4158268
18998750000 0.072741158 0.16857573 1.3696073e-006 -0.00020012236 0.0008381668 0.0087067699 0.25152561 -0.53007734
19020000000 -0.044524506 0.13242893 -9.0399386e-005 5.9561382e-005 0.0024206263 -0.013031879 0.13261642 -0.59725273
19041250000 -0.10901075 0.011673938 2.6813248e-006 5.898939e-005 -0.011512793 0.0067847678 -0.0057134372 -0.48957694
19062500000 -0.10168522 0.072567858 -0.0001234185 7.5730997e-005 0.0094087813 0.00027279995 0.28749046 -0.61704177
19083750000 -0.076252706 -0.17345788 5.7531284e-005 -5.341716e-005 -0.008845591 -0.0040550726 -0.039426938 -0.61127585
19105000000 0.084499687 -0.055053968 -1.0982617e-005 5.0178893e-005 0.0060589896 0.010706429 0.024654081 -0.22271325
19126250000 0.055549182 0.043796625 -0.00011452466 -8.7242173e-005 -0.00027726206 -0.013000355 0.46161902 -0.55763328
19147500000 -0.066936813 -0.040992852 -8.1012631e-006 2.3036886e-005 -0.005870115 0.0094130877 0.10666562 -0.58899373
19168750000 -0.12294295 -0.10326461 -0.0001816923 -4.0935884e-005 0.0070421575 -0.0063746003 0.16043279 -0.47037584
19190000000 -0.16387038 -0.19377236 2.0226264e-005 -4.5431243e-005 -0.012852393 0.0023583684 0.14078513 -0.48391569
19211250000 -0.10433116 -0.29394302 3.9457169e-005 -0.00011740471 0.0085861944 0.0083507076 0.20113614 -0.45317489
19232500000 0.12896757 -0.16834399 2.0415519e-005 7.2405615e-005 -0.0032021955 -0.0076596616 -0.099196352 -0.33709738
19253750000 -0.0097685959 -0.10998162 -2.1397353e-005 -1.9466152e-005 -3.9636281e-005 0.012638039 0.31355664 -0.27418929
19275000000 0.041788444 -0.19139715 8.4826988e-006 1.7013426e-006 0.010166062 -0.0093871029 0.18637131 -0.52701902
19296250000 -0.0023111189 -0.13417086 -0.00012736414 -1.718276e-005 -0.010667367 0.0022439123 0.027054448 -0.39586493
19317500000 -0.12135717 -0.23070681 9.3307761e-005 6.0541723e-005 0.011708231 0.0014341384 0.20762855 -0.3591727
19338750000 0.19116539 -0.30135393 0.0001271699 -6.6625835e-005 -0.0085618142 -0.0082373945 -0.12652943 -0.53354168
19360000000 0.1787249 -0.21070027 -7.0109418e-005 -0.00012539394 0.00125172 0.012306337 -0.10742054 -0.19743533
19381250000 0.16376069 -0.22520044 8.3693463e-005 0.00010733604 0.0061447029 -0.010391304 0.16286081 -0.30706826
19402500000 0.1985392 -0.13426572 -5.5993325e-005 -6.9628084e-005 -0.0079161795 0.0075581954 -0.052860159 -0.37065351
19423750000 0.038237806 -0.16011901 6.343019e-005 1.5421723e-005 0.014614618 -0.0041446933 0.058606196 -0.4746286
19445000000 0.095245652 -0.16299123 5.78295e-005 4.4694345e-005 -0.012059522 -0.0087177763 -0.22056212 -0.36628383
19466250000 0.25812671 -0.11325423 1.1960859e-005 -2.0160638e-005 0.0052540423 0.0101536 -0.074036151 -0.36529222
19487500000 0.19567871 -0.05905379 -1.3048691e-005 2.9449844e-005 -0.00075269362 -0.015619972 -0.27538487 -0.4758279
19508750000 0.22113264 -0.15121576 -1.1527814e-005 2.465358e-005 -0.012047818 0.014185662 -0.19803546 -0.082086921
19530000000 0.15757737 0.035323419 -1.2562425e-005 0.00016384936 0.013767261 -0.0054494804 0.12167827 -0.4212186
19551250000 0.063084081 -0.022822108 -2.752376e-005 -8.4481646e-005 -0.013561783 -0.0015680516 -0.44440085 -0.72888803
19572500000 0.21595114 -0.036427889 -0.00022065711 -0.00023846354 0.011290818 0.0097723212 -0.18325493 -0.22886062
19593750000 0.15675201 0.093357213 -0.00016543642 -8.3193074e-005 -0.0041575646 -0.01605574 -0.17621587 -0.62922794
19615000000 0.079450317 -0.015170367 0.00013317306 -3.1097195e-005 -0.0061051971 0.014999747 -0.34258819 -0.41121686
19636250000 0.10415391 0.053566769 9.4946663e-005 -5.5024273e-005 0.0095938314 -0.010866402 -0.12764889 -0.36491871
19657500000 -0.09596698 0.099223308 -1.6359238e-005 -0.00014667636 -0.015981153 0.00568743 -0.17735168 -0.41066945
19678750000 -0.00089294766 0.0079023372 -0.00013171711 0.00011994073 0.013451379 0.0088390037 -0.071385421 -0.74428284
19700000000 -0.010080645 0.08328443 -1.5711074e-005 3.983971e-005 -0.0058640582 -0.010584819 -0.38000557 -0.50360215
19721250000 -0.023423305 0.060082436 -5.1391889e-005 4.8714817e-005 0.0043659774 0.01430658 -0.076163292 -0.33029321
19742500000 -0.13934267 -0.039004225 3.2371394e-005 -3.1671778e-005 0.0061077508 -0.014443108 -0.14387855 -0.69729275
19763750000 -0.16969609 0.017641529 -0.00016107124 -0.00015333557 -0.010514121 0.0067822835 -0.28907403 -0.33915663
19785000000 -0.21170817 0.059129037 9.6470001e-005 3.0458652e-005 0.01286006 -0.0021324616 0.2224464 -0.28816316
19806250000 -0.079219706 -0.084703043 -0.00013320395 -4.4131571e-005 -0.012574566 -0.0065696319 0.015206037 -0.82075959
19827500000 -0.098723799 0.020406459 -1.000148e-005 -8.2353348e-005 0.0088635767 0.014140877 -0.056192152 -0.35617745
19848750000 -0.21255597 -0.11499511 6.4157801e-005 -3.9832779e-005 0.0011027297 -0.015455755 0.062711053 -0.4119153
19870000000 -0.12727992 -0.12863445 -0.00019930674 5.1199182e-005 -0.0057246019 0.011285196 -0.022571133 -0.4116222
19891250000 -0.24068452 -0.17532361 -4.9073838e-005 9.8974942e-006 0.012500541 -0.009113648 0.13572994 -0.29300088
19912500000 -0.096456923 -0.32341114 0.00010549445 -3.7663809e-005 -0.016789503 -0.0034203967 0.11077798 -0.012831032
19933750000 -0.010305933 -0.15234372 -1.6648706e-005 0.00012335215 0.010002686 0.0085715223 0.2652517 -0.48285192
19955000000 -0.10537355 -0.20870586 -8.2115155e-005 -5.3576656e-005 -0.0091612516 -0.015310094 -0.30536383 -0.36846659
19976250000 -0.15830714 -0.23806922 -0.00012221535 -0.00010467444 -0.0012504853 0.019816378 0.057584047 0.028205235
19997500000 -0.17838879 -0.22551306 -1.3116947e-005 -7.6746532e-005 0.0097325183 -0.013165345 0.03434395 -0.16082712
20018750000 -0.061563905 -0.27885404 -4.4036366e-005 -8.2406594e-005 -0.014821773 0.0068018255 -0.1493734 -0.0092901308
20040000000 0.15894172 -0.31098458 -5.5971759e-006 -6.744131e-005 0.018964101 0.0024602928 0.044539109 0.22906634
20061250000 0.30171597 -0.079331324 1.4208646e-005 2.485993e-006 -0.014121216 -0.014354618 0.018776039 -0.26909977
20082500000 0.10521745 -0.042270701 4.6508449e-005 -0.00011874931 0.0020564448 0.019438408 -0.34533724 -0.21232323
20103750000 0.14068933 0.014784599 -7.9376987e-005 0.00011476019 0.0034835208 -0.015268524 -0.33307427 -0.093289435
20125000000 -0.12191264 0.051680036 4.7147383e-005 8.658025e-005 -0.012088849 0.01466208 -0.34575763 0.10619552
20146250000 0.057066415 -0.17924564 1.2578389e-005 6.5858047e-005 0.017345963 -0.0016617731 -0.27925226 -0.28873706
20167500000 0.27733758 -0.081633434 -3.8665676e-005 7.2386312e-005 -0.013485215 -0.0067085004 -0.79939902 -0.15934747
20188750000 0.21347491 0.013347656 7.7724741e-005 4.2842148e-005 0.012774371 0.01134424 -0.02514158 -0.11683541
20210000000 0.22147402 0.1110901 0.00017515219 -1.5972295e-005 -0.00039482108 -0.019575376 -0.56920844 -0.84507304
20231250000 0.026493536 0.3617695 -1.360771e-005 0.00016399343 -0.0084910505 0.014996392 -0.74968314 -0.14411867
20252500000 -0.11248764 0.18207774 -6.8697838e-005 0.00024650185 0.012890602 -0.0080631431 -0.44112024 -0.43272471
20273750000 0.038190331 0.11208704 0.00011828597 4.0771487e-005 -0.015861396 0.00050543161 -0.39302596 -0.37599352
20295000000 0.086539 0.20169884 -6.5492473e-005 -2.7126559e-006 0.013373442 0.0098831868 -0.44869283 -0.47148499
20316250000 0.035491694 0.18313864 7.9097226e-005 5.5198292e-005 -0.004024507 -0.01355237 -0.17550935 -0.55156922
20337500000 -0.11259099 0.25184959 2.2726172e-005 -7.1606388e-005 -0.0024906129 0.010953535 -0.066183329 -0.79573214
20358750000 -0.30374831 0.35426039 2.6861971e-005 0.0001238184 0.00824867 -0.012190643 -0.58230555 -0.68752098
20380000000 -0.32929841 0.0882295 -7.2261969e-006 -8.8795947e-005 -0.01409819 0.0035879414 -0.31148362 -0.35174394
20401250000 -0.15783882 0.082506955 6.3542931e-005 8.6932065e-005 0.010252456 0.0022778534 0.29597211 -0.6740346
20422500000 -0.23486269 0.056694001 0.00016998481 -1.9013101e-005 -0.010303144 -0.0066005052 -0.20414639 -0.63207817
20443750000 -0.13184552 0.045916926 -5.4015825e-005 6.1010673e-005 0.0039280355 0.013591405 0.15121049 -0.19195032
20465000000 -0.25482047 0.22106087 4.2231222e-006 0.00012717744 0.0069905114 -0.010755882 0.39052022 -0.8307029
20486250000 -0.37963426 0.069850296 -2.3292991e-005 2.3563798e-005 -0.010609644 0.0061622267 -0.32053098 -0.32771039
20507500000 -0.19463299 -0.023916345 -2.5364854e-005 8.3420593e-005 0.012040752 -0.0017066804 0.23024622 -0.10643921
20528750000 -0.14901868 -0.10385375 9.2470073e-005 0.00018796154 -0.012422853 -0.0058970335 0.21889442 -0.16450629
20550000000 -0.099579237 -0.27520514 -5.1069193e-005 -2.6983853e-005 0.0053044786 0.010613047 0.19733404 -0.057598658
20571250000 -0.090033144 -0.1409322 -8.3256164e-005 -0.00010092484 -0.00087412051 -0.0094068153 -0.015407642 0.041095641
20592500000 -0.11305523 -0.09760084 -0.00019046415 -6.0631985e-005 -0.0044701342 0.011442092 0.36865377 0.22210342
20613750000 -0.094015457 -0.1822089 -9.0281232e-005 -5.977575e-005 0.012277332 -0.0049010729 -0.23868224 -0.18159549
20635000000 0.24337322 -0.26424453 1.9286239e-005 -1.4962434e-005 -0.010386125 -0.0018933767 -0.41211975 0.58102971
20656250000 0.091379985 -0.25036094 0.00018601079 2.1824511e-005 0.010249347 0.00641726 0.23744287 0.47570455
20677500000 0.19460286 -0.3433978 2.9043736e-008 -3.5379308e-005 -0.0060684225 -0.014036604 -0.29529521 0.020421354
20698750000 0.25120914 -0.088474579 -0.00015960247 4.1008396e-005 -0.0023172514 0.015777335 -0.54811615 0.49671805
20720000000 0.11165587 -0.14025579 0.00017028819 8.7301778e-006 0.0084656589 -0.010255518 -0.28050277 0.30417347
20741250000 0.34881714 -0.11227366 0.00019807789 -1.1805163e-005 -0.012002287 0.0062569045 -0.7875191 0.24143738
20762500000 0.35044551 -0.039989702 -2.9577341e-005 -0.00018295206 0.014817609 0.0030065353 -0.68845206 0.29549402
20783750000 0.24558584 -0.077806048 -0.00011934334 0.00017478547 -0.0087161353 -0.010640712 -0.4804593 0.34907135
20805000000 0.40621826 0.054059263 -0.00021119237 -4.2498319e-005 0.0036185742 0.010545705 -0.42300043 -0.060290292
20826250000 0.26238203 0.22279294 -0.00012381279 -0.00019196124 0.00263518 -0.014265876 -0.91217643 -0.21953411
20847500000 0.20798716 0.086923018 2.2657076e-005 6.6047971e-005 -0.012361851 0.0072265188 -0.59122473 -0.017544238
20868750000 0.27645782 0.15060937 -0.00015758476 -0.00014608876 0.011986668 0.0010750049 -0.43700191 -0.74236882
20890000000 0.17579089 0.18534711 0.00023813684 -6.7145957e-006 -0.011736543 -0.0048725326 -1.0628548 -0.33966789
20911250000 0.22878604 0.10364691 -4.8854996e-005 -5.4397311e-005 0.0082795806 0.012061441 -0.38756481 -0.18789403
20932500000 0.20878969 0.29030213 3.7541191e-005 -0.00010491168 0.00084206992 -0.013641107 -0.47424948 -0.74834889
20953750000 -0.033095703 0.34339097 -2.6269139e-005 -0.00010870484 -0.0071381135 0.0095850714 -0.44315961 -0.62091339
20975000000 0.16955835 0.041024685 3.6863819e-006 1.5667851e-005 0.0097103985 -0.0049754176 -0.21113844 -0.55401665
20996250000 0.070937701 0.10696393 -4.1585241e-005 -0.0003042325 -0.014344306 -0.0016675337 -0.17333066 -0.56517583
21017500000 -0.10667876 -0.01225065 0.00010483868 -0.00021032293 0.006947231 0.010328316 -0.15437417 -0.72496623
21038750000 -0.014159627 0.056589037 7.2376679e-005 -1.7730856e-005 -0.0023418979 -0.0084038507 -0.22267814 0.16914578
21060000000 -0.20425403 0.16243325 0.00015622187 1.0765387e-005 -0.0018197487 0.010721487 0.58574569 -0.31830838
21081250000 -0.21968992 -0.022484193 -2.6751493e-005 0.00021862317 0.010681167 -0.0056059924 0.060254954 -0.61989003
21102500000 -0.082937531 -0.062548421 4.6536825e-005 0.00012024993 -0.0093478533 -0.001575786 0.10362277 0.020692604
21123750000 -0.11332371 -0.13070594 7.9664642e-005 0.00032202422 0.0088611245 0.0051095984 0.44786665 -0.26453748
21145000000 -0.047813233 -0.33972535 -1.1578206e-005 0.00014060705 -0.0061393753 -0.010992768 -0.077566952 -0.367991
21166250000 0.058073178 -0.16573179 3.9946957e-005 -4.597431e-005 -0.00090573181 0.011959104 0.1313442 0.3747161
21187500000 -0.032944582 -0.18459913 -0.0001778193 9.0259033e-005 0.0068769734 -0.0088470113 0.095868021 0.1026023
21208750000 0.02039228 -0.37676147 -1.1648356e-005 0.00013739364 -0.010133301 0.004951424 0.15506265 0.084163278
21230000000 0.039065108 -0.22702043 9.6189629e-005 2.4035848e-005 0.015322829 0.0013947127 -0.11777369 0.048860334
21251250000 -0.1278865 -0.43926969 0.0002574345 1.4762369e-005 -0.009940573 -0.011787077 -0.0080895154 0.53121227
21272500000 0.16515023 -0.3908644 -2.316903e-005 0.00010104882 0.0012033877 0.012140322 0.15179503 0.01812635
21293750000 0.24969196 -0.17881428 -3.086005e-005 -2.795229e-005 0.0020924166 -0.014509644 -0.71854585 0.36470613
21315000000 0.24801518 -0.29737529 -0.00010865813 -6.2973973e-005 -0.012565008 0.0094062416 -0.069168389 0.54218274
21336250000 0.30947971 -0.27450243 8.1300841e-006 0.00013553025 0.013518953 0.00098799996 -0.24346779 -0.030122446
21357500000 0.19012509 -0.21072459 -0.00013664455 0.00027358977 -0.011840109 -0.0060801604 -0.65840304 0.29203594
21378750000 0.081236452 -0.29441303 5.6663994e-005 1.4466617e-005 0.0072161872 0.012083585 -0.36495608 0.35851377
21400000000 0.29759276 -0.25709394 0.00021278158 0.00026608587 0.0013760865 -0.016089257 -0.60290247 -0.082704276
21421250000 0.20674889 -0.10871338 0.00010347189 0.00010532176 -0.010970453 0.01198185 -0.73221338 0.12152591
21442500000 0.30540711 -0.21892796 -2.3969417e-006 -0.00010627401 0.013473811 -0.0057191132 -0.5976907 0.17459868
21463750000 0.34443551 -0.023971481 3.619261e-005 6.297358e-005 -0.017452916 -0.00036200834 -0.29028231 0.066871673
21485000000 0.088002779 -0.050771348 -0.00013194881 0.00017571545 0.013731194 0.013469131 -0.637815 -0.34910256
21506250000 0.19500749 -0.11608712 0.00011912052 -0.00018454235 -0.0031553453 -0.013958007 -0.53393346 0.083080202
21527500000 0.085705467 0.05827504 -5.3067055e-005 8.0142556e-005 -0.0038061412 0.015013931 0.061474025 -0.24573041
21548750000 0.027590243 -0.077919051 8.498448e-005 -0.00021980114 0.014060198 -0.012346518 -0.81926173 -0.52101839
21570000000 0.18788216 -0.066344261 -0.00021252899 -4.8530535e-005 -0.014078113 0.00059068768 -0.2030234 0.085315682
21591250000 0.015124283 -0.036651183 -8.9331688e-006 9.5411669e-005 0.012173813 0.0061636576 0.12013676 -0.37158805
21612500000 -0.11263213 -0.16331264 7.6091623e-005 -0.0001174274 -0.0073894896 -0.013723643 -0.30895469 -0.54270619
