!Keysight Technologies,N5242B,MY47200105,A.14.00.23
!Date: Friday, May 10, 2024 11:00:44
!Correction: S11(C  2-Port  ) 
!S21(C  2-Port  ) 
!S12(C  2-Port  ) 
!S22(C  2-Port  ) 
!S2P File: Measurement: :
# Hz S  RI   R 50
18000000000 0.12263711 -0.01231731 -0.00021320845 5.4828324e-005 -0.011422506 0.0036663171 0.8935917 -0.42834738
18021250000 0.042463865 -0.22639869 -8.6388587e-005 -4.3867891e-005 0.0088852178 0.0081415027 0.31352216 -0.18852
18042500000 0.21782388 -0.078007556 -9.4261166e-005 6.3417981e-005 -0.00060413172 -0.0081629902 0.50503415 -0.04136581
18063750000 0.1323483 0.022961194 -6.0387038e-006 -3.9028969e-006 0.0025430326 0.010317681 0.41789901 -0.18719667
18085000000 0.20636615 -0.060080543 -3.9838753e-005 -5.6693236e-005 0.0094301347 -0.013267091 0.43517143 0.098297231
18106250000 0.33387837 -0.0023219136 1.9348081e-005 2.9018258e-005 -0.011135613 0.0011047903 0.48483109 -0.088776171
18127500000 0.18763959 -0.053203333 -1.4292135e-006 -3.921564e-005 0.0071386723 1.0671586e-005 0.58054614 -0.20272049
18148750000 0.18409951 -0.050428394 -4.9073195e-005 4.6038982e-005 -0.0084850173 -0.0056630354 0.30646354 -0.36771238
18170000000 0.30201247 0.090749361 2.218639e-005 6.3977001e-005 0.0016641878 0.011691287 0.096953698 -0.10817445
18191250000 0.14031304 0.19679071 -4.571856e-005 -9.471969e-005 0.0053045624 -0.010651411 0.28770074 -0.072870485
18212500000 0.24943881 0.069575407 -9.4114541e-005 -0.00010894989 -0.0074945721 0.0072973049 0.10514518 -0.1139181
18233750000 0.15174071 0.15725885 -3.756877e-005 7.4331132e-005 0.011894924 -0.0050161509 0.33164355 -0.14724
18255000000 0.010162642 0.058749899 -8.6433138e-005 0.00013165499 -0.014267032 -0.0056548975 0.43955076 -0.53563052
18276250000 0.1440783 0.014721462 -4.6624922e-005 5.5095934e-005 0.0043476783 0.0090718158 0.15654334 -0.45862448
18297500000 0.0626669 0.17448805 -6.92514e-005 -7.8969184e-005 -0.004801712 -0.0090309763 0.07787928 -0.45749959
18318750000 0.040557601 0.13527086 -5.7289773e-005 -2.2158642e-005 -0.0046280893 0.014552616 0.11686506 -0.33394966
18340000000 0.097362213 0.096785977 -7.5293203e-005 -1.8063944e-005 0.010501968 -0.0044384305 0.1424724 -0.23483269
18361250000 -0.12352396 0.10920134 5.1630341e-005 -2.1367628e-006 -0.0086157098 0.0022242393 0.35918114 -0.47852162
18382500000 -0.076367974 -0.021843422 2.1649435e-005 9.0497433e-006 0.01176738 0.0029647353 0.39330912 -0.40049016
18403750000 0.0076875929 -0.0082945768 2.9060441e-006 -3.7976355e-005 -0.006705543 -0.010265083 0.27724576 -0.67415172
18425000000 -0.034309831 0.037555572 -0.0001409767 -0.00012144118 -0.0010414267 0.0109868 0.062484197 -0.56298804
18446250000 -0.011707832 -0.1200546 -8.2777558e-005 -3.443801e-005 0.0041295704 -0.0091175465 0.50728106 -0.41834769
18467500000 0.015751246 0.018757559 -2.2626271e-005 0.0001161589 -0.0065065757 0.0090326015 0.26558813 -0.55025858
18488750000 -0.20943066 -0.024898497 -0.00010608531 -4.2002124e-005 0.013046019 -0.00044541698 0.36280787 -0.39490616
18510000000 -0.086777925 -0.15010083 8.7578283e-006 4.7900048e-005 -0.0067925239 -0.0055963802 0.50608921 -0.55537635
18531250000 -0.037962876 0.0024520017 4.454012e-005 4.9529546e-005 0.0065769651 0.0059840102 0.37903577 -0.54982305
18552500000 -0.046838045 -0.19660909 -4.0739313e-005 1.8798753e-005 -0.00010602376 -0.014372073 0.28814259 -0.53815943
18573750000 0.087380238 -0.18932219 -3.7926573e-005 0.00014927574 -0.008794968 0.0093544135 0.15788509 -0.19504261
18595000000 0.079402193 -0.083023734 1.9065534e-005 8.3326326e-005 0.0089278407 -0.0065367566 0.44475847 -0.11019448
18616250000 0.030766327 -0.15777339 -4.7891732e-005 4.3305263e-005 -0.01315767 0.0023595837 0.38752526 -0.4738366
18637500000 0.15548536 -0.098746791 -0.00013456319 0.000101579 0.0099688526 0.0065909023 0.27258176 -0.15633036
18658750000 0.06800925 -0.070439026 5.2821873e-005 -0.00010691361 -0.0038882243 -0.0096922573 0.50895429 -0.49805823
18680000000 0.080118001 -0.20290031 -0.00012160258 -1.2019666e-005 -0.00069043151 0.0084128594 -0.028728638 -0.44389468
18701250000 0.22781581 -0.089241564 5.1498537e-005 0.00013540495 0.0040333983 -0.011023164 0.24462616 -0.10075781
18722500000 0.12525833 -0.063900895 -2.2103059e-005 -2.4743869e-005 -0.012476787 0.0052757529 0.18480377 -0.29165125
18743750000 0.22213624 -0.15389279 5.5282642e-005 -0.00010262461 0.0081229154 0.002781014 0.16599193 -0.24979365
18765000000 0.20538057 0.084320731 -0.0001178099 -1.0732444e-005 -0.0090395287 -0.0033461284 0.19491515 -0.35407537
18786250000 0.083756313 -0.019542282 2.0844925e-006 -3.5366684e-005 0.0048158322 0.013365773 0.055541158 -0.33625382
18807500000 0.24310963 -0.087107003 -0.00013355023 -0.00011096284 0.0069286567 -0.010188832 0.03319985 -0.42467499
18828750000 0.12129345 -0.055719588 6.5284694e-005 -3.7697871e-005 -0.0079090493 0.0054881847 -0.023894647 -0.45403147
18850000000 0.1468461 -0.040777083 1.34786e-005 -6.0101015e-006 0.013164611 -0.0015581978 0.10797176 -0.10097075
18871250000 0.24094699 0.1135539 -4.664954e-005 3.2769709e-005 -0.011657304 -0.0053103087 0.12725706 -0.59096402
18892500000 0.14244652 0.24851482 4.0751267e-005 -0.00018529745 0.00646968 0.0098620933 0.044536166 -0.42606199
18913750000 0.13243656 0.040769778 -9.3990668e-005 0.00011029321 -0.00044820461 -0.0096346335 0.20234105 -0.61203748
18935000000 0.089650661 0.0030168868 5.1596515e-005 -3.7067664e-007 -0.0029574323 0.010217163 -0.080331735 -0.68031311
18956250000 -0.044665255 -0.010697728 9.2154136e-005 7.5707067e-005 0.011911036 -0.0059216656 -0.01793709 -0.50141126
18977500000 0.022505773 -0.062911995 -5.1474126e-005 7.9499732e-005 -0.0091649061 -0.0033312074 0.12651734 -0.41179833
18998750000 0.067017041 0.18987404 1.8671248e-005 7.4454583e-005 0.007894896 0.004190932 0.25382504 -0.53041971
19020000000 -0.029291198 0.14141023 -7.0395166e-005 3.4164263e-005 -0.0062578251 -0.012286721 0.13067108 -0.60088795
19041250000 -0.096766613 -0.013374595 9.568809e-005 -6.838113e-005 -0.0036400619 0.011001425 -0.010452648 -0.49113044
19062500000 -0.12582497 0.072267562 9.2097085e-005 5.7361598e-005 0.0038980518 -0.0078837322 0.29102525 -0.62088585
19083750000 -0.095879257 -0.18884745 3.0284808e-005 0.00011263473 -0.0088424515 0.0056704413 -0.041247744 -0.61697096
19105000000 0.069999143 -0.039095022 8.7507891e-005 3.0436087e-007 0.010648223 0.0014351535 0.026666971 -0.22057767
19126250000 0.054922439 0.060664058 -0.00011321284 -1.2598542e-006 -0.0087631559 -0.0073146182 0.47095338 -0.56941241
19147500000 -0.068172947 -0.04992722 5.2336574e-005 -4.3100888e-005 0.0041093063 0.0083278213 0.10758772 -0.59673172
19168750000 -0.13773793 -0.10582539 -0.00016090988 1.5460249e-005 -0.0019614066 -0.01061315 0.16238269 -0.47529706
19190000000 -0.18108074 -0.1955134 -9.9905286e-005 -6.2000254e-005 -0.0068822554 0.010221026 0.14515841 -0.48555496
19211250000 -0.12823935 -0.29178271 6.9363094e-005 1.7898645e-005 0.0078856573 -0.0013255456 0.2084396 -0.45629022
19232500000 0.14712727 -0.14247148 -9.6196281e-006 4.026348e-005 -0.0069774864 0.0011192128 -0.10041003 -0.33635923
19253750000 -0.004325686 -0.11507487 0.00015336597 1.6366763e-005 0.0087113148 0.0073058591 0.32580501 -0.27175838
19275000000 0.051030122 -0.20553134 -2.3029872e-005 0.00015806672 0.0014585197 -0.0086563062 0.19299282 -0.53109944
19296250000 -0.0030368173 -0.13857894 3.9438655e-005 3.3909997e-005 -0.0032611601 0.0069649103 0.029714087 -0.39548346
19317500000 -0.14848566 -0.23562814 7.2599187e-006 5.6744324e-005 0.0080499183 -0.0062511098 0.21454492 -0.35642755
19338750000 0.20501709 -0.28414974 0.00012239361 -0.00011057388 -0.0098814862 0.00049319892 -0.12600277 -0.53402531
19360000000 0.19348679 -0.19976445 -3.1208023e-005 7.4126394e-005 0.0077106962 0.0056074099 -0.10754252 -0.19208683
19381250000 0.17876302 -0.23719415 4.8087062e-005 -1.0819414e-006 -0.0030852978 -0.0084819263 0.16777918 -0.30458564
19402500000 0.20204115 -0.13816768 -0.00011971402 3.5002871e-005 0.00053176138 0.011039519 -0.052955281 -0.36877546
19423750000 0.022081185 -0.15694569 0.00019426938 0.00018439924 0.0088480003 -0.011948808 0.059315786 -0.47632769
19445000000 0.09902259 -0.15615804 -1.7413244e-006 -3.2296924e-005 -0.011664851 0.0011320272 -0.22527711 -0.36235833
19466250000 0.27469906 -0.11329613 0.00014363218 0.00014336231 0.0095775183 0.00066969404 -0.070714518 -0.36282161
19487500000 0.19290671 -0.060164142 6.0270726e-005 0.00017559119 -0.0098781763 -0.010425334 -0.27737731 -0.47882119
19508750000 0.22068053 -0.17460091 -2.2441031e-005 8.7465683e-005 -0.00047728766 0.01495787 -0.1997474 -0.076764956
19530000000 0.13019316 0.040208034 5.7824822e-005 2.5461872e-005 0.0036393043 -0.011231893 0.12790258 -0.42480621
19551250000 0.035716671 -0.01040693 -0.00016650229 -3.4361601e-005 -0.008540987 0.0096075172 -0.45214099 -0.73836088
19572500000 0.22087406 -0.019985249 6.4340522e-005 -3.0900857e-005 0.012587346 -0.0027778791 -0.1835736 -0.22676678
19593750000 0.16041788 0.11532398 -2.1817586e-005 6.6670073e-005 -0.011005349 -0.0050059496 -0.17758121 -0.63366121
19615000000 0.084344395 -0.025996281 3.3895656e-005 -7.3326592e-005 0.00566174 0.009808775 -0.3431215 -0.4120487
19636250000 0.10355075 0.042917814 7.7303586e-005 -2.2250548e-005 -0.0030843155 -0.011507246 -0.12755257 -0.36505038
19657500000 -0.12866978 0.092488155 7.7075842e-005 -2.2591765e-005 -0.0057490519 0.012519033 -0.17627537 -0.40820581
19678750000 -0.0064788428 0.009409871 0.00012663228 0.00014979257 0.0083760181 -0.0019664632 -0.066698998 -0.74825096
19700000000 -0.0098343529 0.086275198 6.2933366e-005 -9.192025e-005 -0.0070830188 0.0009352825 -0.38373625 -0.50308287
19721250000 -0.014972746 0.055426963 5.7882877e-005 9.8252596e-005 0.011318922 0.0050579649 -0.070933051 -0.32423654
19742500000 -0.15016276 -0.05098905 -0.00011842737 6.3724881e-005 -0.0048779449 -0.01081727 -0.14275391 -0.70070195
19763750000 -0.17698416 0.017569652 4.0848554e-005 -4.7781526e-007 0.00083385565 0.010267865 -0.29140618 -0.33491611
19785000000 -0.2247718 0.065658279 -9.1376651e-006 7.847153e-005 0.0042194813 -0.011665076 0.22873558 -0.2832644
19806250000 -0.063755661 -0.085998133 4.8511007e-005 3.3864671e-005 -0.011402175 0.0056831441 0.016737701 -0.8267597
19827500000 -0.07978072 0.022379423 7.379373e-005 5.8937909e-005 0.014025444 0.0018388066 -0.058283236 -0.35380924
19848750000 -0.21461883 -0.13078849 -5.7528676e-005 -9.5334817e-006 -0.0096199587 -0.0079855016 0.063021243 -0.41088101
19870000000 -0.12945981 -0.12255403 -0.00019690055 -7.4586482e-005 0.0082972748 0.011156921 -0.024473768 -0.41230834
19891250000 -0.25751314 -0.16357024 0.00015702168 -4.9659175e-005 0.00042572533 -0.015557022 0.13513769 -0.29673159
19912500000 -0.080785133 -0.32145807 -0.00010392555 3.6252706e-005 -0.0087149674 0.0090984628 0.10705671 -0.0095705632
19933750000 0.012449994 -0.13544379 5.2739397e-005 -7.4807567e-006 0.010152422 -0.0055042952 0.26456591 -0.49116883
19955000000 -0.081984356 -0.2182633 0.0001721436 -0.00012596954 -0.017381696 -0.0025062386 -0.31592327 -0.37674809
19976250000 -0.15094255 -0.24744755 -0.000127669 -2.5216572e-005 0.012526804 0.01225913 0.056325771 0.02738376
19997500000 -0.19092484 -0.22680119 9.1000897e-005 3.2472672e-005 -0.0061336118 -0.013537468 0.033980571 -0.166574
20018750000 -0.072544418 -0.26846004 -3.4631856e-005 -9.7618926e-005 -0.001353365 0.01560628 -0.14931929 -0.014914049
20040000000 0.16723235 -0.30903503 0.0001967524 -4.1709969e-005 0.0097957952 -0.013011787 0.046905875 0.22469263
20061250000 0.31710446 -0.076848485 -1.6905076e-005 -8.7824061e-005 -0.015036141 0.0024522019 0.023687193 -0.27799752
20082500000 0.088110536 -0.06214131 -0.00018317917 0.00010401886 0.011323373 0.0048656613 -0.34205455 -0.22191545
20103750000 0.13233247 0.0079880916 0.00010338244 -0.00010003552 -0.011625338 -0.0073077185 -0.32904562 -0.098813452
20125000000 -0.16717266 0.050880853 -2.3224375e-005 -0.00010350244 0.0041486369 0.014667948 -0.33885616 0.10566048
20146250000 0.042688407 -0.18528204 8.9995789e-005 -0.00014677881 0.0045873392 -0.010510626 -0.26801363 -0.29586083
20167500000 0.27929726 -0.072777316 -5.5275696e-006 -0.00014855998 -0.0069031972 0.0079073338 -0.79953861 -0.15956686
20188750000 0.21040736 0.0022228907 1.0399336e-005 -2.3226918e-005 0.013792914 -0.0028100198 -0.007360681 -0.11395462
20210000000 0.2228149 0.087380484 -0.00023607674 0.00016100814 -0.0094114793 -0.0095162895 -0.56287754 -0.84817708
20231250000 -0.010644307 0.3509962 1.1575708e-006 -7.2140923e-005 0.0053479308 0.010396496 -0.74448097 -0.134542
20252500000 -0.15222684 0.17400773 -9.3060853e-006 6.3232314e-005 -0.00038258929 -0.011621325 -0.43490192 -0.42970321
20273750000 0.035279557 0.12405647 -9.8188386e-005 -7.2561459e-005 -0.0057955207 0.011269007 -0.38510022 -0.36860707
20295000000 0.09271118 0.21098511 -5.3900493e-007 4.1493095e-005 0.012204312 -0.0039880769 -0.45316422 -0.46718562
20316250000 0.043648735 0.17790741 0.00011316926 -0.00019100911 -0.0092386445 -0.00038788133 -0.17397554 -0.54437143
20337500000 -0.11320964 0.24274226 -0.00012315295 2.4671175e-005 0.010353684 0.0042132377 -0.067241207 -0.79093635
20358750000 -0.3120248 0.36423516 5.1876377e-005 0.00017223044 -0.0062842197 -0.011782683 -0.59553951 -0.6805371
20380000000 -0.32012346 0.075488448 -0.0001233014 -9.5129988e-005 -0.0023733964 0.010684572 -0.31975532 -0.33890772
20401250000 -0.13291372 0.087654471 -0.00014933286 9.5323019e-005 0.0044865897 -0.0091969837 0.29557949 -0.67119002
20422500000 -0.22555563 0.047437347 -0.00022077326 -6.9058646e-005 -0.012273407 0.0062330742 -0.216314 -0.63273799
20443750000 -0.12065299 0.035388175 -0.00010911327 7.1344788e-005 0.01171091 0.0025428098 0.14487311 -0.18446657
20465000000 -0.26572153 0.24153371 -8.1368657e-005 -0.00013951384 -0.0072079329 -0.0076858853 0.38989744 -0.84113479
20486250000 -0.38260555 0.079664566 0.00010060587 2.6084612e-005 0.0033570051 0.0096446583 -0.33759856 -0.33280072
20507500000 -0.17185934 -0.0070636664 8.0983613e-005 -0.0001327652 0.0022116562 -0.011957385 0.22634122 -0.11098981
20528750000 -0.13795058 -0.097202897 0.00022215447 3.7543621e-005 -0.0098638479 0.0079629524 0.21609108 -0.17434655
20550000000 -0.099045217 -0.28830397 -2.7769671e-005 4.3765936e-005 0.0099637127 -0.0028959487 0.19209641 -0.069847815
20571250000 -0.11892121 -0.12901263 -5.5810988e-006 3.2944368e-005 -0.012383945 -6.2916486e-005 -0.022682806 0.030091906
20592500000 -0.13520025 -0.078717917 1.8430579e-006 -6.5576976e-005 0.009806701 0.0099597601 0.37341487 0.21689068
20613750000 -0.10614224 -0.17864349 -9.8322744e-005 5.185851e-006 -0.00027123489 -0.011080483 -0.24038067 -0.20028384
20635000000 0.26496783 -0.26598209 -0.00014286337 0.00016109645 -0.0016559288 0.010544725 -0.41105375 0.57790399
20656250000 0.068872035 -0.26135215 7.9670999e-006 -1.2711818e-005 0.01066514 -0.007152827 0.25372356 0.46765792
20677500000 0.17163655 -0.35789108 -0.00016418283 0.00017479202 -0.013307983 -0.0013166879 -0.2865254 0.0046219751
20698750000 0.22492407 -0.06860932 -0.00017546823 0.00017152341 0.010857454 0.0079391357 -0.53771406 0.4922314
20720000000 0.083334953 -0.15004848 0.00019670572 0.0001194443 -0.0065709185 -0.01066696 -0.26387516 0.30108324
20741250000 0.35217205 -0.11090706 0.00024274792 -5.3855674e-005 0.0016435545 0.014512068 -0.77568299 0.23502468
20762500000 0.34286875 -0.040220391 7.8301236e-005 -4.4273518e-005 0.0088538108 -0.011101143 -0.67887312 0.29980329
20783750000 0.22797124 -0.086984843 8.9139452e-005 -2.482229e-005 -0.011893661 0.0034450095 -0.46431929 0.35923043
20805000000 0.40997091 0.054749958 -0.00023320543 0.0001232756 0.014913035 -0.00017435174 -0.40653804 -0.055810869
20826250000 0.25518852 0.22889042 -2.7118849e-006 6.0312828e-005 -0.014174354 -0.011571174 -0.91005403 -0.21060973
20847500000 0.22748628 0.064056769 -2.7822298e-005 0.00025794611 0.00326627 0.013159815 -0.58442229 -0.0010156314
20868750000 0.30136344 0.12420627 -5.8047397e-005 0.00015505421 0.001044872 -0.014380694 -0.42537117 -0.73137498
20890000000 0.17574799 0.1573638 6.3096326e-005 0.00014123041 -0.010721358 0.012171349 -1.0736493 -0.32191864
20911250000 0.23908204 0.076827712 -4.3859483e-005 -6.6054417e-005 0.014811203 -0.0032227014 -0.38537431 -0.17061417
20932500000 0.21644823 0.29098564 0.00011036929 4.0173891e-005 -0.013640597 -0.0053058807 -0.48582721 -0.74194205
20953750000 -0.040563617 0.3474825 -9.0068519e-005 -0.00015107643 0.010174735 0.010533998 -0.4598726 -0.61626875
20975000000 0.21259476 0.025864754 -0.00011618523 4.196888e-005 -0.0029529613 -0.015210659 -0.23011944 -0.54728502
20996250000 0.097174771 0.11090911 0.00015726555 -0.0001009179 -0.0076945038 0.015983773 -0.18975244 -0.55600524
21017500000 -0.098997876 -0.021524616 0.00019152733 -0.00017012739 0.012067189 -0.0066759605 -0.17459355 -0.73134851
21038750000 -0.006829157 0.069272123 -5.7225523e-005 -4.1422791e-005 -0.014756128 0.0061985925 -0.24176396 0.17989282
21060000000 -0.21450819 0.19320107 -8.3490253e-005 -2.6401416e-005 0.016008448 0.0071461094 0.58131546 -0.3257899
21081250000 -0.20373118 -0.020935746 5.7968064e-005 4.7629495e-005 -0.0068640294 -0.010666587 0.042524859 -0.63851362
21102500000 -0.059235968 -0.058398388 -1.3159272e-005 0.00021896913 0.0029290125 0.011131231 0.090966053 0.012916982
21123750000 -0.1198362 -0.12198863 -0.00014927342 6.586824e-005 0.0063059973 -0.012879576 0.44248042 -0.28499842
21145000000 -0.067720592 -0.33985591 5.2433032e-005 -1.1770415e-005 -0.013845671 0.004853013 -0.08919429 -0.3950069
21166250000 0.030099774 -0.11667321 6.871393e-006 -3.1210089e-005 0.013387901 0.0018277046 0.12239812 0.36342847
21187500000 -0.05638637 -0.14675803 -2.5633064e-005 1.193751e-006 -0.010751574 -0.0082268417 0.093623355 0.087332904
21208750000 0.025849259 -0.37201893 6.1993225e-005 3.177693e-005 0.0052806162 0.013617848 0.1584378 0.06659507
21230000000 0.041335266 -0.20292582 -0.00012756132 -0.00015125572 0.0071396073 -0.015274926 -0.11660911 0.030603349
21251250000 -0.16532625 -0.45062023 -0.00020070146 6.7376517e-005 -0.01172866 0.0055308132 0.0023300857 0.52934277
21272500000 0.1418473 -0.36702582 -2.4553736e-005 -0.00019026322 0.01424741 -0.0019014647 0.17140163 0.0029025525
21293750000 0.22117622 -0.13698253 0.00019113411 -0.00012004525 -0.016848417 -0.0078480486 -0.712825 0.36021981
21315000000 0.23847099 -0.29715011 -0.00012224032 2.5483254e-005 0.0064558615 0.014428991 -0.051390622 0.54062337
21336250000 0.32750773 -0.28112176 -7.2015457e-005 -6.7684603e-005 -0.00098780962 -0.014089414 -0.22753134 -0.038877737
21357500000 0.19212276 -0.23248076 4.5634457e-005 -5.4941778e-005 -0.0054269875 0.016523523 -0.6491493 0.29436183
21378750000 0.058504868 -0.32542139 -5.0298049e-006 -0.0001071426 0.013760484 -0.0093547627 -0.35298684 0.36702678
21400000000 0.29092905 -0.26145312 8.5754124e-005 -6.4080821e-005 -0.015620187 0.0013599482 -0.59316874 -0.075689465
21421250000 0.17887288 -0.11082681 -3.3554181e-005 0.00015879057 0.01363889 0.0073056393 -0.72672361 0.13652191
21442500000 0.31239492 -0.24969552 7.2574425e-005 0.00014036176 -0.0092262337 -0.013579463 -0.59227711 0.19177887
21463750000 0.35780296 -0.041799832 -0.00015903336 -0.00014770046 -0.0014663163 0.018807976 -0.28052306 0.081089914
21485000000 0.063510925 -0.077012397 3.9562023e-005 7.4357551e-005 0.010124101 -0.013736609 -0.64296424 -0.33635524
21506250000 0.20283642 -0.12551552 -0.00010602221 -0.00010949218 -0.011388559 0.010043643 -0.53611094 0.099838465
21527500000 0.07251431 0.07556811 4.5293793e-005 -4.6465517e-005 0.018518191 -0.00032639276 0.065450288 -0.23496664
21548750000 0.033451878 -0.083038755 -0.00015938142 9.7539589e-005 -0.013761602 -0.0092074694 -0.83915091 -0.5175038
21570000000 0.22137637 -0.077356078 -6.0930095e-005 7.5768316e-005 0.0082833795 0.012036441 -0.21063127 0.095748663
21591250000 0.012731045 -0.037562698 3.7332331e-005 1.6859105e-005 -0.0012990361 -0.018454053 0.11267347 -0.37167701
21612500000 -0.10273619 -0.16888309 2.8778024e-006 -4.9303311e-005 -0.0088645844 0.013964901 -0.32527366 -0.54626244
