!Keysight Technologies,N5242B,MY47200105,A.14.00.23
!Date: Friday, May 10, 2024 11:04:43
!Correction: S11(C  2-Port  ) 
!S21(C  2-Port  ) 
!S12(C  2-Port  ) 
!S22(C  2-Port  ) 
!S2P File: Measurement: :
# Hz S  RI   R 50
18000000000 0.12952672 -0.024264628 -0.00016450102 -4.4527125e-005 -0.0032305052 0.0011597963 0.8863436 -0.42534214
18021250000 0.064869955 -0.22284541 5.6822715e-005 -4.7978239e-005 0.00074839854 0.0063275555 0.31586498 -0.18921238
18042500000 0.2234298 -0.084518634 -6.4339212e-005 -2.54486e-005 0.0054536369 -0.0019157606 0.50312293 -0.044337161
18063750000 0.13932334 0.014142789 1.405678e-005 5.2519725e-005 0.00050072616 0.0022557359 0.41600788 -0.18754843
18085000000 0.21145745 -0.05055071 -4.6122474e-005 4.3875541e-005 0.0062155412 -0.0047229459 0.43252611 0.095828287
18106250000 0.33615863 0.0010919777 1.4612367e-005 -6.4142218e-006 -0.0037348494 -0.0045709535 0.48196059 -0.089586765
18127500000 0.20255497 -0.052272063 4.6861671e-005 3.0911888e-005 -0.0029412517 0.0011584745 0.5744853 -0.20344874
18148750000 0.19841509 -0.043891422 2.886585e-005 8.8885085e-005 0.00081321213 -0.0016436788 0.30516088 -0.36645406
18170000000 0.29976115 0.088018857 -0.00010407557 -9.6415795e-005 -0.0044711372 0.0035181246 0.096960135 -0.11370679
18191250000 0.15538688 0.19219989 1.2908153e-005 2.0486962e-006 0.0065278411 -0.00016010753 0.28270036 -0.078852929
18212500000 0.25231838 0.074358411 2.7297801e-005 3.6961446e-005 -0.0030723314 -0.0028674416 0.10287268 -0.11853411
18233750000 0.15720841 0.14596862 -1.5733995e-005 4.374783e-005 0.0023498111 0.00090981723 0.32794142 -0.15062836
18255000000 0.031375311 0.056149151 -3.4049182e-005 7.1393828e-005 -0.0021689378 -0.0063330503 0.43394834 -0.53731585
18276250000 0.14569601 0.010982567 -9.8607146e-005 0.00017480034 -0.006456851 0.0031757511 0.15463042 -0.46026364
18297500000 0.063515283 0.15528724 -6.5527696e-005 -5.5502665e-007 0.002022221 0.0016058378 0.077569738 -0.45965627
18318750000 0.034269162 0.12588614 3.0283618e-005 -2.5758545e-005 -0.0049340702 0.0013114238 0.11688538 -0.33791441
18340000000 0.075418204 0.09072113 6.1613697e-005 -2.0633717e-005 0.0042145494 0.0070986971 0.14248574 -0.23958269
18361250000 -0.12339629 0.10349478 4.7199475e-005 4.6479883e-005 0.00313509 -0.004686106 0.36011162 -0.47884756
18382500000 -0.077430323 -0.022082675 -5.7082652e-005 7.7910991e-005 -0.0013071089 0.0028264222 0.39380002 -0.40528712
18403750000 -0.0010369754 -0.01610557 3.8124264e-005 0.00012409214 0.0038702202 -0.003446612 0.27920321 -0.67407751
18425000000 -0.034758992 0.018416882 -7.5662472e-005 1.3173269e-005 -0.0057544564 -0.00021726656 0.067321621 -0.56341684
18446250000 -0.023825375 -0.1145917 9.4699943e-005 -2.8765357e-005 0.001698892 0.0043616276 0.50632036 -0.42131296
18467500000 0.010339787 0.0094241221 4.8187627e-005 -4.3435204e-005 0.0019434363 -0.00055501319 0.2663635 -0.54983968
18488750000 -0.19835715 -0.032552037 -3.7016824e-005 2.3765386e-005 0.00018971648 0.0024671617 0.3619751 -0.39372358
18510000000 -0.091645516 -0.14882132 1.1282659e-005 8.287387e-005 0.006898636 -0.001816277 0.50617415 -0.55048883
18531250000 -0.035372023 -0.013192683 5.2191353e-005 8.5062138e-006 -0.0017724299 -0.0045559458 0.37923777 -0.54683942
18552500000 -0.055133495 -0.19119161 -7.1641407e-005 -3.6694408e-005 0.00050357397 -0.0013060599 0.28763941 -0.53444856
18573750000 0.080935702 -0.18545561 -0.00011469709 -1.5969607e-007 -0.0017717063 -0.0025191202 0.15949404 -0.19547132
18595000000 0.084040269 -0.075621009 -7.3998359e-005 9.9970464e-005 -0.0041379887 -0.00017522681 0.44103792 -0.1119826
18616250000 0.044610348 -0.14203738 8.2424913e-006 -3.2362332e-005 0.0018505645 0.0025458513 0.38447288 -0.47029564
18637500000 0.16536726 -0.10199725 -9.9044133e-005 -0.00012950315 -0.0024733616 -0.0020516955 0.26942137 -0.15822598
18658750000 0.076751649 -0.064723179 -1.8509681e-005 -0.00016235422 0.0023470293 0.0038980185 0.50117856 -0.49530259
18680000000 0.089254133 -0.19839408 -9.5201449e-006 -8.6561617e-005 0.0015300472 -0.0059883911 -0.029829226 -0.44335493
18701250000 0.24115248 -0.091673486 -2.4811668e-005 5.6303827e-005 -0.0058839764 0.00077792048 0.23828906 -0.10418779
18722500000 0.14401999 -0.058651112 0.00017922214 -3.120703e-006 0.002025753 0.00073048309 0.17858465 -0.29270652
18743750000 0.2299183 -0.1544425 2.0222611e-005 -0.00010527441 -0.0064011402 -0.00076598779 0.16110386 -0.25055137
18765000000 0.21646856 0.078252397 0.00010457446 1.1256066e-005 0.0016966359 0.0071175327 0.19094817 -0.35443747
18786250000 0.089336574 -0.019327315 -2.590727e-006 6.0086473e-005 0.0015506168 -0.00052487612 0.054757562 -0.33899155
18807500000 0.23615266 -0.095855169 1.9115334e-005 6.2835984e-006 0.0021348204 0.0032076887 0.032955986 -0.42729869
18828750000 0.13238117 -0.051033098 2.9378602e-005 -3.5748846e-005 0.002782562 -0.0028467786 -0.0238398 -0.45729753
18850000000 0.15290943 -0.048570525 1.8337843e-005 7.1976897e-006 -0.00042159623 -0.0010103025 0.10570721 -0.10962097
18871250000 0.23775117 0.097518511 6.3119449e-005 0.0001749372 -0.00032392127 0.00091224653 0.12585424 -0.59142786
18892500000 0.14221516 0.2361891 6.114885e-005 -5.493599e-005 0.00075968314 -0.0015308179 0.046013571 -0.42872784
18913750000 0.11503021 0.032476492 5.2857522e-005 8.3915264e-005 -0.001609662 0.0032516487 0.20233051 -0.61212087
18935000000 0.080677986 0.0014171986 7.5575867e-005 -7.0032205e-005 0.0052100471 5.3139025e-005 -0.076336026 -0.68006921
18956250000 -0.039959218 -0.010397037 -6.3842213e-005 6.6144785e-005 -0.0013452173 -0.0023107135 -0.015077155 -0.5029093
18977500000 0.019684197 -0.062296208 8.2178476e-006 -0.00010211209 0.0042984374 0.00035271485 0.12772568 -0.41508269
18998750000 0.064782649 0.1743855 -7.3347383e-007 5.1722955e-006 -0.001545192 -0.0064141885 0.25230023 -0.53062218
19020000000 -0.042538602 0.1377466 7.7657001e-005 -5.9456488e-005 -0.0037926196 0.0014574503 0.13201538 -0.59872276
19041250000 -0.10844861 0.0036607941 9.6525553e-005 6.6629633e-005 0.0020413336 -0.0020416847 -0.0072600814 -0.48998135
19062500000 -0.11382232 0.072362661 -4.6285044e-005 8.0690679e-006 -0.0076109893 0.0013114081 0.28890401 -0.61844838
19083750000 -0.084240898 -0.17758763 -8.5281128e-005 9.6139309e-005 0.0058045406 0.0041296021 -0.039836209 -0.61338305
19105000000 0.078108557 -0.048574042 3.3065786e-005 -8.3072984e-005 -0.0029336896 -0.0047038011 0.025269637 -0.22214703
19126250000 0.057962749 0.047304906 -1.3547232e-005 -0.00014636367 0.00042547594 0.0041952478 0.46431193 -0.56153142
19147500000 -0.066816486 -0.048868693 -0.00021850296 4.22327e-006 0.0023102395 -0.0044547417 0.10661648 -0.59133327
19168750000 -0.13432333 -0.11005886 -2.2863693e-005 0.00012034537 -0.0068460493 0.00075037417 0.16144884 -0.47183105
19190000000 -0.17239679 -0.19705456 -2.6119053e-005 5.1957704e-005 0.0021797861 0.0036143945 0.14248718 -0.4842045
19211250000 -0.11735803 -0.29351339 6.3995572e-006 0.00015471579 -0.0028639846 -0.0011210665 0.20387422 -0.45422539
19232500000 0.13423611 -0.1611466 -0.00011731066 5.9993738e-005 0.0014895626 0.0064231972 -0.0994168 -0.3366771
19253750000 -0.0067756614 -0.1144498 -6.3633604e-005 2.540857e-005 0.0044039092 -0.00167378 0.31825992 -0.27288014
19275000000 0.04368687 -0.20014322 2.5422109e-005 3.198965e-005 -0.00021211755 -0.00013280178 0.1889331 -0.52831697
19296250000 -0.0033722012 -0.14190246 -0.00014627544 0.00016609619 0.0030068769 0.00069969881 0.027643656 -0.39539307
19317500000 -0.13414694 -0.23497352 -6.3900043e-005 -8.3003397e-005 -0.0013250251 -0.0049110022 0.20973121 -0.35803327
19338750000 0.1963539 -0.2941173 -5.036658e-005 8.1842409e-006 -0.0015903298 0.0041005183 -0.12692004 -0.53305894
19360000000 0.18946831 -0.20955825 -6.7933361e-005 -2.8741035e-005 0.002776393 -0.0018084159 -0.10740939 -0.19493774
19381250000 0.17266791 -0.23389801 8.5627114e-005 2.7408671e-005 -0.0026139379 0.00069655222 0.16430287 -0.30649418
19402500000 0.2036934 -0.14059579 7.8447847e-005 -6.9539419e-005 0.0048159659 0.0034040723 -0.053308055 -0.36966923
19423750000 0.036818381 -0.16253115 2.5297377e-005 7.1236893e-005 0.0012435098 -0.0076916073 0.058694903 -0.47512722
19445000000 0.10173941 -0.16341674 -0.00012831429 -4.7655754e-005 -0.0028740978 0.0020824494 -0.22224973 -0.36497638
19466250000 0.27001101 -0.12038386 9.8763885e-005 -6.8049856e-005 0.0024700225 -0.0039670728 -0.072829805 -0.36446199
19487500000 0.20135571 -0.06370382 -0.00024796065 -1.9566854e-005 -0.006955117 -0.0023746365 -0.27611569 -0.47738317
19508750000 0.22406973 -0.16439922 0.00010131394 5.2028532e-005 0.00087497354 0.0061854185 -0.19868143 -0.079921484
19530000000 0.14891315 0.033005517 8.158409e-005 -8.3061896e-005 -0.0014278481 -0.0043192273 0.12409142 -0.42239094
19551250000 0.058280542 -0.014899712 -8.1556107e-005 8.8481713e-005 -0.00031242962 0.0064463229 -0.4477264 -0.73245543
19572500000 0.2239089 -0.028809814 0.00010387132 -0.00023641021 0.0034988453 -0.0040310402 -0.18302044 -0.22820765
19593750000 0.16760528 0.10334506 0.00012356047 -0.00010564578 -0.0036655231 -0.00033277881 -0.17716244 -0.63133478
19615000000 0.090759188 -0.017137747 -2.1187447e-005 7.4510535e-005 0.0014278179 0.0016027839 -0.34310955 -0.41128507
19636250000 0.109097 0.047772676 -0.00012459244 -2.0837704e-005 -0.0031725364 -0.0027331742 -0.12719774 -0.36540592
19657500000 -0.10133861 0.096726939 0.00015070304 8.2991042e-005 -0.0016383716 0.0048460476 -0.17717612 -0.41002402
19678750000 -0.0013744658 0.013859264 -0.00015345162 -2.6550148e-005 0.0020190019 0.0022527159 -0.07006412 -0.746059
19700000000 -0.0096956268 0.088593923 5.443223e-006 -1.0819406e-006 0.00089551264 0.00075524376 -0.38151124 -0.50318378
19721250000 -0.010320874 0.06387905 7.165326e-005 0.00014616553 0.0041889786 0.0013916361 -0.074077867 -0.32815588
19742500000 -0.14220035 -0.036295783 -5.1486124e-005 5.5568682e-005 -0.00019398193 -0.0038567965 -0.14332135 -0.69898373
19763750000 -0.16658519 0.018123969 -0.00012142563 -0.00010279453 5.4355321e-005 0.0018497327 -0.28995672 -0.33803019
19785000000 -0.21364038 0.064708397 -3.6336129e-005 0.00015779141 0.0014616587 -0.0029894917 0.22504757 -0.2871621
19806250000 -0.075535662 -0.081688151 -1.7363185e-005 -2.2119726e-005 -0.0049534687 0.00022583314 0.015257837 -0.82368296
19827500000 -0.088978365 0.019720763 1.4106055e-005 -0.00011714715 0.0058697537 0.0042300066 -0.056650821 -0.35540903
19848750000 -0.21646503 -0.11911094 0.00010442077 6.0583407e-005 -0.0020267568 -0.0055267373 0.063041851 -0.41190219
19870000000 -0.13540825 -0.12906621 -0.00017388054 -1.1699558e-005 0.0021119975 0.0047620437 -0.022948617 -0.41168174
19891250000 -0.25683358 -0.17087267 3.5559598e-005 -0.00012199343 0.0024093762 -0.0071221921 0.13619682 -0.2944001
19912500000 -0.10029507 -0.31284294 -8.5861984e-006 -8.0344842e-005 -0.0061364737 -0.00010957789 0.11012098 -0.012036704
19933750000 -0.0066407342 -0.14207143 1.3510911e-005 -6.008572e-005 0.002951819 0.00043275458 0.26561022 -0.48580447
19955000000 -0.099259675 -0.20949645 -0.00011896443 -8.5378924e-006 -0.0076313168 -0.0040446934 -0.30893964 -0.37077165
19976250000 -0.16149335 -0.23952563 7.4001524e-005 -5.5972876e-005 0.0027912022 0.0089130774 0.058198653 0.028404286
19997500000 -0.19044246 -0.22977662 2.0891295e-005 9.3148301e-005 0.00096686889 -0.0056967456 0.034624901 -0.16267318
20018750000 -0.071159348 -0.27059191 -7.1740826e-005 4.282852e-005 -0.00260957 0.0048089088 -0.14843589 -0.011144158
20040000000 0.15149839 -0.30829194 -3.9752456e-005 -3.6770267e-005 0.005590986 -0.0017444702 0.046362493 0.22796939
20061250000 0.30437008 -0.074711613 4.3026743e-005 -6.0177026e-005 -0.0046599573 -0.0046524028 0.020172579 -0.27207315
20082500000 0.09970101 -0.043020014 -9.9261801e-005 -0.00011071515 -0.0021355748 0.0059276284 -0.3446776 -0.21440344
20103750000 0.13384719 0.010937621 0.00018634061 0.0001968507 0.0013108893 -0.0018483535 -0.33197957 -0.094571538
20125000000 -0.13440034 0.052189335 8.1751852e-005 5.7713511e-005 -0.0034590212 0.0035123923 -0.34306893 0.1068889
20146250000 0.052889261 -0.18076026 -2.376868e-005 0.00011030063 0.0049613602 0.0036137463 -0.27621108 -0.29047772
20167500000 0.27786031 -0.081701055 -3.5114997e-006 -0.00021130613 0.0013744603 -0.0044159638 -0.80021608 -0.15924118
20188750000 0.21962142 0.0055443398 -7.1718416e-005 8.1152924e-005 0.00102617 0.0046200952 -0.019497357 -0.11600967
20210000000 0.21807601 0.099633202 -0.00020094957 8.4970372e-005 0.0051348554 -0.0068359952 -0.56860894 -0.84676594
20231250000 0.01258842 0.3503173 1.9712967e-005 -0.00020907003 -0.0075518899 0.0012420444 -0.747563 -0.14024092
20252500000 -0.1227025 0.17913413 -2.0397949e-005 -0.00011238526 0.0055185393 0.0024149949 -0.43948954 -0.43154773
20273750000 0.034663498 0.11674103 0.00010629952 -7.3534438e-006 -0.0041198358 -0.0046074735 -0.39103469 -0.37340209
20295000000 0.095738143 0.1966567 0.00011044012 -0.0001376807 0.0015181128 0.0076998197 -0.45025384 -0.47049108
20316250000 0.038974155 0.17851557 0.00010072544 7.0702634e-005 0.0049634064 -0.0064244056 -0.17550176 -0.54998052
20337500000 -0.11749663 0.24213906 0.00011049259 -5.4602926e-005 -0.0047363299 -0.0010716004 -0.066954404 -0.79476279
20358750000 -0.30572051 0.35126361 0.00020526994 0.0001389096 0.0037115766 -0.00016825725 -0.58644044 -0.68546557
20380000000 -0.33173889 0.087368421 -0.00011993699 -5.2593332e-005 -0.0047204746 -0.0053245556 -0.31356704 -0.34797603
20401250000 -0.15279956 0.081755541 2.6290008e-005 2.1274343e-005 -0.0024814901 0.0048330287 0.29603615 -0.6743623
20422500000 -0.23067832 0.056771033 2.0904188e-005 -0.00015240588 0.0010346002 -0.0016101921 -0.20800269 -0.6331867
20443750000 -0.12961094 0.047174621 -0.00015944488 -2.4321049e-005 -0.0033181319 0.0026875709 0.15008165 -0.19034718
20465000000 -0.25954631 0.22565779 0.00012403357 -1.0218188e-005 0.0052748327 0.0029033688 0.39090824 -0.83551079
20486250000 -0.37761563 0.080395624 0.00010945363 6.3191685e-005 -0.0027056681 -0.0054462068 -0.32541981 -0.32933262
20507500000 -0.18423633 -0.016355809 -4.0167804e-005 -0.00013148668 -0.00034220997 0.0047248611 0.2304382 -0.10859524
20528750000 -0.14041814 -0.10797475 2.6797907e-005 -2.2567021e-005 0.0019444253 -0.0036411535 0.21853717 -0.16787301
20550000000 -0.098231867 -0.28110608 5.7506219e-005 -6.0162449e-005 -0.0066089667 0.001732272 0.19724862 -0.061231017
20571250000 -0.11117917 -0.14226478 0.0001809083 -1.9674855e-005 0.0048989216 0.0052973162 -0.016664339 0.037432961
20592500000 -0.12222148 -0.090213194 1.0598188e-005 5.6774072e-005 -0.0011272678 -0.0036722617 0.37105823 0.22136053
20613750000 -0.10128744 -0.17332391 -3.8796032e-005 3.7813832e-005 0.00093867478 0.007482993 -0.23900825 -0.18676639
20635000000 0.24679735 -0.2653909 0.00012326444 -5.4412259e-005 0.0066489447 -0.0075154351 -0.41173279 0.58199215
20656250000 0.088566631 -0.25228846 -4.112102e-005 -4.8875554e-005 -0.0057951189 0.0015556108 0.24371335 0.47399527
20677500000 0.18275815 -0.34877878 -0.00013116258 2.4869541e-005 0.0066612004 -0.0015743492 -0.2924051 0.015995134
20698750000 0.23969707 -0.085131653 -2.3942368e-006 0.00023950194 -0.007936433 -0.0026815038 -0.54392016 0.49623841
20720000000 0.099496551 -0.1434055 8.8691391e-005 -2.7528327e-005 0.003225107 0.0063693351 -0.27457076 0.30353764
20741250000 0.33940816 -0.10641401 -0.00012477994 -9.8939876e-005 0.0015548636 -0.0064566471 -0.78306907 0.23986436
20762500000 0.34835184 -0.038724318 -8.3831452e-005 -2.0598194e-005 -0.0024792419 0.0047911191 -0.68548346 0.29756117
20783750000 0.23958619 -0.07574182 6.7197834e-005 -0.00011806 0.0055086697 -0.0031226999 -0.4747735 0.35186312
20805000000 0.40163448 0.055012807 -9.0348149e-006 4.0088282e-005 -0.0040729106 -0.0038901314 -0.41798609 -0.058669705
20826250000 0.26062518 0.22291955 0.00020700811 -6.5122673e-005 -0.00024392757 0.0024230098 -0.91272026 -0.21693222
20847500000 0.21280387 0.085956536 -4.5473867e-006 -2.6448772e-005 -0.00089249102 -0.0046817595 -0.58879685 -0.011966339
20868750000 0.28493732 0.13874224 -0.00021974641 0.00022743728 -0.0067441249 0.0043039373 -0.43419906 -0.74032634
20890000000 0.17842226 0.17247763 -0.00011521855 8.4028077e-005 0.0053825392 0.0022520814 -1.067849 -0.33368555
20911250000 0.22927719 0.094817795 0.00010601609 -2.5330508e-005 -0.0025112438 -0.0023689643 -0.38701352 -0.18216498
20932500000 0.21119061 0.28414387 1.8814164e-006 3.8220893e-005 0.00069825287 0.0047712368 -0.47829601 -0.7468729
20953750000 -0.033980478 0.34267953 3.209394e-005 -2.4354606e-005 0.0039532376 -0.0057864618 -0.44857809 -0.61976135
20975000000 0.18341112 0.028224489 1.2308506e-005 7.7480036e-005 -0.0077319168 0.0017295905 -0.21750396 -0.55293548
20996250000 0.078627191 0.097521931 5.1446154e-005 -4.822122e-005 0.0057759457 0.0016580636 -0.17721342 -0.56332314
21017500000 -0.10530683 -0.018897135 0.00010350154 6.3240201e-005 -0.0056923465 -0.0032422096 -0.15904815 -0.7279498
21038750000 -0.016507652 0.05162207 -3.9770923e-005 5.6011322e-005 0.0018832654 0.0094996681 -0.22849363 0.17239383
21060000000 -0.20762326 0.16167644 0.00012413121 9.907988e-005 0.0059981518 -0.0061638383 0.58656019 -0.32123575
21081250000 -0.21711785 -0.027596081 5.1970597e-005 8.5371263e-005 -0.0051821275 0.0048911385 0.056006212 -0.62758762
21102500000 -0.080359109 -0.068890341 -4.1456271e-005 -2.15769e-005 0.0101496 -0.0030358511 0.10166387 0.018579569
21123750000 -0.11304468 -0.13137062 7.5448566e-005 -4.0249647e-006 -0.0083282935 -0.0058816043 0.44829246 -0.27124053
21145000000 -0.055031072 -0.34661794 3.3139571e-005 7.3800547e-005 0.0028137062 0.0074035912 -0.080649555 -0.3764393
21166250000 0.048714995 -0.15458898 1.2876231e-005 -0.00012201692 0.00013927133 -0.0079619475 0.12894949 0.37124103
21187500000 -0.03834739 -0.17688248 -4.5902863e-005 -0.00010826027 -0.0048668054 0.0078671016 0.095740177 0.098253414
21208750000 0.020847378 -0.38134247 8.7759821e-005 -3.280396e-005 0.007717398 -0.0026879269 0.15712786 0.078946702
21230000000 0.04185991 -0.22292835 -3.4390428e-005 2.0647161e-005 -0.0039397534 -0.0018350173 -0.11711084 0.042422391
21251250000 -0.14345735 -0.44578025 -8.4986859e-005 0.00012963547 0.0027737052 0.00046974915 -0.0040342123 0.53215528
21272500000 0.15511949 -0.38081953 -0.0001015327 -0.00011681138 -0.0014345852 -0.0049971398 0.15898138 0.013588434
21293750000 0.24319257 -0.1622687 -0.00010520672 -4.4528628e-005 -0.0045257816 0.0024595477 -0.71768117 0.36452833
21315000000 0.24755655 -0.29447412 -0.00010226492 0.00011913668 0.0015795744 0.00062686368 -0.062686995 0.54167789
21336250000 0.31969708 -0.27739403 -0.00011984658 8.6037799e-006 -0.0036015867 0.00029108269 -0.23923692 -0.033256948
21357500000 0.19405755 -0.2186332 -0.00011055642 1.4439962e-005 0.0030840994 0.0052806651 -0.65562874 0.29349247
21378750000 0.071019642 -0.30259234 -0.00017451278 -3.1903237e-005 0.0017137632 -0.0053431918 -0.36081445 0.36071265
21400000000 0.29560474 -0.25845349 -0.00016639868 -7.5987577e-005 -0.0031437376 0.0041060778 -0.59912944 -0.08033476
21421250000 0.19688235 -0.10589351 0.00024548781 -6.3748557e-005 0.0046401052 -0.0021167865 -0.73152405 0.12641144
21442500000 0.30734077 -0.22978368 -0.00015403771 -0.00011903018 -0.0064453622 -0.0025684822 -0.59656274 0.18024217
21463750000 0.34884903 -0.030409833 -1.0889977e-005 -4.3584438e-005 0.001856479 0.0084821209 -0.28721043 0.071501434
21485000000 0.077703848 -0.054236293 -0.0001381678 -0.00010523447 0.001133226 -0.0061530587 -0.6402961 -0.3462792
21506250000 0.19904187 -0.11844666 -8.7044238e-005 -8.4988162e-005 -0.0010112535 0.0083197514 -0.53551978 0.08853256
21527500000 0.085105896 0.063110791 -2.288054e-005 -7.5981428e-005 0.0081477873 -0.0047740457 0.062727928 -0.24312839
21548750000 0.031491149 -0.084143728 0.00018887976 -0.00021321196 -0.0065482752 -0.00085738889 -0.82757759 -0.52020705
21570000000 0.19766125 -0.079446025 -6.7811947e-005 0.0001222084 0.0068673762 0.0024455991 -0.20576857 0.088458031
