!Keysight Technologies,N5242B,MY47200105,A.14.00.23
!Date: Friday, May 10, 2024 11:18:27
!Correction: S11(C  2-Port  ) 
!S21(C  2-Port  ) 
!S12(C  2-Port  ) 
!S22(C  2-Port  ) 
!S2P File: Measurement: :
# Hz S  RI   R 50
18000000000 0.14631416 -0.028849373 -7.7949036e-005 -4.7086975e-005 -0.00010401439 0.0034408022 0.87250555 -0.42171276
18021250000 0.066963397 -0.21176045 4.9585044e-005 -5.2166844e-005 -4.6522851e-005 0.00259225 0.32091099 -0.19657205
18042500000 0.2292881 -0.094572023 -1.8103756e-005 2.4231131e-005 0.0042721992 0.001847686 0.49586815 -0.056552
18063750000 0.15445334 0.020068845 -3.3148874e-006 2.6700734e-006 0.0036310651 -0.00070072553 0.40823549 -0.19268744
18085000000 0.20948626 -0.051112875 -0.00012462151 9.5152493e-005 0.0021464669 -0.0041851387 0.42341053 0.08782085
18106250000 0.33934402 -0.010086462 0.00010659457 6.1963692e-005 8.6394655e-005 -0.0030319325 0.4786486 -0.092202283
18127500000 0.20464596 -0.040897157 -7.6637531e-005 -0.00010052133 -0.0051873815 -0.0020551239 0.56422818 -0.20949765
18148750000 0.19460313 -0.041706696 -3.4930999e-006 7.6995559e-005 0.001197891 0.0017667272 0.30333424 -0.36608297
18170000000 0.30306882 0.083294548 3.2997013e-005 -0.0001156962 -0.0028644071 0.0010181849 0.099432483 -0.13014497
18191250000 0.15418863 0.1967545 2.3116583e-005 -2.5175923e-005 0.0035932031 0.00078483403 0.27065429 -0.092433356
18212500000 0.23904103 0.067288689 3.7396716e-005 2.0089405e-005 -0.00014010014 -0.0020679571 0.099378012 -0.12759285
18233750000 0.16530611 0.14554976 0.0001164775 3.2434335e-005 0.00052506517 -0.0012185356 0.32318586 -0.1564803
18255000000 0.026168579 0.068062842 -0.00011945525 -9.8348712e-005 -0.0023436905 -0.0034060697 0.42743275 -0.54295778
18276250000 0.13876782 0.0085149463 6.6029056e-006 4.8907023e-005 -0.0046601421 0.00094819441 0.15138529 -0.46584001
18297500000 0.065321229 0.15697201 2.2789527e-005 -4.1498704e-005 -0.00074407895 0.0023134737 0.077921778 -0.46481046
18318750000 0.018256864 0.12412497 -5.8703074e-005 -2.5564063e-005 -0.0022044501 0.0024333054 0.11643916 -0.34713501
18340000000 0.068092734 0.080365397 7.8036646e-005 6.176126e-005 0.0026896463 0.0043598521 0.14127198 -0.24852671
18361250000 -0.12086067 0.10803317 -2.1832011e-005 1.4142276e-005 0.0026027011 -0.0011034979 0.36211586 -0.47529295
18382500000 -0.085542202 -0.024393335 -6.3580665e-005 4.6444773e-005 0.00098145311 -0.00041633914 0.39763984 -0.41575244
18403750000 0.0073867328 -0.02296228 2.5888956e-005 -4.0100025e-005 0.00072276872 -0.0016912037 0.28237525 -0.6732766
18425000000 -0.033332244 0.016507858 -2.5457035e-005 9.0754023e-005 -0.0025073283 7.8448807e-005 0.074978344 -0.56312656
18446250000 -0.028609635 -0.12904224 -4.2913285e-005 -5.0858642e-005 -0.00054418901 0.0020947752 0.49776408 -0.42446372
18467500000 0.023773275 -0.0027389764 -4.7219048e-005 6.1083905e-005 0.0027078919 0.0024513139 0.26436999 -0.54735476
18488750000 -0.19070284 -0.035451755 -6.4027423e-005 3.3408825e-005 0.0013574202 -0.00044516468 0.35540605 -0.38823232
18510000000 -0.08614853 -0.16035014 0.00010649399 -6.0984119e-005 0.0042796689 4.410289e-005 0.50556266 -0.54004961
18531250000 -0.02525894 -0.022261256 -7.8968937e-005 4.6141275e-005 0.0011076857 -0.0046882378 0.37602806 -0.54317236
18552500000 -0.063392788 -0.19091506 3.9793689e-005 4.6970024e-005 -0.0014023499 -0.0026482232 0.28344879 -0.52690482
18573750000 0.081457384 -0.19237551 5.3025604e-005 1.2431189e-005 -0.00092221837 -0.00052226859 0.1601128 -0.19964196
18595000000 0.090651341 -0.069398329 6.2429215e-005 3.3109198e-005 -0.0032296774 -0.0019348068 0.42780098 -0.11812162
18616250000 0.048274219 -0.13855533 5.2699219e-005 -3.7224145e-005 3.8804592e-005 0.0033260598 0.37591803 -0.46186569
18637500000 0.17422558 -0.10466908 2.7117021e-005 -0.00015138442 -0.00032223595 -0.0013887828 0.26320264 -0.16625777
18658750000 0.080930129 -0.063229598 5.038645e-005 -7.7233512e-005 0.0011951268 0.0020333002 0.48302999 -0.49275804
18680000000 0.083549298 -0.20297593 0.00013846671 -4.2416821e-005 0.0010530128 -0.0034364569 -0.032081623 -0.44766626
18701250000 0.24029292 -0.09114565 2.7230517e-005 -0.00013070759 -0.0039803931 -0.0015173955 0.22162308 -0.1151932
18722500000 0.14432989 -0.050600931 7.1042894e-005 3.4771088e-005 -0.00053999241 0.0017633949 0.16602385 -0.2985315
18743750000 0.22579765 -0.14927019 -0.00016873563 1.1542743e-005 -0.0036989327 -0.00020879964 0.15020403 -0.25508249
18765000000 0.21670866 0.082189508 0.00012142627 -6.3491367e-005 0.00017394252 0.0048484816 0.18583693 -0.3566626
18786250000 0.078698359 -0.011369752 -8.2133061e-005 5.7382455e-005 0.0015197071 0.0023618797 0.055176191 -0.34877592
18807500000 0.22654991 -0.093650378 -5.8471804e-005 -5.1168907e-005 0.0034070632 0.00071290502 0.031929698 -0.43423438
18828750000 0.13699766 -0.041318335 -1.5745314e-005 -1.7818282e-005 0.0005879901 -0.0015211456 -0.021934452 -0.46382368
18850000000 0.14822234 -0.053056315 0.00013922427 0.00011143444 0.0015438134 -0.00056408736 0.10192183 -0.12905344
18871250000 0.23801784 0.086532094 -4.5644054e-005 -3.5196597e-005 -0.0016895452 -0.00089685543 0.12521675 -0.58954281
18892500000 0.13661858 0.23204102 -4.7693484e-005 6.7146634e-006 0.00062755897 0.00096233003 0.050456725 -0.43423414
18913750000 0.10150306 0.024711374 -4.2850206e-005 -8.5164422e-005 -0.00035687853 0.0012971074 0.2033051 -0.61099213
18935000000 0.082402304 0.0015596393 -8.76536e-005 6.7235655e-005 0.0029054941 0.00065042236 -0.066984214 -0.67989182
18956250000 -0.036176603 -0.006472914 9.0640075e-005 -4.3639204e-005 0.0014481178 -0.0011971968 -0.012241836 -0.50387573
18977500000 0.029058984 -0.069702968 -5.3139407e-005 0.00015765811 0.002091219 -0.0021868041 0.12944052 -0.41933018
18998750000 0.076790132 0.16471165 7.4748503e-005 -3.1611282e-005 -0.0011658138 -0.0035142053 0.24705572 -0.52820778
19020000000 -0.047250513 0.12984213 7.9586236e-005 1.5731113e-005 -0.002308096 -0.00090206129 0.13397501 -0.59239525
19041250000 -0.10116972 0.0045962823 -6.3619074e-005 8.2944782e-005 -0.00073659548 -0.0013548832 -0.0017283864 -0.48945799
19062500000 -0.096381038 0.072879396 0.00011184068 -0.00015229634 -0.004721466 0.002202457 0.27921939 -0.61383152
19083750000 -0.075107269 -0.17832108 -2.7507916e-005 1.7800825e-005 0.0039794389 0.0019281319 -0.041002009 -0.60441488
19105000000 0.090771511 -0.060611431 -6.6980931e-005 7.8397585e-005 -0.0026693817 -0.0018576091 0.020261938 -0.22602406
19126250000 0.05901318 0.051547758 4.0042847e-005 1.0460716e-005 0.002001968 0.001714836 0.44820637 -0.5432626
19147500000 -0.061087556 -0.04384122 2.4425251e-006 -6.0202005e-005 -0.00058209692 -0.0034171988 0.10496839 -0.58047372
19168750000 -0.11329831 -0.0999166 -3.6345646e-005 0.00012766353 -0.0041052303 0.001513852 0.15729722 -0.4658294
19190000000 -0.1643185 -0.18799242 2.1421951e-005 -4.6510842e-005 0.00068321207 0.0016172132 0.13455303 -0.4837712
19211250000 -0.10437077 -0.29408747 -5.1003048e-005 6.2095438e-005 -0.0029856667 0.0019971407 0.1897977 -0.44898313
19232500000 0.13431099 -0.1591848 -2.2974125e-005 -5.9947131e-005 0.0034425121 0.0039157947 -0.097647995 -0.33879197
19253750000 -0.011583777 -0.10390064 -8.0649275e-005 0.00012469961 0.00090367603 -0.00039948328 0.29903391 -0.27774981
19275000000 0.044598993 -0.19049416 -2.9793357e-005 5.8491212e-005 0.0029905518 9.0208923e-005 0.17976505 -0.52199197
19296250000 -0.0019551578 -0.12930319 -8.4124467e-006 -0.00011181677 0.0008350843 -0.0015678453 0.025102584 -0.39766747
19317500000 -0.13062818 -0.22969677 6.3054773e-005 2.283717e-005 -0.0010187391 -0.0018040491 0.19905046 -0.3648901
19338750000 0.19035685 -0.30028334 2.1146987e-005 -0.00010830333 -6.0208655e-005 0.0014082114 -0.12980731 -0.53388125
19360000000 0.17448825 -0.20791949 -0.00010763271 2.1500178e-005 -0.00020288397 -0.00071150379 -0.10852299 -0.20262413
19381250000 0.15713271 -0.23196958 1.5779902e-005 6.520078e-005 0.00057385076 0.0017079408 0.1565915 -0.31015268
19402500000 0.20261376 -0.13867573 -3.2179571e-005 -0.00016867314 0.0029622384 0.00048268831 -0.053204484 -0.37251988
19423750000 0.027981622 -0.15973 -4.2333922e-005 -0.00015206767 0.00072515709 -0.0040040179 0.05697491 -0.47072899
19445000000 0.091863245 -0.16999602 -4.2816841e-006 1.6068747e-005 3.0329755e-005 -0.00074046879 -0.21308632 -0.37116247
19466250000 0.2612071 -0.1142497 -3.9749084e-005 -5.7032266e-005 -0.0016530725 -0.0027419378 -0.078376099 -0.36740977
19487500000 0.19229034 -0.063382708 1.0139383e-005 -0.00013808558 -0.0026065353 -0.0012203568 -0.27250567 -0.47103193
19508750000 0.22764136 -0.16525567 -1.6015413e-006 -0.00012196576 -0.0017054336 0.0024751013 -0.19665997 -0.087627128
19530000000 0.1578666 0.029846089 9.2375725e-005 7.4619056e-005 -0.0013155596 0.00041798627 0.11457551 -0.41606122
19551250000 0.059848532 -0.026680453 0.00015548505 0.00018570591 0.0026109982 0.0020389811 -0.43516976 -0.71927989
19572500000 0.2221704 -0.040331613 7.1461742e-005 -6.1052968e-005 -0.0011730741 -0.0011673983 -0.18385898 -0.23218521
19593750000 0.16194443 0.096612222 6.5088592e-005 -2.7742599e-005 0.0010428211 -0.00034263596 -0.17646697 -0.62504989
19615000000 0.084708445 -0.021361513 -6.723548e-005 -0.00017038778 -0.0022256228 -0.0014244879 -0.34460154 -0.41001642
19636250000 0.11296793 0.053310145 -7.176731e-005 -1.6106522e-005 -0.0017857521 0.002373145 -0.12754881 -0.36425853
19657500000 -0.092627183 0.1036829 -8.5485262e-005 2.4298864e-005 -0.00025520468 -0.00026294132 -0.17954947 -0.41432759
19678750000 0.0023246517 0.0060689971 -8.4764804e-005 -0.00012261896 -0.0015815939 0.005725448 -0.078543432 -0.73841429
19700000000 -0.0033861306 0.09273541 5.7652851e-005 7.1571296e-005 0.0053000539 -0.00013345784 -0.37548274 -0.50451046
19721250000 -0.023002066 0.06372223 -0.00017828315 -1.2682821e-005 0.00058867043 -0.00043755816 -0.084838331 -0.33752134
19742500000 -0.1358681 -0.037418626 -0.0001747925 8.3746672e-005 0.0013137882 -0.00062854437 -0.14704837 -0.69147599
19763750000 -0.16638228 0.028349761 -0.00017573708 0.0001193385 0.0011479456 -0.0017628655 -0.28768849 -0.34306589
19785000000 -0.21673962 0.061776586 4.7116235e-005 -7.6199358e-005 -0.0018835425 -0.00090903114 0.215102 -0.29298595
19806250000 -0.076621443 -0.075385861 8.2953011e-005 -1.3424103e-005 -0.0009249674 0.00094268075 0.012435858 -0.81402266
19827500000 -0.099740677 0.027426209 -2.4619412e-005 -5.4212076e-005 0.002196393 0.0012190662 -0.055511903 -0.35880759
19848750000 -0.21588735 -0.1196227 -0.00010331936 3.5785735e-005 -0.00040764714 -0.00044539088 0.059258033 -0.41341269
19870000000 -0.1265659 -0.12679109 3.7747479e-005 -2.5132244e-005 0.0037221208 -0.00087388267 -0.025378047 -0.4099834
19891250000 -0.25032568 -0.17197125 -0.0001914421 -7.4063901e-005 -0.0015277957 -0.0031702758 0.13423188 -0.28556582
19912500000 -0.10369515 -0.32451099 0.00010612876 -0.0001825131 -0.00039867128 -0.0014038628 0.1143883 -0.017454082
19933750000 -0.009650372 -0.14842013 3.2010663e-005 -9.5327545e-005 -0.0019036104 -0.0017595163 0.26245964 -0.47430271
19955000000 -0.1132182 -0.21239771 3.6693007e-005 8.1746693e-005 -0.0049014157 0.00085662032 -0.29549384 -0.35836151
19976250000 -0.15636352 -0.24659525 -0.00012474638 -0.00019951975 0.0027417464 0.0034325111 0.055395454 0.02914517
19997500000 -0.17926209 -0.22611633 3.9203689e-005 1.2549724e-005 -0.0018598045 -0.0012223929 0.032690838 -0.15366894
20018750000 -0.066515192 -0.28321454 -0.00014078766 -9.1879039e-005 0.00185268 0.0027207895 -0.15084217 -0.0029160171
20040000000 0.16621746 -0.3147628 7.9764832e-005 7.2465295e-006 0.00072796131 -0.002353709 0.04178812 0.2318297
20061250000 0.30513301 -0.080053806 -0.00019414652 -5.3598978e-005 -0.0018624719 -0.0014068263 0.012050092 -0.26173776
20082500000 0.11058768 -0.05389069 -0.00011728158 -0.00014488077 -0.0021707059 0.001728505 -0.35018331 -0.20362565
20103750000 0.1483929 0.0096341046 8.0060279e-005 4.6101202e-005 -0.00094375538 0.0011014995 -0.33976594 -0.0890816
20125000000 -0.12211409 0.053469829 8.5858403e-005 -2.0034853e-005 0.00066098571 0.0030249758 -0.35573062 0.10470089
20146250000 0.059987944 -0.17706169 0.00016255984 6.5742635e-005 0.0014645769 0.001499931 -0.29308543 -0.27828532
20167500000 0.28551507 -0.073056683 -0.00012341593 6.8771784e-005 0.0023373982 -0.00025287771 -0.79455149 -0.15889204
20188750000 0.21660712 0.016643047 -3.4977547e-005 -4.9853603e-005 0.0024827032 0.00035048381 -0.045477618 -0.12034485
20210000000 0.22741064 0.10907929 -9.427069e-005 8.4725725e-005 -8.4580191e-005 -0.0042940066 -0.5744037 -0.83829355
20231250000 0.032952238 0.372143 0.0001219248 4.0641251e-005 -0.00063875056 0.0011333808 -0.75442231 -0.15564935
20252500000 -0.11969542 0.19093421 5.0776915e-005 0.00022410019 -0.00063891435 -0.00060275639 -0.44808367 -0.43375209
20273750000 0.041335553 0.12332358 -4.0871717e-005 3.9484785e-005 -0.00048712984 0.0008593495 -0.40274712 -0.38019612
20295000000 0.085888498 0.21797553 -4.4367716e-005 2.3535677e-006 0.001995892 0.0010908074 -0.44123885 -0.47265866
20316250000 0.032171112 0.18583639 -0.00017426287 -1.0228567e-005 0.0014768846 -0.00072253577 -0.17653507 -0.56084847
20337500000 -0.10916805 0.25803351 0.00019410023 1.2161534e-005 0.0012417348 -0.0038915896 -0.066931978 -0.79845226
20358750000 -0.31420538 0.36449203 -2.2156737e-005 0.00020512452 -0.0016832562 -0.00071539212 -0.56615424 -0.69089997
20380000000 -0.33748105 0.091618955 1.056777e-005 -0.000201786 -0.0011851264 -0.0020096158 -0.30378175 -0.36328354
20401250000 -0.16227567 0.088668294 6.2640189e-005 9.2323011e-005 -0.0026223222 2.4644758e-005 0.29357624 -0.67167664
20422500000 -0.24928264 0.055723257 5.1180854e-005 -8.8197041e-005 -0.0016232391 0.002212506 -0.18974918 -0.62757385
20443750000 -0.1391962 0.0350555 2.9624904e-005 -7.1077433e-005 0.0010606573 0.0011708274 0.15917598 -0.19896632
20465000000 -0.26543292 0.21954209 -0.00013302825 -0.00014425459 0.0008613317 0.00037526447 0.38972446 -0.81729686
20486250000 -0.39219916 0.065318897 3.2504144e-005 0.00025168984 0.00021101236 -0.00087485969 -0.30388933 -0.3218419
20507500000 -0.19079678 -0.034007862 -2.783936e-006 2.7503065e-005 -0.00016730749 -0.0012858906 0.23192592 -0.098992735
20528750000 -0.15154493 -0.10720806 0.00010769642 -5.3888427e-005 -0.0017911678 0.0014545348 0.21898183 -0.15258168
20550000000 -0.10121407 -0.29338259 -0.00019852715 -5.1157811e-005 -0.00034203526 -0.0011776162 0.2009934 -0.042052977
20571250000 -0.085193664 -0.15168756 8.2151841e-005 -9.3193434e-005 -0.0019494402 0.0044776425 -0.0081960307 0.052551363
20592500000 -0.11699638 -0.096903615 -1.026838e-005 0.00015801108 0.0036201577 5.8174599e-005 0.36057696 0.22772332
20613750000 -0.087671377 -0.18943402 0.00013310849 0.00025545401 -0.00053388858 0.0017646528 -0.23891976 -0.1602219
20635000000 0.25717327 -0.26503253 -0.00013873439 0.00014458653 0.0045415396 -0.0017532518 -0.41419396 0.58223844
20656250000 0.10350548 -0.26004294 -1.9727557e-005 4.9070284e-005 -0.0011009705 -0.0015288005 0.21420564 0.48226145
20677500000 0.20711809 -0.35957897 -0.00024235627 -3.6543701e-005 0.00097301649 -0.0015424878 -0.3027674 0.037748419
20698750000 0.26139066 -0.086559221 -0.00011584385 4.3016498e-005 -0.0028972437 0.00093264919 -0.55733138 0.49704167
20720000000 0.11633082 -0.13937081 4.2625663e-005 -9.9561476e-005 0.001556863 0.00070297963 -0.29794243 0.30618188
20741250000 0.3618007 -0.10897606 -5.3558306e-005 8.9604728e-005 -0.00015226309 0.00039747296 -0.80113369 0.24900688
20762500000 0.36078468 -0.03133836 -4.3547502e-006 -2.0735866e-005 0.0025752464 0.0006588769 -0.69833773 0.2923075
20783750000 0.25037149 -0.076454714 -5.1806339e-005 -1.6465476e-005 1.2598876e-005 -0.0028966395 -0.49698803 0.33712554
20805000000 0.41727063 0.061109673 6.6126835e-005 -3.9002342e-005 0.00030664317 -0.00022634859 -0.44020942 -0.062339835
20826250000 0.26155543 0.23700841 -0.00011820789 -5.4572163e-005 -0.0016926909 -0.0038308781 -0.90994442 -0.22816406
20847500000 0.20956644 0.097132333 -0.00010575332 -6.3629232e-005 -0.0029231624 0.0017866771 -0.59465206 -0.035905346
20868750000 0.28107861 0.16495506 -0.00011139344 1.5877249e-005 -0.00079404423 0.0005953497 -0.45336989 -0.74974883
20890000000 0.16575077 0.19259724 0.00011962097 2.7070173e-005 -0.0017509115 0.0016069881 -1.0479935 -0.35457468
20911250000 0.22124504 0.10457846 -0.00010269288 -0.00019071279 0.003021077 0.0016635787 -0.39017069 -0.20363131
20932500000 0.19502659 0.29992819 4.4295266e-005 -0.00015494364 -0.0017399807 -0.0018555492 -0.46362147 -0.74907202
20953750000 -0.053541627 0.35085282 0.00013764371 0.00020801816 0.0021229961 0.00083939766 -0.4276261 -0.62120843
20975000000 0.15897863 0.042800192 0.00023481293 1.0799887e-005 -0.0023885455 -0.0026707952 -0.19537826 -0.55697477
20996250000 0.053280938 0.11153321 0.0001802698 -8.7201908e-005 -0.0018308433 0.0025024933 -0.16408591 -0.57096398
21017500000 -0.12057491 -0.022383839 0.00016091971 -0.00025638018 0.00034668643 0.00032407514 -0.14054589 -0.71074349
21038750000 -0.019229706 0.048331793 -0.00020885687 2.3475395e-005 -0.0015554179 0.0039960314 -0.20624794 0.15943053
21060000000 -0.21969315 0.16043423 -0.00010642553 9.8618213e-005 0.0050030304 9.3375325e-005 0.58379984 -0.30814502
21081250000 -0.22792828 -0.036352281 8.4285959e-005 0.00017363153 -0.00097320427 0.00040676186 0.076171599 -0.59864849
21102500000 -0.084179603 -0.066777065 -3.9051127e-005 0.00016621847 0.0044461163 -0.0016688227 0.11360603 0.027734652
21123750000 -0.11912531 -0.14588569 7.5554213e-005 0.00023896866 -0.0032093057 -0.0030602822 0.44893619 -0.2439498
21145000000 -0.042190585 -0.36292928 -3.7655544e-005 -0.00018609405 0.00075502571 0.0017643435 -0.068003982 -0.34023547
21166250000 0.06323117 -0.16920851 -1.0209162e-005 -2.7426886e-005 -0.0016184909 -0.0021147516 0.13705137 0.38174427
21187500000 -0.026103603 -0.19839603 -7.0811875e-005 -2.2461838e-006 0.00051362021 0.0037507722 0.095839426 0.11547897
21208750000 0.039976504 -0.38475347 9.2535578e-005 5.1839128e-005 0.0010099254 -0.0024931307 0.14962246 0.09970703
21230000000 0.052900463 -0.22956136 9.8954763e-005 -9.7126896e-005 0.002841081 0.0020350644 -0.11873285 0.064027131
21251250000 -0.12010533 -0.46159664 1.3571454e-005 2.6826245e-005 -0.00081295555 -0.0064918138 -0.020654297 0.52753747
21272500000 0.17954369 -0.39351207 2.0078493e-005 -0.00012981026 -0.0021438103 0.0027830657 0.12849821 0.033228286
21293750000 0.25323516 -0.17290764 -0.0003201463 0.00011192012 -1.6213686e-005 -0.0044632438 -0.72051632 0.36452487
21315000000 0.25918642 -0.29602104 0.00014821578 -6.0483599e-005 -0.0050781299 0.0029848625 -0.088089913 0.53932244
21336250000 0.32622996 -0.25853038 -0.00015014109 0.00016617023 0.0037749102 0.001545375 -0.25808823 -0.01950876
21357500000 0.18904646 -0.20969345 9.1153433e-006 0.00013396422 -0.0023970266 0.0003781502 -0.66025054 0.28678706
21378750000 0.08978346 -0.29123417 0.00012250492 -8.5287036e-005 0.0025492557 0.00067911833 -0.37365043 0.34758928
21400000000 0.29641914 -0.24081537 0.00010073475 -2.222287e-005 -0.00028479539 -0.0017169446 -0.60850978 -0.087285057
21421250000 0.19725028 -0.10347839 -2.0231622e-005 -1.9489309e-005 -0.0014693735 0.00056602445 -0.73255849 0.10950295
21442500000 0.30956471 -0.20723137 -8.4508014e-005 -4.3058877e-005 -0.00029626014 -0.0012570595 -0.59958726 0.15772933
21463750000 0.33096701 -0.011289581 -2.8220376e-005 0.0002197163 -0.0021838422 0.003254391 -0.29860687 0.056159955
21485000000 0.070875905 -0.051711179 0.00021229645 -1.6830701e-005 0.00088320032 0.0009592303 -0.62655103 -0.3521181
21506250000 0.18832019 -0.10665373 1.1227361e-005 0.00017292959 0.0028770408 0.0021783758 -0.5296855 0.068317145
21527500000 0.064158678 0.067476757 -0.00027967608 -5.3169551e-005 0.00084468746 -0.0016044701 0.05434395 -0.25195295
21548750000 0.019378221 -0.084349759 -6.7626817e-005 8.9765745e-005 0.0012812436 0.00033102202 -0.79584926 -0.51527196
21570000000 0.18067673 -0.068053253 0.00022501739 -7.5529671e-005 0.0019273231 -0.0031045135 -0.19553295 0.076527752
