!Keysight Technologies,N5242B,MY47200105,A.14.00.23
!Date: Friday, May 10, 2024 11:03:09
!Correction: S11(C  2-Port  ) 
!S21(C  2-Port  ) 
!S12(C  2-Port  ) 
!S22(C  2-Port  ) 
!S2P File: Measurement: :
# Hz S  RI   R 50
18000000000 0.1314138 -0.021736862 -0.00011782985 -8.3106752e-005 0.0032409485 0.008339257 0.8893618 -0.42609277
18021250000 0.060891423 -0.22094893 1.7911596e-005 -8.4043299e-005 -0.00059740449 -0.0029427109 0.31483841 -0.18908902
18042500000 0.22175068 -0.087283276 -9.6531076e-005 -7.2228169e-005 0.0013700589 0.0066723153 0.50318897 -0.042777244
18063750000 0.13832252 0.015199416 1.1024796e-005 -0.00015542384 0.0082020368 -0.0024654299 0.41674894 -0.18755031
18085000000 0.20869435 -0.052281879 -9.2575581e-005 -0.00019175014 -0.0028926351 -0.0055744601 0.43246478 0.096301869
18106250000 0.33550906 -0.0011151071 -4.7341811e-005 -2.4835468e-005 0.0033849198 0.0011065697 0.48226157 -0.088939413
18127500000 0.20181365 -0.052166194 0.00018317738 -0.00010630702 -0.0054665767 -0.0076020346 0.57699174 -0.20290357
18148750000 0.19723772 -0.04702941 -9.6527918e-005 -0.00011867088 -0.001512591 0.0069772936 0.30574578 -0.36672476
18170000000 0.30030444 0.086595595 -8.3124069e-005 -1.3034393e-005 0.0023315095 -0.0017237792 0.097033791 -0.11113595
18191250000 0.15470041 0.19162433 -5.3210391e-005 5.0168095e-005 -0.0022097707 0.00052321912 0.28490791 -0.076563925
18212500000 0.25148007 0.071191661 -1.9679941e-005 -6.7098706e-005 0.0045457315 0.0012293709 0.10357074 -0.11692642
18233750000 0.16072986 0.14715412 8.7301451e-005 3.473341e-005 -0.0011200113 -0.0064561265 0.32902461 -0.14966504
18255000000 0.028264578 0.056763057 6.0527243e-005 -0.00010477555 -0.0038253665 0.0020580536 0.43644008 -0.53612632
18276250000 0.14629886 0.0096929772 6.3798419e-005 2.4486997e-005 -9.6945369e-005 -0.0027039829 0.15552293 -0.45945644
18297500000 0.066450447 0.1565982 3.6641828e-005 -8.1101629e-005 -0.0063886316 0.0028355552 0.077670075 -0.45875931
18318750000 0.033252481 0.12591743 0.00014032821 1.1115214e-005 0.0028064598 0.005140638 0.11723816 -0.3361432
18340000000 0.078268752 0.091577098 0.00015278386 -1.9620587e-005 9.9256096e-005 -0.00069207256 0.14283799 -0.23811373
18361250000 -0.12242362 0.10521194 -1.6172535e-005 -0.00012172313 0.0022051942 0.0046408852 0.3597607 -0.47863629
18382500000 -0.077475689 -0.020300381 4.3453878e-005 8.1534461e-005 0.0047614761 -0.004560418 0.39342299 -0.40344056
18403750000 0.0035334735 -0.014969408 8.6066204e-005 3.620534e-006 -0.004539059 -0.00087273115 0.27824003 -0.673841
18425000000 -0.035733506 0.022335282 -2.3855064e-005 -0.0001339966 0.0022526593 0.0021413609 0.065666795 -0.56331116
18446250000 -0.025517879 -0.11639537 -5.8784404e-005 5.4012784e-005 -0.0035007412 -0.002778874 0.50667375 -0.41957882
18467500000 0.013680737 0.011967551 -1.2651825e-005 5.5993056e-005 0.0023425806 0.0079764472 0.2660872 -0.54979169
18488750000 -0.20073442 -0.028451409 3.8071801e-005 -9.7342695e-007 0.0049803425 -0.0045779278 0.36176234 -0.39443493
18510000000 -0.090485796 -0.14812803 -1.0562595e-005 0.000109131 -0.0010366577 0.0016708813 0.50577217 -0.55175334
18531250000 -0.035936151 -0.012205436 4.302595e-005 -2.9646279e-005 0.0059127188 -0.0023988488 0.37962475 -0.5476467
18552500000 -0.057278588 -0.19031523 5.7226414e-005 7.4326606e-005 -0.0041288682 -0.007482715 0.28775933 -0.53576225
18573750000 0.080984637 -0.18764323 8.5815613e-005 -1.1365407e-005 -0.0021065846 0.0056603411 0.1592167 -0.19484599
18595000000 0.082712956 -0.072942413 -3.9776416e-005 5.7832399e-006 0.0012057438 -0.0070898174 0.44287306 -0.1113086
18616250000 0.042670086 -0.14372593 -6.6118613e-005 7.096801e-005 -0.0063452339 0.0054397895 0.38547093 -0.47169262
18637500000 0.1656625 -0.10454356 0.00012022159 -6.2014813e-005 0.0062059043 0.00063926983 0.26993737 -0.15745254
18658750000 0.076587588 -0.065203264 -1.5594229e-005 1.6462023e-005 -0.0033243732 -0.0030898352 0.50413281 -0.4960205
18680000000 0.087753043 -0.2019098 -0.00014396964 -6.5354379e-006 0.0018918364 0.0029767051 -0.028834257 -0.4436385
18701250000 0.24136415 -0.092675023 -7.8348712e-005 5.6077941e-005 -0.0010756622 -0.007162434 0.24055956 -0.10270713
18722500000 0.14404553 -0.059403211 -0.00010850863 2.6639933e-005 -0.00627199 0.0044399793 0.18125275 -0.2918863
18743750000 0.23045139 -0.1582305 -0.00012582517 4.5364872e-005 0.0026394448 0.00091385341 0.1631687 -0.2507464
18765000000 0.21878873 0.077922344 2.5958347e-005 -2.4192532e-005 -0.0046369098 0.00046877016 0.19248997 -0.35397267
18786250000 0.09015356 -0.021076396 5.974618e-005 -3.3745302e-005 0.0028223349 0.0083004143 0.05565387 -0.33749443
18807500000 0.23747773 -0.097897731 6.3760781e-005 -4.621525e-006 0.0058556236 -0.0048064827 0.033637773 -0.42653424
18828750000 0.13605662 -0.049120836 -6.1808525e-005 2.5385752e-006 -0.0050118035 0.0012861954 -0.023466101 -0.45626575
18850000000 0.15368785 -0.050225016 3.0301075e-005 6.5604559e-005 0.0079694362 0.00084540597 0.10653807 -0.10645297
18871250000 0.2423377 0.097198226 3.9241266e-005 1.0095e-005 -0.0069617908 -0.0053262971 0.12651843 -0.59115982
18892500000 0.14425538 0.23614448 6.1693019e-005 -2.1158938e-005 0.002326184 0.0076839305 0.045256529 -0.42785338
18913750000 0.11368248 0.031555377 3.9889004e-005 1.8544035e-005 0.0020081066 -0.0053356932 0.20214881 -0.61161679
18935000000 0.083758026 0.0032822147 0.00013428963 -0.00011839741 -0.0027537453 0.0050592585 -0.077655867 -0.67979431
18956250000 -0.041835081 -0.0080903359 2.0855723e-005 -7.4544791e-005 0.0085064033 -0.0016569067 -0.015823502 -0.50272465
18977500000 0.019052071 -0.061308838 0.00016168022 -2.6642299e-005 -0.0039994274 -0.0058371029 0.12757993 -0.41388765
18998750000 0.065569803 0.17658304 -5.6425608e-007 0.00018411566 0.0020610988 0.0029638822 0.25351152 -0.53073788
19020000000 -0.045725483 0.14048401 -4.9874434e-005 2.6532269e-005 -0.0012055236 -0.0078432802 0.13139187 -0.59932357
19041250000 -0.10843503 0.0044086119 9.2774702e-005 0.00011243967 -0.005808549 0.0040471354 -0.0083626239 -0.49036357
19062500000 -0.11469994 0.074589789 -6.1339306e-005 -1.7544479e-006 0.002527917 0.00042908953 0.29012802 -0.61917543
19083750000 -0.087047562 -0.17577243 0.00010798093 -4.59728e-005 -0.002952616 -0.00075902633 -0.039920866 -0.61503839
19105000000 0.078337595 -0.050160602 -6.4081005e-006 -0.00011423027 0.0017098507 0.0045168665 0.025771797 -0.22189797
19126250000 0.055654783 0.048439704 9.7787837e-005 -6.8629146e-005 0.0016296175 -0.0058427919 0.46721423 -0.56483501
19147500000 -0.069529638 -0.050098784 -1.2460674e-005 -2.6111373e-005 -0.0041797748 0.0023107722 0.10728291 -0.59364223
19168750000 -0.13503583 -0.1111031 0.00015688324 4.8778053e-005 0.0022803741 -0.0013409011 0.16158658 -0.47299245
19190000000 -0.17459208 -0.19648626 0.00014394167 -8.1717371e-005 -0.0060675782 0.00018748213 0.14408413 -0.48430246
19211250000 -0.11763114 -0.29728356 0.00011837174 7.431333e-006 0.0011217837 0.0066281548 0.20558856 -0.45502815
19232500000 0.13447939 -0.16240089 8.5111984e-005 4.3932418e-005 0.0029379874 -0.0021357753 -0.099947967 -0.33605143
19253750000 -0.007563415 -0.11594164 4.4396078e-005 1.7913995e-005 -0.0029477028 0.0050180564 0.32131433 -0.27218339
19275000000 0.044306844 -0.20415418 -1.4202546e-005 -2.8282606e-005 0.0089399274 -0.0018702371 0.19042379 -0.52923632
19296250000 -0.0014206404 -0.14132479 0.00014525863 0.00012676365 -0.0054826941 -0.0036610635 0.028006529 -0.39527982
19317500000 -0.13285705 -0.23859362 5.2045263e-005 -5.6819376e-006 0.0034609498 0.0038073496 0.21136454 -0.35673323
19338750000 0.19802332 -0.29715398 0.00011280708 5.8328678e-005 -0.00024894407 -0.0057690544 -0.12650612 -0.5330081
19360000000 0.1915442 -0.20967677 4.2912716e-006 0.00014173219 -0.004489101 0.0059508481 -0.10764293 -0.19393654
19381250000 0.17283224 -0.2354732 9.0969093e-005 -0.00020593093 0.0076236902 -0.0017563587 0.16538841 -0.30537549
19402500000 0.2072065 -0.1395741 -2.1514355e-005 -1.0389975e-005 -0.0048003225 -0.00056865404 -0.053314418 -0.36940381
19423750000 0.038715862 -0.16234985 -4.7545662e-005 6.8154375e-005 0.006747508 0.0009502091 0.058553543 -0.47548845
19445000000 0.10285094 -0.16382916 -2.464697e-005 -0.00013949464 -0.0019064539 -0.0084933033 -0.22364025 -0.36346367
19466250000 0.27259293 -0.11842488 8.2869381e-005 -7.5451396e-007 -0.0040462408 0.0048248987 -0.072060704 -0.36346233
19487500000 0.19946012 -0.062491 -4.161039e-005 9.3340735e-005 0.0033477074 -0.0054002004 -0.27645978 -0.47751129
19508750000 0.22521885 -0.16314447 0.00013905136 -2.6272306e-005 -0.0097732209 0.0021426943 -0.1993745 -0.078493759
19530000000 0.15050429 0.035919458 5.024951e-005 5.2413576e-005 0.0050660074 0.0042694509 0.12565742 -0.42288265
19551250000 0.055784427 -0.014147638 -0.00019973534 -0.00014262876 -0.00025637695 -0.0048353812 -0.44899133 -0.73482233
19572500000 0.22576424 -0.02884803 7.4240546e-005 3.4072525e-006 -0.0032013953 0.0058027883 -0.18355748 -0.22763269
19593750000 0.16534896 0.10465497 -0.00012252228 -3.2603428e-005 0.006951659 -0.0052697267 -0.17666021 -0.6320976
19615000000 0.088426024 -0.017718768 2.9014216e-006 0.00017052208 -0.0095582157 -0.0007001317 -0.34284434 -0.41222346
19636250000 0.10914011 0.047549486 2.3839525e-006 4.8309292e-005 0.0045593805 0.0053767539 -0.12772383 -0.36490124
19657500000 -0.10717373 0.097920768 -8.6710017e-005 -0.00014859888 -0.0034633337 -0.0063633667 -0.17628793 -0.40926975
19678750000 -0.0019183632 0.011172689 -3.2074292e-006 -3.9557341e-005 -0.0032866446 0.011972593 -0.068488091 -0.74720401
19700000000 -0.008965753 0.0891812 -0.00013133908 8.0266116e-005 0.010697906 -0.0046555558 -0.38253197 -0.50322229
19721250000 -0.013254794 0.06434352 0.00011932863 -5.2572042e-005 -0.0069353422 0.00039078505 -0.072589636 -0.32646
19742500000 -0.14054076 -0.040544339 -0.00010562055 -4.3295742e-005 0.0076137106 0.003444616 -0.14263724 -0.69984061
19763750000 -0.16751494 0.018776016 -0.00011710893 -0.00015834165 -0.0019744514 -0.0094278259 -0.29069602 -0.33708128
19785000000 -0.21505919 0.062779181 8.4800376e-005 5.2212006e-005 -0.0030220805 0.007854715 0.22613321 -0.28528735
19806250000 -0.073817655 -0.084062263 5.1660274e-005 5.831353e-005 0.0047092042 -0.0050285021 0.016463008 -0.82473809
19827500000 -0.088851288 0.022343365 5.364358e-006 -4.6399182e-005 -0.005696204 0.0037118795 -0.057137173 -0.35497093
19848750000 -0.21454798 -0.1209568 -1.1511333e-005 3.9121634e-005 0.007665161 0.0015728909 0.063131735 -0.41109887
19870000000 -0.13252814 -0.12749903 9.480508e-005 -2.0122234e-005 -0.0017841558 -0.0063158539 -0.023150973 -0.41227371
19891250000 -0.25597924 -0.16897568 0.00017722687 -5.8262893e-005 -0.00016447506 0.0042783613 0.13543397 -0.29546496
19912500000 -0.09764231 -0.31515518 -4.0171522e-005 8.3505474e-006 0.0028640849 -0.0082137492 0.10892638 -0.010349936
19933750000 -0.0028402312 -0.13885728 4.3026021e-006 1.5036654e-005 -0.0083294092 0.00093765644 0.26514864 -0.4874731
19955000000 -0.097081855 -0.20849888 6.2525869e-005 -0.00017984193 0.0021956165 0.0023186519 -0.31165993 -0.37318009
19976250000 -0.15906627 -0.23996012 -0.00015601549 9.4615309e-008 -0.002116709 -0.0014862193 0.057420909 0.028329968
19997500000 -0.18892562 -0.22571765 -0.00020110056 5.1392926e-005 -0.0011902635 0.0054075723 0.034594644 -0.16411254
20018750000 -0.07375022 -0.27164671 4.4351e-005 -9.4096817e-005 0.0056116078 -0.0034058087 -0.14894292 -0.013032192
20040000000 0.1532741 -0.30687582 1.1069631e-005 -6.4624823e-005 -0.0062974892 0.00099594565 0.045676202 0.22725031
20061250000 0.30270791 -0.071467027 5.6504457e-005 3.2012224e-005 0.0056185424 -5.8984104e-005 0.021782942 -0.27377072
20082500000 0.095031671 -0.04477898 0.00016639702 -5.4352524e-005 -0.0078362636 -0.003867537 -0.34403694 -0.21766457
20103750000 0.13500458 0.013241799 0.0001103561 -4.6909703e-005 0.00037589695 0.0088813994 -0.33099726 -0.096026592
20125000000 -0.14072548 0.053280547 6.3014617e-005 0.00015164202 0.0042724744 -0.0048658564 -0.34161726 0.10641951
20146250000 0.04931524 -0.18265507 5.3463187e-005 5.4111959e-005 -0.0059048044 0.0056128809 -0.27371794 -0.29292062
20167500000 0.27745566 -0.082298666 -8.2370185e-005 -3.1914424e-005 0.011259874 0.0010962154 -0.79970253 -0.15947533
20188750000 0.21493135 0.0043931343 1.1756514e-005 -4.5926587e-005 -0.0044051339 -0.0047554621 -0.015237924 -0.11536995
20210000000 0.21875086 0.095415637 -0.00012674651 -0.00010074757 0.002274524 0.0041315169 -0.56635255 -0.84737509
20231250000 0.0096900538 0.35028702 -4.5491874e-005 0.00012502802 0.0013489799 -0.0070452071 -0.74631202 -0.13853614
20252500000 -0.12840506 0.17495963 -6.3242835e-005 -4.5583121e-005 -0.0065415706 0.0046493025 -0.43796262 -0.43087712
20273750000 0.038618602 0.11262145 -2.9128223e-005 -6.8861802e-005 0.0072419401 0.00011196673 -0.38818592 -0.37234098
20295000000 0.094498418 0.19524047 -7.1943009e-006 -0.00026760949 -0.0047876188 -0.0027217686 -0.4515183 -0.46990722
20316250000 0.03919962 0.17307559 8.7033797e-005 1.3479934e-005 0.0050951494 0.0058062091 -0.17447323 -0.54800677
20337500000 -0.11490843 0.23806006 -0.00013368081 -0.00013388589 0.0029976771 -0.010257415 -0.066064462 -0.79388022
20358750000 -0.30782679 0.35234147 0.00017102402 -8.0060827e-006 -0.0071584657 0.0037089675 -0.58984596 -0.68315727
20380000000 -0.32888162 0.082589313 -7.7988909e-005 -3.0270385e-005 0.0061973971 -0.0026165941 -0.31541425 -0.34482494
20401250000 -0.14757279 0.081638321 5.9983879e-005 -0.00013887769 -0.0090776645 -0.0034354916 0.29638144 -0.67258203
20422500000 -0.22802529 0.055904936 7.2181021e-005 0.00016858097 0.0012177012 0.0085749198 -0.21082266 -0.63284475
20443750000 -0.12513649 0.043738037 -8.3974439e-005 0.00012185441 0.0020231046 -0.0056187576 0.14760004 -0.18804553
20465000000 -0.25843245 0.2297916 6.6366796e-005 0.00012402379 -0.0046413466 0.0049020532 0.39049834 -0.83689547
20486250000 -0.37680456 0.080908366 6.2991952e-005 0.00016960452 0.0071390113 -0.001377681 -0.32998273 -0.33099425
20507500000 -0.18054521 -0.014973221 2.8525696e-005 0.00014495599 -0.0065606837 -0.0046258522 0.22849268 -0.10925031
20528750000 -0.13911371 -0.10215307 5.6538625e-005 -6.9989721e-005 0.0015843298 0.0079346858 0.217557 -0.1700018
20550000000 -0.097984821 -0.28122801 0.00017086451 8.9151668e-005 -7.826103e-005 -0.0084764678 0.19464952 -0.064656369
20571250000 -0.11000279 -0.13692516 4.2928681e-005 -1.1011424e-005 -0.0062083849 0.010876004 -0.019844044 0.035477288
20592500000 -0.12577266 -0.084203571 -0.00011194299 8.2598177e-005 0.010362144 -0.0020996027 0.37216061 0.21967389
20613750000 -0.10478345 -0.17448793 9.2159826e-006 -0.00011523729 -0.0074034133 -0.000403966 -0.23941229 -0.19165909
20635000000 0.24885657 -0.25947642 -6.0608163e-005 6.6595567e-005 0.009166033 0.0040681134 -0.41076156 0.58086234
20656250000 0.083607569 -0.24956106 -1.9727137e-005 0.00018174166 -0.0012390451 -0.0079018483 0.24767116 0.47120774
20677500000 0.18137804 -0.34720349 -9.8664539e-005 -8.4850763e-006 -0.0029764827 0.0039759888 -0.28969154 0.01121206
20698750000 0.23883419 -0.081383176 -6.9392285e-005 -7.482701e-005 0.0041083214 -0.001715416 -0.54223895 0.49518859
20720000000 0.093204476 -0.1463922 7.1760682e-005 -1.0456739e-005 -0.0053659077 -0.00086788199 -0.27108419 0.30351093
20741250000 0.33930925 -0.1074287 2.2802018e-005 -0.00020484565 0.0052938131 0.005106709 -0.78096634 0.23667061
20762500000 0.34474498 -0.038662422 -9.0322283e-005 3.3646193e-005 0.0012793707 -0.0060385484 -0.68462765 0.29800025
20783750000 0.23501292 -0.079275928 0.00017682824 -0.00013253112 -0.0029179088 0.0026250125 -0.47161242 0.35502484
20805000000 0.40355957 0.052627023 -0.00016961453 6.315604e-005 0.0063953232 -0.003058959 -0.41424841 -0.058280788
20826250000 0.25566927 0.22261623 3.3774129e-005 -4.0003881e-005 -0.0082353931 -0.0051344405 -0.91217816 -0.21455213
20847500000 0.21198995 0.08030244 1.6724125e-005 2.6515676e-005 0.0013906549 0.0065673506 -0.58743972 -0.0079442309
20868750000 0.28762749 0.1360857 -2.0622707e-005 -0.00019150026 -0.0011485874 -0.0069766408 -0.42964542 -0.73614377
20890000000 0.17555258 0.16971247 9.7984048e-006 1.2850903e-005 -0.0057266792 0.0079134256 -1.0701494 -0.32963106
20911250000 0.23389769 0.090170264 4.3592086e-006 1.5047794e-005 0.0085646929 -0.0011187677 -0.38703942 -0.17726393
20932500000 0.21368322 0.28494439 7.4048658e-005 -9.508714e-005 -0.0075302785 -0.0038339903 -0.48041925 -0.7458092
20953750000 -0.03371745 0.3416751 -0.00010873051 -2.215088e-005 0.005561294 0.0067508603 -0.45295835 -0.61879653
20975000000 0.19030425 0.026042618 0.00010274871 7.75018e-006 -0.0019721787 -0.0097356299 -0.22179896 -0.5502826
20996250000 0.080139466 0.10004354 -1.6745665e-007 0.00023003171 -0.0060709459 0.0092175892 -0.18127863 -0.56014335
21017500000 -0.10233171 -0.01950065 3.1902295e-005 5.1594361e-005 0.0071660532 -0.0018270289 -0.16419074 -0.72971803
21038750000 -0.011722721 0.054898519 -7.5838172e-005 -0.00011902814 -0.0087049883 0.0026888284 -0.2339009 0.17537399
21060000000 -0.20832662 0.17000915 -0.00013604399 0.00011209467 0.0096875969 0.0061309617 0.58458924 -0.32310152
21081250000 -0.21463676 -0.028826918 -0.00019142039 0.0001536958 -0.0023590433 -0.006954568 0.051679999 -0.63210726
21102500000 -0.078294717 -0.062982626 1.6665577e-005 6.1619699e-005 0.0017828125 0.0044620028 0.097525612 0.016647248
21123750000 -0.11569018 -0.12720437 8.151793e-005 9.3062306e-005 0.0034752844 -0.00632445 0.44617322 -0.27530804
21145000000 -0.054877795 -0.3449004 4.4998211e-005 1.3306236e-005 -0.0070155896 0.00049267837 -0.082917936 -0.38359585
21166250000 0.047084667 -0.14703812 -0.00013063513 -3.7822549e-005 0.0046683685 0.0026397908 0.12666628 0.36918005
21187500000 -0.043647766 -0.17604148 -0.00023786012 -3.5051668e-005 -0.0017226061 -0.0033655409 0.095264874 0.094442926
21208750000 0.017979588 -0.38001314 5.5332232e-005 -3.0188886e-007 -0.00066677306 0.0045344294 0.15780391 0.074148469
21230000000 0.035499923 -0.21833584 5.93813e-006 5.0785646e-005 0.0078956252 -0.0026079828 -0.1165686 0.038720109
21251250000 -0.15009809 -0.44654736 -4.3219487e-005 0.00021846147 -0.0071006301 -0.0056950105 -0.00096687715 0.53021872
21272500000 0.15328465 -0.37848094 3.2409149e-005 -8.557293e-005 0.0030867131 0.0062698522 0.16349994 0.010300117
21293750000 0.23774746 -0.16351038 4.3049386e-005 0.00010273446 -0.0025405937 -0.010516949 -0.71562177 0.36400357
21315000000 0.24317303 -0.30011055 -5.6292229e-005 0.00011084689 -0.0069915466 0.0092776949 -0.058692683 0.5419004
21336250000 0.31919777 -0.2792449 -0.00011038705 -0.0001490844 0.0086108074 -0.0030108755 -0.23445591 -0.035282891
21357500000 0.1880181 -0.22306925 -9.0399117e-006 -0.00021755992 -0.0092429575 0.0015662423 -0.65260923 0.29343486
21378750000 0.073537916 -0.30789661 -9.996695e-005 -0.00024521584 0.0081236316 0.0040367572 -0.35799345 0.36343452
21400000000 0.29786471 -0.26146594 4.5347511e-005 9.3819122e-005 -0.0035069224 -0.0075611826 -0.59678537 -0.079367362
21421250000 0.19635725 -0.11267368 0.00010979295 1.3965109e-005 -0.002036779 0.006842385 -0.73015827 0.1294165
21442500000 0.31354818 -0.23579338 -1.9489573e-005 -4.454673e-005 0.0038837225 -0.0053144088 -0.59530115 0.18485074
21463750000 0.35116822 -0.033188593 -5.5123492e-006 2.5866093e-005 -0.0082484512 0.0037266933 -0.28402978 0.074467994
21485000000 0.082424887 -0.059292827 7.2511484e-006 0.00017832157 0.0070559918 0.0048765121 -0.6409986 -0.34261221
21506250000 0.2079718 -0.12142846 -0.00013784438 -0.00013960393 -0.00027286989 -0.0038127895 -0.53520119 0.0920211
21527500000 0.087388545 0.063685723 -8.0874401e-005 0.00010481486 -0.00062551023 0.005209615 0.064472467 -0.2411283
21548750000 0.037998311 -0.087238766 0.00029804316 -0.00036574819 0.006447603 -0.0049561751 -0.83179843 -0.52169096
21570000000 0.20452386 -0.075871423 1.2984211e-007 -8.9225221e-005 -0.0052220798 -0.0018909684 -0.20665997 0.090222143
21591250000 0.016445396 -0.037148714 -4.0243707e-005 1.7383334e-005 0.0022391605 0.003056573 0.11749138 -0.37247288
