!Keysight Technologies,N5242B,MY47200105,A.14.00.23
!Date: Friday, May 10, 2024 11:20:19
!Correction: S11(C  2-Port  ) 
!S21(C  2-Port  ) 
!S12(C  2-Port  ) 
!S22(C  2-Port  ) 
!S2P File: Measurement: :
# Hz S  RI   R 50
18000000000 0.14357597 -0.030150475 5.7316e-005 6.6242348e-005 -0.0029598468 0.0052909567 0.8710348 -0.42241976
18021250000 0.070689432 -0.21215343 -8.5668114e-005 6.15022e-005 0.0027897048 0.0022721183 0.32175791 -0.19668387
18042500000 0.22956321 -0.09420348 -2.6439866e-005 -1.328681e-005 0.001744703 0.00030528978 0.49657491 -0.057946429
18063750000 0.15560256 0.018796746 -8.9828827e-005 -0.0001181494 0.0046838354 0.0020902143 0.40788424 -0.19286641
18085000000 0.20978545 -0.050561417 8.7970715e-005 -2.7456437e-005 0.002818113 -0.0076312385 0.424301 0.087728985
18106250000 0.33778462 -0.0092365043 -1.4234485e-005 9.6831493e-005 -0.0025151607 6.1350984e-005 0.47918078 -0.092672333
18127500000 0.20520598 -0.041625578 -5.9162274e-005 0.00017568738 -0.001608168 -0.0037795624 0.56317872 -0.210118
18148750000 0.19669688 -0.040050663 2.1755077e-005 2.5953268e-005 -0.0026552505 0.0020805364 0.30328208 -0.36542726
18170000000 0.30183724 0.083867721 -4.3884331e-005 4.1306845e-005 0.00033161652 0.0026083936 0.099424459 -0.13140404
18191250000 0.15505622 0.19539465 1.3263898e-005 3.7373145e-006 0.001921083 -0.0020193858 0.26960665 -0.093568541
18212500000 0.23928598 0.068961494 8.6442356e-005 -5.0771698e-005 -1.0579192e-005 0.0010996999 0.099031813 -0.12838195
18233750000 0.16316742 0.14455454 1.5580194e-005 8.867326e-005 0.0019820565 -0.0039449921 0.32332242 -0.15641394
18255000000 0.028363528 0.067977287 0.00010194447 -2.7846057e-005 -0.0046535553 -0.0020239009 0.42675185 -0.54401499
18276250000 0.13787848 0.010645083 7.6240853e-005 1.3108064e-005 -0.001667022 0.0012646281 0.1503398 -0.46611574
18297500000 0.064718299 0.15607224 5.9197246e-005 3.9658808e-006 -0.0029709921 0.00053748855 0.077593543 -0.46526551
18318750000 0.019387174 0.12453856 5.1677809e-005 2.9648745e-006 -0.0012835389 0.0049842554 0.11534351 -0.3480607
18340000000 0.065697975 0.080617182 7.646218e-005 9.7815231e-005 0.0031706691 0.0018994575 0.14060697 -0.24889454
18361250000 -0.12077063 0.106336 9.5029616e-005 3.3287102e-005 0.001080506 0.00067251077 0.36216849 -0.47541696
18382500000 -0.085185044 -0.024575612 8.6221786e-005 0.00014405815 0.0030953416 -0.00054295786 0.39730859 -0.41824073
18403750000 0.0057771606 -0.022513008 -3.2849155e-005 4.9829701e-005 -0.001313044 -0.0029763868 0.28153455 -0.67426676
18425000000 -0.033114161 0.014205789 -9.0206566e-005 2.2560755e-005 -0.001506374 0.002317358 0.075533248 -0.56316984
18446250000 -0.02819916 -0.12732482 -0.00012000457 -4.7482932e-005 -0.00033322943 -0.00028980325 0.49731246 -0.42614752
18467500000 0.022014929 -0.0036539249 0.00013998621 -0.00014843492 0.0010348068 0.0040606591 0.26345298 -0.54805225
18488750000 -0.18844047 -0.036234852 7.7854194e-005 -7.7764107e-006 0.0037638918 -0.00046967308 0.35552552 -0.38760105
18510000000 -0.086311027 -0.1586442 -0.00012265093 -9.7106604e-006 0.002000001 -0.0013056261 0.5061397 -0.54094696
18531250000 -0.026032113 -0.024223285 -0.00018857126 -9.0362446e-005 0.0021456247 -0.0023038697 0.37510169 -0.54309565
18552500000 -0.062923059 -0.19016823 -8.9632682e-005 -0.00018950616 -0.00096011272 -0.0050870874 0.28346106 -0.52622026
18573750000 0.080528058 -0.19110408 4.0856739e-005 -7.2013936e-005 -0.003517681 0.0013679597 0.15995292 -0.20018753
18595000000 0.090670094 -0.070301324 -0.00014253413 -2.8244624e-005 0.00042266175 -0.0025018307 0.42713347 -0.11733342
18616250000 0.049518444 -0.13775827 5.4895227e-005 -5.1188995e-006 -0.0038235513 0.0026660115 0.37541333 -0.46064311
18637500000 0.17197786 -0.10477173 0.00010223707 1.7594994e-005 0.0025995858 0.0014509473 0.26317191 -0.16678803
18658750000 0.080557548 -0.063680679 -0.00014926912 -7.7057979e-005 -0.00022139818 -0.0018778787 0.4821313 -0.49295646
18680000000 0.083145373 -0.20084912 -6.7445086e-005 4.7645328e-005 0.00035991086 0.00032976639 -0.033381797 -0.44717786
18701250000 0.2383714 -0.091892876 1.1399567e-005 -3.9669532e-005 -0.0012351293 -0.0042366898 0.22064637 -0.11488837
18722500000 0.14623383 -0.0515639 0.00013374512 9.13888e-005 -0.0046918234 0.0029268919 0.16404159 -0.29879105
18743750000 0.22363839 -0.14814915 -6.7277455e-005 -0.0001255277 0.00056472467 0.00065023318 0.14901856 -0.25407687
18765000000 0.21491459 0.080076165 -1.9665618e-005 -1.3595202e-006 -0.0034384064 0.0025640691 0.18523368 -0.35702804
18786250000 0.077860929 -0.011032786 6.9326539e-005 0.00012381589 0.0034203192 0.0057767192 0.053912837 -0.34953862
18807500000 0.22396693 -0.093834609 -5.0931387e-005 8.4319174e-005 0.0034590585 -0.0027182305 0.030891282 -0.43371099
18828750000 0.13670716 -0.043633278 -1.8882023e-005 4.8976613e-005 -0.0013682104 0.0010276841 -0.022866406 -0.46376473
18850000000 0.14776899 -0.052851304 3.9615396e-005 -7.3682881e-005 0.0044277417 -0.0015911801 0.10064938 -0.1302657
18871250000 0.23415382 0.085434876 -2.6330066e-005 1.2032789e-005 -0.0044178655 -0.0011747237 0.12440116 -0.58981681
18892500000 0.1362664 0.22949146 -0.00010363482 0.00014370639 0.0020797034 0.0024834597 0.050347891 -0.4346939
18913750000 0.10165648 0.026481159 -6.6692577e-005 5.3247906e-005 -0.00050102 -0.0010893117 0.20327824 -0.61217946
18935000000 0.080002725 -0.00088496925 -2.6082769e-006 5.9699105e-005 0.0019054083 0.0024459723 -0.067546077 -0.68111014
18956250000 -0.033394936 -0.0093751177 -6.9049864e-005 0.00014645544 0.0033491789 -0.0021218578 -0.012333269 -0.50352526
18977500000 0.028868033 -0.068935901 -5.3710308e-005 -9.4842471e-005 0.00048395852 -0.0030516544 0.12966563 -0.42075598
18998750000 0.075577565 0.16132909 4.1558301e-006 -5.7235266e-005 -8.0449456e-005 -0.0013209726 0.24579041 -0.52838534
19020000000 -0.045142807 0.12877288 -5.6268516e-005 0.00010111393 -0.002222918 -0.003528377 0.13422099 -0.59209204
19041250000 -0.10165837 0.0055744215 -1.7977722e-005 -0.00023900425 -0.0025846832 0.0012709191 -0.0010316415 -0.48964173
19062500000 -0.095866211 0.069188349 -5.1030827e-005 -3.2111748e-005 -0.0015956947 0.00054676691 0.27836877 -0.61405325
19083750000 -0.072127111 -0.17782696 -7.357054e-005 -7.8348121e-006 0.00039030879 0.0014026845 -0.040897764 -0.60342437
19105000000 0.08954069 -0.060300503 3.4653945e-005 1.8239401e-005 0.00088526314 0.00031804468 0.021474563 -0.22625148
19126250000 0.059878521 0.050306324 1.1098593e-005 -2.7668189e-005 -0.00040572998 -0.0017832237 0.44705108 -0.54242265
19147500000 -0.057718888 -0.041376263 9.8724031e-006 -4.6785713e-006 9.5774667e-005 0.00028240186 0.10561103 -0.57936013
19168750000 -0.11448902 -0.10087083 -0.00010440972 -5.0047627e-005 -0.0028498431 -0.0017358635 0.15781908 -0.46548188
19190000000 -0.16117197 -0.18876798 -0.00010801128 -0.00012851157 -0.0021149551 0.0036946465 0.13371752 -0.48422256
19211250000 -0.10405623 -0.29182535 -4.0515228e-005 3.5387926e-005 0.00024045516 0.0015593659 0.1886542 -0.44793412
19232500000 0.13200696 -0.15891957 -1.8215484e-005 0.00013747677 0.00034146305 0.002883936 -0.096674301 -0.33869323
19253750000 -0.008928976 -0.10314872 5.0648174e-005 3.9258786e-005 0.0028430915 0.0014796819 0.29725024 -0.27747154
19275000000 0.043544047 -0.18744844 6.513721e-005 -7.3562778e-006 0.0023288361 -0.0018370978 0.17916562 -0.52152795
19296250000 -0.0026555092 -0.12998568 -1.527162e-005 7.8179228e-006 0.00015457024 -2.3215514e-006 0.024806796 -0.39751479
19317500000 -0.12909262 -0.22893341 -5.4948629e-005 -4.3819375e-005 0.00059372833 -0.0024102204 0.19869693 -0.36552954
19338750000 0.18817785 -0.29799536 -5.8333953e-005 -3.5089968e-007 -0.001325266 0.00077936897 -0.13078211 -0.53374803
19360000000 0.1749694 -0.20930259 -6.2395578e-005 -4.3257434e-005 0.00049957621 0.00073852384 -0.10786327 -0.20229112
19381250000 0.15702358 -0.23050307 -3.3524117e-005 6.1252016e-005 0.001057982 8.1717983e-005 0.15650131 -0.31099412
19402500000 0.20098765 -0.13958798 9.4813084e-005 -5.8355548e-005 0.0013439942 0.0013338253 -0.053552102 -0.37199908
19423750000 0.029283337 -0.16096178 -8.1371792e-005 5.5358632e-005 0.003372289 -0.0041676573 0.057537396 -0.47010934
19445000000 0.091188475 -0.16826151 5.7722904e-005 -1.1794409e-005 -0.0025846565 -0.0020874969 -0.21206297 -0.37227499
19466250000 0.25958541 -0.11578859 -0.00011103677 3.8500468e-005 0.00012020105 -0.00066516065 -0.078934953 -0.36736703
19487500000 0.19394827 -0.064232565 -0.00017597602 -4.177681e-005 -0.002986158 -0.0034243399 -0.27252802 -0.47045675
19508750000 0.22790262 -0.16437085 2.3397736e-006 2.9557439e-005 -0.0035102898 0.0044703232 -0.19686118 -0.087598071
19530000000 0.1569511 0.027610863 -0.0001031366 7.0713075e-005 0.001461939 -0.00078559289 0.11482845 -0.41599843
19551250000 0.060347714 -0.026383217 -6.6924011e-005 -9.1133283e-005 -0.0011179007 0.0017724494 -0.4352679 -0.71807414
19572500000 0.22092445 -0.039308991 -4.5861121e-005 -1.6591182e-005 0.0019727673 0.00038673592 -0.18297537 -0.23218222
19593750000 0.16286859 0.096534938 2.9296443e-005 -1.5588583e-005 -0.00068361056 -0.0033510185 -0.17691988 -0.62589723
19615000000 0.08514481 -0.01954479 8.4458574e-005 0.0001276822 -0.0024056134 0.0027270096 -0.34535232 -0.40900818
19636250000 0.11314283 0.052799627 8.9257548e-005 0.00013138588 -0.00021487776 -0.0019544244 -0.12637883 -0.3645111
19657500000 -0.09049242 0.10463105 9.246495e-005 -7.5463395e-005 -0.0032872441 0.0031372467 -0.18032598 -0.41504717
19678750000 0.0027307465 0.0083301794 0.00015201519 -2.2888112e-006 0.0017867401 0.004108659 -0.079235084 -0.73749053
19700000000 -0.0050097499 0.093622237 -9.7502198e-005 8.0793565e-005 0.002142685 -0.00057607156 -0.37534633 -0.50513482
19721250000 -0.02202953 0.06476026 6.0256163e-005 0.00010771651 0.0031603677 0.0011502285 -0.086154714 -0.33810189
19742500000 -0.13601562 -0.035582233 3.9184095e-005 -5.2816045e-005 -0.0003134452 -0.0030111817 -0.14791252 -0.69086707
19763750000 -0.16714044 0.028486909 -0.00011599001 -8.6902888e-005 0.0018238769 0.00066219701 -0.28771183 -0.34288877
19785000000 -0.21602194 0.062569462 -0.00012146208 8.6402491e-005 -0.0015293937 -0.0026946263 0.21487415 -0.29466525
19806250000 -0.078382343 -0.073381439 -3.6179332e-005 -0.00010401849 -0.0020836331 0.0019004713 0.011296229 -0.81280899
19827500000 -0.099271365 0.02648122 -2.913629e-005 -0.00013042479 0.0034100751 0.0012900222 -0.05517571 -0.35931087
19848750000 -0.21630454 -0.11896101 -4.0094383e-005 4.9914492e-005 -0.0011826915 -0.0011312513 0.058183607 -0.41476777
19870000000 -0.12986003 -0.12726717 -0.00018382557 4.0845393e-005 0.003992809 0.00025944796 -0.025939304 -0.4094604
19891250000 -0.2503933 -0.17387588 2.8208407e-005 -8.5024993e-005 -0.0010462748 -0.0039798976 0.13426508 -0.28528005
19912500000 -0.10443669 -0.3219721 -6.0084858e-005 -7.8617159e-006 -0.0013562827 -0.00099742273 0.11508027 -0.019110003
19933750000 -0.012370213 -0.14865676 -5.8129943e-005 6.3699321e-005 -0.0010586461 -0.0014603828 0.2628814 -0.47408757
19955000000 -0.11203312 -0.21399796 2.5301066e-005 -3.1332096e-005 -0.0053460868 -0.00013457125 -0.29373369 -0.35766041
19976250000 -0.15756997 -0.24529891 -6.4960535e-005 9.9713907e-005 0.0028527011 0.0045379978 0.056367677 0.028386002
19997500000 -0.18030471 -0.2292928 -3.507198e-006 -5.883248e-005 -0.0013953373 -0.0022205017 0.032697696 -0.15373746
20018750000 -0.06431599 -0.28354561 0.00021632515 -0.00023003825 0.00079282559 0.0028754293 -0.15049224 -0.0018367489
20040000000 0.16559948 -0.31381705 -8.3021361e-005 -4.6975794e-005 0.0024913696 -0.0019557716 0.043868545 0.23141676
20061250000 0.30591214 -0.08364027 3.1403593e-005 0.00016187392 -0.0034799229 -0.002615738 0.011439468 -0.26166436
20082500000 0.11288684 -0.053164057 2.9015886e-005 0.00012376862 -0.00094901118 0.003512687 -0.35028535 -0.20128676
20103750000 0.14807722 0.0078884289 -0.00024938054 -3.3005141e-005 -0.0016697211 -8.9829817e-005 -0.33986849 -0.088382848
20125000000 -0.12077546 0.052299034 0.00011183603 -4.3947417e-005 0.00062549068 0.004369352 -0.35643226 0.10628248
20146250000 0.060770463 -0.17590617 -0.0003555037 -0.00010618499 0.002429297 0.00053310499 -0.29409513 -0.27573308
20167500000 0.28589624 -0.072607093 -5.6436151e-005 0.00012420147 0.00094766257 0.00050655706 -0.7938785 -0.15686072
20188750000 0.2190939 0.01804233 1.6593674e-005 7.260764e-005 0.0035436987 -0.0001193457 -0.046999276 -0.12076817
20210000000 0.22835803 0.11073218 -3.0165402e-006 -9.0087029e-005 -0.00069315318 -0.0045955712 -0.57598895 -0.836824
20231250000 0.033126861 0.37147808 -1.0717358e-005 -3.258721e-005 -0.00099744403 0.0019027947 -0.75553691 -0.15396911
20252500000 -0.11766852 0.19197027 -6.224947e-005 0.0001328066 -0.00017196385 -0.0018022256 -0.44917926 -0.43347609
20273750000 0.038822562 0.12559254 -3.1560481e-005 9.1006557e-005 -0.0011628411 0.0024171895 -0.40487275 -0.38005292
20295000000 0.085273154 0.21909446 -0.00013732274 -2.6229103e-005 0.002772416 9.08601e-005 -0.44074902 -0.4723058
20316250000 0.032387082 0.18911368 9.2835078e-005 6.2592459e-005 0.00061069062 -0.00036203355 -0.17900696 -0.5625813
20337500000 -0.11075826 0.25957504 -0.00010406109 -0.00010826291 0.0021401055 -0.0029060042 -0.068938322 -0.79881436
20358750000 -0.31370357 0.36402696 8.097582e-005 0.00016021066 -0.0027766917 -0.0020050041 -0.56609023 -0.69142145
20380000000 -0.33853617 0.093779542 0.00020697466 0.00010092329 7.7865276e-005 -0.0004855092 -0.30399552 -0.36426187
20401250000 -0.16415477 0.088475153 -5.0652532e-005 7.1851769e-005 -0.0034711706 -0.0017641693 0.29268718 -0.67330241
20422500000 -0.24990188 0.05560527 8.3236657e-005 4.7732672e-005 -0.00094767613 0.0038458458 -0.18949006 -0.6275633
20443750000 -0.14178132 0.036504496 0.00013424439 -9.3503149e-005 0.0010161453 -0.00047364796 0.15974146 -0.20044976
20465000000 -0.26830205 0.21793564 2.0164476e-005 -6.8169873e-005 0.0004699562 0.0018107173 0.38865837 -0.81757635
20486250000 -0.39187053 0.06554538 -0.00022461699 -1.1796939e-005 0.00082038157 -0.002019736 -0.3019937 -0.32098585
20507500000 -0.1941528 -0.033314604 -2.0451262e-005 -3.2065473e-005 -0.0014371366 5.9151716e-005 0.23369132 -0.099875346
20528750000 -0.15273358 -0.11143188 -2.0726751e-005 -7.6781274e-005 -0.00045696949 0.00014554204 0.21969767 -0.15217881
20550000000 -0.10094584 -0.29264992 7.8927798e-005 0.00010815756 -0.0016538043 -0.00014184974 0.20346229 -0.041185983
20571250000 -0.087593347 -0.15318513 0.00018004129 8.2732236e-005 -0.00057807472 0.0038894897 -0.0064120931 0.052243348
20592500000 -0.11483439 -0.10035615 0.00020024671 -0.00013943233 0.0022388231 0.00021875165 0.36083248 0.22742501
20613750000 -0.08541932 -0.18789786 -0.0001258851 0.00015407712 0.00081057416 0.0016870121 -0.23789383 -0.15831551
20635000000 0.25626081 -0.26712486 -2.7315087e-005 7.9409954e-005 0.0031189418 -0.0018779784 -0.41302061 0.58201951
20656250000 0.10616826 -0.26170185 -2.8206468e-005 2.5240748e-005 0.00024593488 -0.00052001164 0.21340021 0.48301646
20677500000 0.20729357 -0.35907549 -3.8717651e-005 8.8058812e-005 -0.00049955887 -0.0027333666 -0.30393541 0.040173292
20698750000 0.26014075 -0.088589191 -0.00015107027 9.5730516e-005 -0.0018104551 0.0024277726 -0.55726159 0.49789146
20720000000 0.11847248 -0.13925262 2.6441556e-005 -3.593682e-005 0.0011270323 -0.00066800846 -0.29927969 0.30600414
20741250000 0.36076984 -0.10820221 -0.0002098191 0.00014684965 -0.00014071514 0.0013678303 -0.80260456 0.25112399
20762500000 0.36186036 -0.032657061 3.4082695e-005 -1.1831313e-005 0.0031477178 -9.8998054e-005 -0.69868362 0.29335013
20783750000 0.25326031 -0.075647078 -6.8755944e-005 -7.6556811e-005 -0.0014366639 -0.0025073176 -0.49983442 0.33643347
20805000000 0.41634223 0.060705487 -0.00023083124 2.9240004e-005 0.0020811809 -0.00025463017 -0.44255534 -0.062605202
20826250000 0.26362151 0.23486491 -0.00014416483 -0.00026893037 -0.0030166339 -0.0039077206 -0.91003138 -0.22935852
20847500000 0.20996663 0.099172242 3.9675895e-005 5.5753503e-006 -0.0022194693 0.0019312343 -0.59575701 -0.038286857
20868750000 0.27994397 0.1652339 5.2069896e-005 -1.4199327e-005 -0.00061905332 -9.6672491e-005 -0.45607966 -0.75269991
20890000000 0.16677475 0.193142 8.1792918e-005 9.3074832e-006 -0.0023952716 0.0026229424 -1.0473913 -0.35685381
20911250000 0.22112483 0.10513232 0.00024556177 -1.7286566e-005 0.003919885 0.0011908389 -0.39088202 -0.20561646
20932500000 0.19532567 0.29897133 0.00014743111 -2.0956551e-005 -0.0020199148 -0.0020202079 -0.46494043 -0.7495175
20953750000 -0.052241366 0.35045913 6.8805981e-005 -1.503965e-005 0.0017118246 0.0018431962 -0.42646849 -0.62209874
20975000000 0.15530713 0.044301234 3.4048589e-005 0.00012524697 -0.0014241767 -0.0036574847 -0.19289286 -0.55840248
20996250000 0.052301288 0.11056533 -0.00022297988 -4.8919032e-005 -0.0033099572 0.0038356879 -0.16327351 -0.57277846
21017500000 -0.11865968 -0.021126177 0.00015597352 -0.0001245504 0.001757962 -0.00019727281 -0.13798483 -0.71004969
21038750000 -0.020105138 0.046710487 0.00019678214 -6.3403197e-005 -0.0027652686 0.0037677817 -0.20341277 0.15671691
21060000000 -0.21714777 0.15502524 -0.00018230581 -5.2901483e-005 0.0055540209 0.0012296858 0.58388281 -0.30748892
21081250000 -0.22842109 -0.035868727 -0.00010305804 -0.00011962861 -0.00042992359 -0.0011956074 0.078208126 -0.59692276
21102500000 -0.085217409 -0.068558775 -0.00016199696 -6.857785e-005 0.0028785593 -0.00027962954 0.11679443 0.02757637
21123750000 -0.11858233 -0.14676133 0.00010305277 -5.3146938e-005 -0.00065406889 -0.0034381861 0.44941467 -0.24299632
21145000000 -0.041293215 -0.36354735 0.00020072682 5.9807517e-005 -0.0025715956 0.0011883444 -0.066824019 -0.33591798
21166250000 0.064657569 -0.17062527 -4.9809107e-005 6.4156389e-005 0.0019094564 -0.00017964611 0.13973185 0.38138646
21187500000 -0.024058064 -0.19838893 -6.1738589e-005 -3.5920501e-005 -0.0018863474 0.00037799761 0.095789075 0.11643291
21208750000 0.040808748 -0.3834919 -9.8106684e-005 -3.1282475e-006 0.0021702338 0.0019650795 0.14928201 0.10201006
21230000000 0.055341639 -0.23091844 -7.7377859e-005 -0.00018239836 0.0032467227 -0.0025195256 -0.11852896 0.065681189
21251250000 -0.1166522 -0.45970023 7.699892e-005 9.9025943e-005 -0.0026322342 -0.0026603406 -0.021301502 0.52765173
21272500000 0.17934476 -0.39371413 -5.3303389e-005 0.00037061528 0.00091251294 0.00014861899 0.12722172 0.035056148
21293750000 0.25500667 -0.17360134 -0.00024698698 1.6867003e-005 -0.003300149 -0.0029332747 -0.72175765 0.36597982
21315000000 0.25970006 -0.29303268 1.7191636e-005 -0.00012803987 -0.0023801005 0.0033176227 -0.090056874 0.54052204
21336250000 0.3259128 -0.25580224 -8.2413979e-005 0.00023416708 0.0012912162 0.00018478312 -0.26003706 -0.01827753
21357500000 0.18893981 -0.20658404 -1.8197767e-005 -0.00011891993 -0.0010856666 0.001849112 -0.66191852 0.28778771
21378750000 0.088964403 -0.29045972 0.00014042735 0.00012296959 0.0024919522 -0.00030960693 -0.37482283 0.34672907
21400000000 0.29549763 -0.23921296 0.00018815533 -0.00022043136 -0.00073654053 -0.0015955652 -0.61206979 -0.086693093
21421250000 0.19623327 -0.10279772 -0.00021122569 2.378421e-005 -0.00053973531 0.0011727422 -0.73416007 0.11068442
21442500000 0.30745849 -0.20558912 -0.00014356441 -5.7478969e-006 -0.00040451132 -0.002484346 -0.60077524 0.15593612
21463750000 0.32867098 -0.010098294 0.00027772927 -0.00015992617 -0.0028645713 0.0045026597 -0.30032688 0.054902662
21485000000 0.067254923 -0.049768511 0.00013077426 0.00022908849 0.0030721638 0.00055494177 -0.62619191 -0.35462424
21506250000 0.18620789 -0.10644854 -2.4739329e-005 5.8198093e-005 0.00042020617 0.0020113508 -0.53018075 0.066180259
21527500000 0.063262403 0.066125326 -0.00016975397 3.1590309e-005 0.0033959174 -0.00068404683 0.053924792 -0.25282484
21548750000 0.015335 -0.085232802 -0.00018121916 7.9325138e-005 3.6398596e-005 -0.0012477631 -0.79458618 -0.51626992
21570000000 0.17651694 -0.070555329 -5.9930808e-005 8.7710061e-005 0.0014868777 -0.00092803867 -0.19445023 0.07597772
