!Keysight Technologies,N5242B,MY47200105,A.14.00.23
!Date: Friday, May 10, 2024 11:04:23
!Correction: S11(C  2-Port  ) 
!S21(C  2-Port  ) 
!S12(C  2-Port  ) 
!S22(C  2-Port  ) 
!S2P File: Measurement: :
# Hz S  RI   R 50
18000000000 0.13246879 -0.0213523 -1.5616497e-005 3.9531118e-005 0.0027154137 0.0060525737 0.88722855 -0.42501083
18021250000 0.063497476 -0.22320834 -2.4828845e-005 0.00016180743 -0.0013470232 -0.00093360891 0.31546152 -0.18887331
18042500000 0.22348812 -0.084218755 -5.0260765e-005 -0.00011620491 0.0030978895 0.0054172836 0.50274587 -0.043530103
18063750000 0.13965255 0.014987889 5.0856877e-005 -9.4422438e-005 0.0062078689 -0.0023992378 0.4153387 -0.18763314
18085000000 0.21126322 -0.050693259 -0.00015707492 1.9984171e-005 -0.0015561763 -0.0048213685 0.43134791 0.095743626
18106250000 0.33733201 0.0026564568 -6.2014578e-006 2.102132e-005 0.0031217723 -0.00030771946 0.48156166 -0.088967063
18127500000 0.20232557 -0.052602243 -5.5069551e-005 -0.00011623111 -0.0063871043 -0.0062253838 0.57493705 -0.2032804
18148750000 0.19708836 -0.044059038 6.602217e-005 0.00017361117 -0.00010929868 0.006110969 0.30520612 -0.36653131
18170000000 0.30172005 0.088744394 -4.6083667e-005 2.3130848e-005 0.0007048187 -0.0021718103 0.096726432 -0.11332086
18191250000 0.15371737 0.19336511 -1.1688803e-005 5.2561314e-005 -0.0010367031 0.0017403262 0.28268492 -0.078384712
18212500000 0.25244224 0.073530823 1.556562e-005 -6.6314024e-005 0.0041897744 -0.0003339028 0.1025999 -0.11865784
18233750000 0.15890481 0.14712162 0.00010294874 0.00010676456 -0.0020331405 -0.0047516245 0.32792333 -0.15065041
18255000000 0.027809324 0.05746172 3.5777342e-005 -5.5854365e-005 -0.0021770978 0.0010831476 0.43456748 -0.53745413
18276250000 0.14637251 0.010194077 -5.8999267e-005 9.7816912e-005 -0.0021494948 -0.0027396055 0.15469913 -0.46049583
18297500000 0.062732033 0.1561231 -1.4098598e-005 4.3089942e-005 -0.004714095 0.003997318 0.077713519 -0.46012557
18318750000 0.034437761 0.12599307 4.1918182e-005 1.6119444e-005 0.0018270502 0.0034029402 0.11684746 -0.33816329
18340000000 0.076435961 0.089902461 7.3392439e-005 -7.6105185e-005 -0.00011503776 0.0011527133 0.14291346 -0.23997304
18361250000 -0.12432563 0.10396373 5.8987804e-005 -2.5475003e-005 0.003027481 0.0031624499 0.3601869 -0.47905076
18382500000 -0.077409327 -0.022869123 -2.5546224e-005 -6.3821808e-006 0.0030083142 -0.0042788312 0.39469093 -0.40526095
18403750000 0.00040614826 -0.01654009 2.2660779e-005 8.3637926e-005 -0.0035429632 -0.00030947165 0.27970126 -0.67477131
18425000000 -0.035389721 0.021378065 6.0435386e-006 -8.6577429e-006 0.0018622349 0.0012937577 0.06724783 -0.56374317
18446250000 -0.023872066 -0.11823448 0.00010342206 -7.2608491e-005 -0.0039994773 -0.0018336744 0.50690347 -0.42071736
18467500000 0.012848038 0.010428374 -1.4956139e-005 -1.5155796e-005 0.0035860995 0.0074112937 0.26663455 -0.54987448
18488750000 -0.19829851 -0.031879023 0.00013169 -9.5160052e-005 0.0032649057 -0.004621909 0.36216584 -0.39361614
18510000000 -0.091162212 -0.14861795 -6.8671223e-005 -2.603867e-005 0.00036782539 0.0026757657 0.50651431 -0.55071086
18531250000 -0.036047012 -0.011926378 6.7362293e-005 1.5909469e-005 0.005404212 -0.0043182261 0.37986347 -0.54671472
18552500000 -0.053669553 -0.19201584 1.7584094e-005 -6.6868961e-005 -0.005065714 -0.005423462 0.287947 -0.5344944
18573750000 0.080656916 -0.18375032 -5.1682018e-005 9.4394709e-005 -7.7327095e-006 0.0041312734 0.15978457 -0.19514099
18595000000 0.084131271 -0.074738353 2.5182851e-006 8.677e-005 -0.0011850804 -0.006395509 0.44079965 -0.11130848
18616250000 0.044254154 -0.14263166 5.8921025e-005 -3.042615e-005 -0.0035729473 0.0061387536 0.3843309 -0.46969447
18637500000 0.16512784 -0.10049325 -3.7854636e-005 -2.642626e-005 0.004118464 -0.0012488908 0.26933628 -0.15757856
18658750000 0.076775648 -0.065657713 -5.4431315e-005 8.7035056e-005 -0.0023783587 -0.00072235178 0.50146073 -0.49511641
18680000000 0.089381859 -0.19661787 4.0835392e-005 -1.5912274e-005 0.0022557273 0.00076508854 -0.029759429 -0.44337451
18701250000 0.24115983 -0.090555191 -4.2617525e-005 3.7649941e-005 -0.0021260097 -0.0056775487 0.2379175 -0.10378312
18722500000 0.1427415 -0.05888354 -1.335918e-005 2.4942878e-005 -0.0046290089 0.0041770018 0.17865302 -0.29261991
18743750000 0.22999686 -0.1540892 -6.0622882e-005 5.0585724e-005 0.0010669283 0.00011764628 0.16097286 -0.25088468
18765000000 0.21615815 0.078933083 7.6622237e-005 2.5791401e-006 -0.0039525428 0.0019548524 0.1910591 -0.35446358
18786250000 0.088509493 -0.019603353 -4.2852647e-005 -0.00015808512 0.0027777613 0.0069851764 0.05439432 -0.33863562
18807500000 0.23663984 -0.094949536 -2.2137303e-005 -1.4557575e-005 0.0051632202 -0.0037477231 0.033053655 -0.42763889
18828750000 0.13155659 -0.051476769 2.740166e-005 -5.4547581e-005 -0.0038033635 0.0011160217 -0.023862729 -0.45759189
18850000000 0.15141086 -0.049053479 2.9162034e-006 -5.1263229e-005 0.007180057 5.6521832e-005 0.10563276 -0.10935159
18871250000 0.23856232 0.097401775 9.7916454e-005 -7.459172e-005 -0.0067532007 -0.0040658847 0.12634523 -0.59173322
18892500000 0.14095226 0.23652218 -4.568489e-005 -5.6380388e-005 0.0029250081 0.0060765003 0.045716081 -0.42899272
18913750000 0.11511998 0.032682944 -1.1246695e-005 0.00011306437 0.0004863677 -0.0043193479 0.2026819 -0.61249048
18935000000 0.080399632 0.00015798204 0.00010116414 2.6254564e-005 -0.00067628908 0.0049029659 -0.076003917 -0.68063658
18956250000 -0.040527329 -0.0099296784 -1.8501323e-005 -0.00010462169 0.0068410248 -0.0025666757 -0.015077461 -0.50296968
18977500000 0.019918498 -0.062727876 4.7726789e-005 -9.7113552e-006 -0.0028272665 -0.0039122738 0.1282537 -0.41531134
18998750000 0.0633661 0.17429148 -9.9032724e-005 -8.4528881e-007 0.0015342442 0.00076941994 0.25317419 -0.53080714
19020000000 -0.042176735 0.13844635 -0.00016435224 -1.7815621e-005 -0.0020404153 -0.0059806067 0.13224041 -0.59879398
19041250000 -0.10867984 0.0034612645 -3.0519423e-005 -2.7050517e-005 -0.0039515891 0.0026263956 -0.0072969468 -0.49013951
19062500000 -0.11443757 0.072259031 -5.8062917e-005 -1.0938083e-005 6.0286671e-005 0.00091584621 0.2898792 -0.61858445
19083750000 -0.08288914 -0.17699514 -0.0001208813 -5.1585983e-005 -0.00081132154 -0.00023194568 -0.039398126 -0.61346942
19105000000 0.076059096 -0.048296448 0.00012335822 -0.00010814265 0.00018002339 0.002978157 0.026127793 -0.22155786
19126250000 0.058752093 0.046549685 0.00015082692 -5.7717003e-005 0.0021685562 -0.0039313887 0.46561682 -0.56158739
19147500000 -0.066820428 -0.047964286 9.4427713e-005 -1.5693149e-006 -0.0039131809 0.001056168 0.10726767 -0.5913114
19168750000 -0.13593765 -0.11014725 -3.2124797e-005 6.0682698e-005 0.0012554992 -0.00037988159 0.16181865 -0.47139302
19190000000 -0.17127109 -0.19792868 1.3529582e-005 3.4044639e-005 -0.0047007562 -0.00018911474 0.14289376 -0.48382378
19211250000 -0.11842436 -0.29302868 8.2564686e-005 1.6805807e-005 0.0005027944 0.0065009296 0.20397706 -0.45395872
19232500000 0.1341785 -0.16120952 -2.9037918e-005 2.8305782e-005 0.0029735828 -0.0018066335 -0.099676102 -0.3360455
19253750000 -0.0060259248 -0.11523797 -6.9498434e-005 8.1144302e-005 -0.0021310125 0.0046940064 0.31859183 -0.27213258
19275000000 0.042734284 -0.19927038 -5.4294251e-005 1.9293093e-006 0.007876277 -0.0018435377 0.18907799 -0.52803105
19296250000 -0.0030753089 -0.14313069 -1.6039527e-005 2.6230597e-005 -0.0045941523 -0.0029737062 0.027687868 -0.39508945
19317500000 -0.13440505 -0.23530723 2.3453405e-005 -2.6453283e-005 0.0032030561 0.0025019252 0.2100901 -0.35726199
19338750000 0.19575949 -0.29393694 9.4937306e-005 -1.050401e-005 -0.0010446542 -0.0042860094 -0.12663485 -0.53324193
19360000000 0.18936576 -0.21115652 -0.00022403311 3.8821854e-005 -0.0028592211 0.0042638751 -0.10768316 -0.19506171
19381250000 0.17251851 -0.23248149 -4.8846741e-005 -0.00013978127 0.0058384426 -0.00079423439 0.16455333 -0.30615023
19402500000 0.20335764 -0.14117248 -4.7772868e-005 4.7602407e-005 -0.0029635723 -0.00042904116 -0.053128872 -0.37001535
19423750000 0.037417307 -0.16438067 2.4118575e-005 -1.3410651e-005 0.0054610139 -0.00020802293 0.058952041 -0.47517949
19445000000 0.10214761 -0.16254498 4.7308822e-005 -7.7203302e-005 -0.0014296761 -0.0067236857 -0.22249085 -0.36505133
19466250000 0.26962116 -0.12162023 7.9267775e-005 9.1904312e-006 -0.003567477 0.0028500161 -0.072295405 -0.36447266
19487500000 0.20104875 -0.063161552 2.8340039e-005 0.00011095842 0.0022762464 -0.0043874537 -0.27573511 -0.47758132
19508750000 0.22505517 -0.16517217 -8.2382849e-006 -3.160242e-005 -0.008066589 0.0021030416 -0.19891958 -0.080146194
19530000000 0.14864519 0.0321813 1.4134742e-005 -3.9704732e-006 0.0033459216 0.0037757712 0.12474442 -0.42315313
19551250000 0.058233351 -0.014148954 5.4085747e-005 -1.6543128e-005 0.00068159931 -0.0032875633 -0.44786602 -0.73362738
19572500000 0.22371027 -0.029681234 -0.00011833191 5.2353713e-005 -0.0032353825 0.0042118435 -0.18299186 -0.22826104
19593750000 0.16732565 0.10306612 0.00011229914 -0.0001358742 0.0062620542 -0.0039816359 -0.17652638 -0.63167125
19615000000 0.091996126 -0.016949732 9.4947558e-005 0.00012067781 -0.0083665308 -0.001123375 -0.34277099 -0.41152313
19636250000 0.10767112 0.047324207 6.0467009e-005 -9.7199132e-005 0.0028429674 0.0051588253 -0.12691908 -0.36534378
19657500000 -0.10194869 0.096894495 4.0022518e-005 -8.0713698e-006 -0.002119553 -0.0053942143 -0.17673333 -0.40991732
19678750000 -0.00086759025 0.013017004 5.5367425e-005 -6.3023996e-005 -0.0033115759 0.010793491 -0.06929709 -0.74643618
19700000000 -0.0090698553 0.089765832 2.014824e-005 0.00012893572 0.0097902743 -0.003572131 -0.3817642 -0.50370854
19721250000 -0.0094488403 0.064523131 0.00019061127 0.00015996328 -0.005527948 -0.00030268019 -0.073729038 -0.32767844
19742500000 -0.14257339 -0.037581913 -4.8332255e-005 -6.8384448e-005 0.0065608444 0.0029613557 -0.14252028 -0.69950205
19763750000 -0.16639471 0.018780902 0.0001764285 -7.8823577e-005 -0.0014563145 -0.0081412466 -0.29025334 -0.3377766
19785000000 -0.21382616 0.064469226 -6.4263411e-005 1.7568851e-005 -0.0022952417 0.006119193 0.22605877 -0.28628916
19806250000 -0.075938821 -0.080611818 -7.1824383e-005 3.88874e-005 0.0029061853 -0.003398895 0.016444594 -0.82396281
19827500000 -0.087270789 0.019806586 -2.0473681e-005 1.3411754e-005 -0.0037786486 0.0026512863 -0.056452211 -0.35516128
19848750000 -0.21599312 -0.11894657 -0.00017771547 5.3101536e-005 0.0051976042 0.0013551438 0.063264348 -0.41148281
19870000000 -0.13693805 -0.12836322 -7.0712384e-005 0.00011816542 -0.00010169967 -0.0052291569 -0.02270985 -0.41159463
19891250000 -0.25614345 -0.17246418 6.869933e-005 5.5019082e-005 -0.00064276962 0.0020276224 0.13647327 -0.29449174
19912500000 -0.10002728 -0.31067899 -0.00012941715 4.3717035e-005 0.0025592626 -0.0060243537 0.10994108 -0.011067674
19933750000 -0.0068270601 -0.14193617 4.9692808e-005 6.00965e-005 -0.0066150203 -0.0001969872 0.26600456 -0.48555753
19955000000 -0.097381428 -0.21050113 0.00019061138 -4.0783638e-005 0.00011386671 0.0023481497 -0.3090114 -0.37137601
19976250000 -0.16171221 -0.23800494 -1.1799052e-005 -4.1148065e-005 -0.00028584606 -0.00057085045 0.057736229 0.028599381
19997500000 -0.19102159 -0.23123364 4.1328989e-005 0.00012090277 -0.0023155082 0.0036788252 0.034594215 -0.16248907
20018750000 -0.072378531 -0.27025378 -0.00014577912 -3.6446654e-005 0.0053325943 -0.0016320891 -0.14909428 -0.010972044
20040000000 0.15260331 -0.30771878 -0.00011627708 -0.00021242656 -0.004489162 -0.00077865692 0.045627151 0.22871706
20061250000 0.30386221 -0.074467093 -0.00013762501 -0.00012107072 0.0031970744 0.00019690479 0.020672973 -0.27224532
20082500000 0.099129587 -0.043790564 8.8229663e-006 2.3163502e-005 -0.0054138037 -0.0028114533 -0.34435558 -0.214966
20103750000 0.1346118 0.010743927 5.0391944e-005 3.1080166e-005 -0.00086681673 0.0068338579 -0.33166903 -0.094983026
20125000000 -0.13823545 0.052082699 5.6743938e-005 -0.00015802626 0.0038347286 -0.0019329715 -0.34359235 0.10720392
20146250000 0.053325821 -0.18129371 1.6179694e-005 -4.2164611e-005 -0.003813108 0.0033358124 -0.27609703 -0.29118302
20167500000 0.27834037 -0.081345737 0.00016147284 -7.7517943e-005 0.0086095221 0.0022115896 -0.80137718 -0.15951847
20188750000 0.21887846 0.0055740234 -3.3464185e-005 -0.00021488633 -0.0018026221 -0.0041949321 -0.019168047 -0.11554724
20210000000 0.22009549 0.097698934 -9.2645685e-005 0.00014739766 0.00069075485 0.0018024029 -0.56784868 -0.84769303
20231250000 0.010193023 0.35128242 -8.045022e-005 -1.1601634e-005 0.0012877503 -0.0044738967 -0.74898785 -0.13996743
20252500000 -0.1249732 0.17780745 -5.5877983e-005 1.2207807e-005 -0.0051144236 0.0025412492 -0.43978852 -0.43221134
20273750000 0.035686925 0.11641507 4.2109568e-005 2.0674694e-005 0.0045765485 0.0011718888 -0.39079547 -0.37370896
20295000000 0.095143586 0.19764799 0.00010708458 0.00013145262 -0.001797874 -0.0015541326 -0.45074376 -0.47087824
20316250000 0.039433233 0.1771546 6.7716763e-005 2.3868137e-005 0.0026170108 0.0030843713 -0.1751032 -0.54973775
20337500000 -0.11913911 0.24070385 1.4331689e-005 -4.9674261e-005 0.0037489336 -0.0065784641 -0.065754414 -0.7950961
20358750000 -0.30806756 0.35229513 0.00018006713 1.3071611e-005 -0.0061298623 0.00024435454 -0.58640808 -0.68576115
20380000000 -0.33281216 0.084776655 6.7925765e-005 -1.4496941e-005 0.0035501111 -0.00051567605 -0.31375837 -0.34782061
20401250000 -0.15166827 0.082518958 -6.5310196e-005 5.6767716e-005 -0.005609347 -0.0040259617 0.29776853 -0.6742245
20422500000 -0.23010331 0.054798823 -9.4094488e-005 5.4875174e-005 -0.001650426 0.0073414021 -0.20785496 -0.63268226
20443750000 -0.1300136 0.04516295 -0.00010065758 -4.8491162e-005 0.0040352312 -0.0037623658 0.14984274 -0.18956055
20465000000 -0.26113027 0.22581828 -4.2998519e-005 0.00014426923 -0.0044461377 0.0026575902 0.39155692 -0.83498567
20486250000 -0.37852702 0.07995747 0.00024315807 2.54148e-005 0.0054699527 -0.00028800801 -0.32571578 -0.3297857
20507500000 -0.1828125 -0.015520295 -6.1783277e-005 -1.3216455e-005 -0.004084229 -0.004486178 0.2303399 -0.10786393
20528750000 -0.13884559 -0.10867956 9.6429438e-005 0.00014928463 -0.00073523883 0.0061123441 0.21845797 -0.16768825
20550000000 -0.097278111 -0.28333503 -6.2647996e-005 -2.5446723e-005 0.00071888248 -0.0054938341 0.19686155 -0.061226189
20571250000 -0.11158317 -0.14251269 0.0001395609 -9.7757838e-005 -0.0050218385 0.0071958997 -0.016995177 0.037919365
20592500000 -0.12429456 -0.08984258 8.366297e-005 -7.4553645e-005 0.0072418717 0.00044737759 0.37114099 0.22169903
20613750000 -0.10187699 -0.17382447 4.2894211e-005 0.00012611314 -0.0033175694 -0.0014441699 -0.23882441 -0.18644747
20635000000 0.25121906 -0.26397529 -0.00017863623 -4.6712481e-005 0.0054253028 0.003140907 -0.41094843 0.58196771
20656250000 0.089150891 -0.25296098 7.6510238e-005 0.0001680596 0.00090567308 -0.0056254268 0.24366271 0.47379428
20677500000 0.18411313 -0.34823453 3.2647891e-005 1.336152e-005 -0.0029736846 0.00042130475 -0.29226711 0.016181704
20698750000 0.23906387 -0.084902152 1.718117e-005 0.00010550906 0.0018765416 0.0013705563 -0.54400021 0.49626252
20720000000 0.0988819 -0.14351653 8.116565e-005 -7.7833836e-005 -0.0018228063 -0.0021708854 -0.27494365 0.30396104
20741250000 0.34099725 -0.10526436 -1.7676935e-005 -5.4702319e-005 0.0010489994 0.0046351315 -0.78410167 0.23954673
20762500000 0.34785709 -0.038089678 7.7646255e-005 5.8620277e-005 0.0046825386 -0.0036698917 -0.68560642 0.29782981
20783750000 0.2391824 -0.076047257 -6.3401778e-005 3.8979961e-005 -0.0042192545 -0.00042087701 -0.47538793 0.35260853
20805000000 0.40273327 0.055143356 -0.00010481293 6.1697559e-005 0.005381274 -6.9264802e-006 -0.41807467 -0.059374318
20826250000 0.257678 0.22613791 1.8175386e-005 0.00011010649 -0.0054376144 -0.0066323145 -0.91239482 -0.21764061
20847500000 0.21327554 0.084978208 6.7185458e-005 4.5838628e-006 -0.0019438564 0.0058566104 -0.58943021 -0.012412125
20868750000 0.2850728 0.1386781 0.00015129082 2.5628618e-005 0.0010342591 -0.0042303652 -0.43330815 -0.74089086
20890000000 0.17808588 0.17169657 -6.1796665e-005 -7.5415024e-005 -0.0054094456 0.0045148772 -1.0674424 -0.33486146
20911250000 0.22901678 0.094875343 0.00014265218 -3.0153449e-005 0.0066412077 0.0018207893 -0.38651809 -0.18278131
20932500000 0.20896764 0.28481385 0.00029262804 8.2660714e-005 -0.0040490953 -0.0051207654 -0.47683528 -0.74877542
20953750000 -0.033778854 0.34316337 5.4918572e-005 -0.00024943805 0.0021611445 0.0054353462 -0.4484129 -0.62171811
20975000000 0.1843354 0.027954441 2.9622319e-005 -2.9028704e-005 -0.00037059322 -0.0064724153 -0.21728331 -0.5532093
20996250000 0.078310855 0.097777598 -8.4620937e-005 -0.00013239105 -0.0055134394 0.004557902 -0.17717052 -0.56296116
21017500000 -0.10564841 -0.021716191 0.00013987168 4.4513708e-005 0.0042290515 0.0016429597 -0.15883733 -0.7282052
21038750000 -0.016726311 0.051942255 3.0752144e-005 0.00020920091 -0.0044641579 0.00086803379 -0.22867353 0.17282204
21060000000 -0.20932654 0.16285418 1.1321094e-005 -3.6279565e-005 0.0051700473 0.0045773587 0.58724791 -0.32212576
21081250000 -0.21693483 -0.029583843 0.00010114205 -0.00023031511 0.0015835811 -0.0032506848 0.05646912 -0.62875128
21102500000 -0.080308296 -0.067922793 -3.0148201e-005 0.00019662853 0.000218143 -0.00032795296 0.10184254 0.018465204
21123750000 -0.11153812 -0.13307619 0.00020031939 4.1654521e-006 0.0015119641 -0.0012918081 0.44888821 -0.27173156
21145000000 -0.055369757 -0.34589013 -0.00014844204 -0.0001568431 -0.0027268247 -0.0021124051 -0.079936191 -0.3770386
21166250000 0.047616608 -0.15477015 7.9826663e-005 -0.00026166125 -7.6630451e-005 0.0029190527 0.1297126 0.37204477
21187500000 -0.038071234 -0.17762299 -3.9945484e-005 -0.00012190391 0.0023182738 -0.00079158135 0.096019007 0.098578043
21208750000 0.021862805 -0.38082549 -5.087717e-005 -4.9247694e-005 -0.0029982349 0.00022527631 0.15779033 0.079585634
21230000000 0.041971467 -0.22330999 6.8332018e-005 -3.0524083e-005 0.0072696488 0.0015064176 -0.11690515 0.042967431
21251250000 -0.14497337 -0.44674933 2.8588498e-005 -4.7249508e-005 -0.003765807 -0.0083245989 -0.0038562645 0.53274876
21272500000 0.15521885 -0.37945485 0.00012260101 -0.00019661707 -0.0017008204 0.0058119651 0.1592733 0.013384884
21293750000 0.24164018 -0.16143051 0.00017200461 0.00015649106 0.0020667643 -0.0077792602 -0.71778691 0.36451975
21315000000 0.24829811 -0.294296 2.7997999e-005 -5.3895892e-005 -0.0087665999 0.0045730686 -0.062541895 0.54262459
21336250000 0.3210361 -0.2774519 2.9965029e-005 8.5319822e-005 0.0076121562 0.0024056095 -0.23939203 -0.03343365
21357500000 0.19283076 -0.22011992 -4.5651348e-005 3.4337922e-005 -0.0052420855 -0.0030447794 -0.65585393 0.29397804
21378750000 0.072247431 -0.30295011 -0.00011718379 -5.9630169e-005 0.0033018822 0.0056048078 -0.36174116 0.36214676
21400000000 0.29546797 -0.25853086 -0.00014377113 -0.00012040685 0.0017083122 -0.0065331231 -0.60156381 -0.080545142
21421250000 0.19611481 -0.1053878 6.9736365e-005 -8.3945459e-005 -0.0057175718 0.0033818332 -0.73270255 0.12680395
21442500000 0.30900946 -0.231465 -0.00011954294 5.3635984e-005 0.0042677149 -0.0013559518 -0.5977487 0.18090628
21463750000 0.34873942 -0.030697756 -1.3944978e-005 7.2958457e-005 -0.0059435489 0.00039944606 -0.28703174 0.071302287
21485000000 0.077596925 -0.0548588 5.1632145e-005 0.0002229431 0.0026833354 0.0056728525 -0.64034957 -0.34637347
21506250000 0.1994873 -0.12011433 3.3381915e-005 -4.7911377e-005 0.0036198902 -0.0019176997 -0.53548825 0.087969288
21527500000 0.084625185 0.063746981 -0.00018748771 -3.3275886e-005 -0.0028396072 0.00046101416 0.063277625 -0.2440532
21548750000 0.032982033 -0.085915685 -9.2812217e-005 7.9825455e-005 0.0058413353 0.00069662021 -0.82878888 -0.52185506
21570000000 0.19795693 -0.080376856 -7.7251767e-005 -5.3058193e-006 -0.0011445896 -0.0051469589 -0.20494694 0.087798804
