!Keysight Technologies,N5242B,MY47200105,A.14.00.23
!Date: Friday, May 10, 2024 11:16:59
!Correction: S11(C  2-Port  ) 
!S21(C  2-Port  ) 
!S12(C  2-Port  ) 
!S22(C  2-Port  ) 
!S2P File: Measurement: :
# Hz S  RI   R 50
18000000000 0.14435075 -0.029265519 9.1440336e-007 -9.735905e-005 -0.0020806324 0.0053178989 0.87394947 -0.4223139
18021250000 0.067576043 -0.21100134 -3.6433608e-005 -9.5465975e-007 0.0020473625 0.0022164532 0.32066873 -0.19526887
18042500000 0.22842006 -0.095054403 5.9775004e-005 -0.00012741794 0.0018178071 0.0011085377 0.49729568 -0.054971304
18063750000 0.15432495 0.020071391 2.8142964e-007 8.0111687e-007 0.0051614936 0.0010333598 0.40856823 -0.19126487
18085000000 0.20801556 -0.050921243 3.7621587e-005 -9.3822578e-005 0.0016965581 -0.0064178556 0.42479652 0.089995377
18106250000 0.33673161 -0.009564382 -8.8380628e-005 4.5229928e-005 -0.00089503627 -0.0011865157 0.4790974 -0.091576748
18127500000 0.20390989 -0.042005818 0.00011496907 -2.2346929e-005 -0.0034183371 -0.003182841 0.56574005 -0.20889772
18148750000 0.19574401 -0.042460445 -2.4714887e-005 7.2496478e-005 -0.00065613916 0.0021344833 0.30359748 -0.3659699
18170000000 0.30143395 0.084247239 -0.00012826614 -4.7310299e-005 -0.0012465569 0.0014941249 0.098842993 -0.12844686
18191250000 0.15342034 0.19559781 1.44714e-005 1.9769475e-005 0.0032024642 -0.00025497799 0.27163151 -0.091288298
18212500000 0.23835135 0.068667866 -1.3669272e-005 -4.6184414e-005 -0.00082002516 -0.00090779824 0.099436827 -0.12639697
18233750000 0.16347446 0.1447292 -3.615344e-005 -9.7850505e-005 0.0021215286 -0.0018292773 0.32452071 -0.15514833
18255000000 0.025928756 0.066676565 7.2444709e-005 -1.9599735e-005 -0.0040698806 -0.0034557469 0.42833221 -0.54322237
18276250000 0.13874917 0.0081322202 3.7566278e-005 -8.7499306e-005 -0.0031049878 0.0020358663 0.15138814 -0.46536419
18297500000 0.06542635 0.15606411 3.979513e-005 -4.6337932e-006 -0.0013597754 0.00052881445 0.077940181 -0.46433866
18318750000 0.018799357 0.12376342 -1.0288933e-005 -6.7496811e-005 -0.0026115642 0.0043893917 0.11602297 -0.3459731
18340000000 0.066850506 0.082259655 0.0001029268 3.1593961e-005 0.0042465306 0.0028318253 0.14143759 -0.24741605
18361250000 -0.12203435 0.10684932 2.5174129e-005 3.026519e-007 0.00040645179 -0.00060419552 0.36223111 -0.47513089
18382500000 -0.084170498 -0.024640007 9.934568e-006 5.0517236e-005 0.0030644278 0.00044200374 0.39795098 -0.41491923
18403750000 0.0071628988 -0.022537323 0.00017778235 4.458108e-005 -0.00079919049 -0.0037335495 0.28183249 -0.67446887
18425000000 -0.033483788 0.014325717 3.0252961e-005 7.1461225e-005 -0.001887933 0.0023574294 0.074234009 -0.56328338
18446250000 -0.027388923 -0.12819411 7.2735682e-005 -0.00020519832 -8.9604138e-005 -0.00021369581 0.49912637 -0.4244431
18467500000 0.02254794 -0.0027301251 -0.00016023879 1.6898837e-005 0.001289768 0.0038549642 0.264456 -0.54736477
18488750000 -0.19045313 -0.035587151 7.8573888e-005 5.5834553e-005 0.0032575775 -0.00063549756 0.3567068 -0.38808897
18510000000 -0.085653424 -0.16056412 -0.00012729586 3.6248526e-005 0.0027850666 -0.00065749942 0.50583386 -0.54140049
18531250000 -0.025265822 -0.023418233 -5.732444e-005 4.9602539e-005 0.0016981061 -0.0031324741 0.37631857 -0.54357237
18552500000 -0.062810883 -0.19152543 0.00011777889 -4.2752523e-005 -0.0015127935 -0.0040523424 0.28428686 -0.52769363
18573750000 0.08250504 -0.1924424 -2.8980417e-005 -7.4610536e-005 -0.0022691842 0.00047450565 0.15900514 -0.19888316
18595000000 0.090408295 -0.068748005 -7.3431205e-005 -3.0589599e-005 -0.0015895719 -0.0018066315 0.42889455 -0.11639161
18616250000 0.04931777 -0.13909544 -9.4468036e-005 1.9468012e-005 -0.0013262596 0.0020649778 0.37656045 -0.46277574
18637500000 0.17461018 -0.10481178 -9.554534e-007 -1.4070906e-005 3.6053239e-005 0.00074153556 0.26423568 -0.16527504
18658750000 0.082000643 -0.064416312 -7.058763e-005 -0.00015377678 0.0019343131 -0.00028394497 0.48578879 -0.49382854
18680000000 0.085439503 -0.20374586 6.6142908e-005 -5.4534696e-005 -0.00074217905 -0.0019442618 -0.03280437 -0.44726098
18701250000 0.24048556 -0.091137379 -4.4293978e-005 -8.713585e-005 -0.0012873196 -0.0018041264 0.22345866 -0.11260981
18722500000 0.14583933 -0.050133891 -3.5790217e-005 3.6559457e-005 -0.0033706191 0.00056559249 0.16661622 -0.29814681
18743750000 0.22644688 -0.14853345 -2.9339408e-005 -3.6572575e-005 -0.0014840094 0.0021770624 0.15112601 -0.25379506
18765000000 0.21783219 0.08232598 3.8173985e-005 -6.5460459e-005 -0.0011706407 0.0021360272 0.18626554 -0.35709095
18786250000 0.079623565 -0.010903104 0.00012886539 0.0002145692 0.0012859164 0.0048451489 0.05464451 -0.34819946
18807500000 0.22759053 -0.092934005 -7.8451449e-005 4.3607153e-005 0.0048772902 -0.0010045227 0.031909514 -0.43383276
18828750000 0.13867563 -0.039318051 -6.5267909e-007 -2.1559228e-005 -0.00163201 -0.0010548392 -0.022277234 -0.46330106
18850000000 0.14930549 -0.05193688 -0.00011875418 5.8834985e-006 0.0035373147 0.00037853178 0.10240534 -0.1271552
18871250000 0.2388453 0.087504491 4.6586438e-006 -9.3968672e-005 -0.0030452961 -0.0023019766 0.12545048 -0.59083909
18892500000 0.1365003 0.23146996 -2.521488e-005 -9.3729199e-005 0.00068729732 0.0025957206 0.050441097 -0.43381593
18913750000 0.10162802 0.026066147 7.7390781e-005 7.803896e-005 0.00049928232 -0.00014115671 0.20435348 -0.6115073
18935000000 0.081012145 0.0031403801 6.9281843e-005 -7.7422825e-005 0.0015357533 0.0011922984 -0.067012846 -0.68034762
18956250000 -0.036060415 -0.005445784 -8.5960419e-005 4.2807274e-005 0.0026387866 -0.0007331575 -0.011984485 -0.50398636
18977500000 0.028635193 -0.068001948 -2.7924085e-005 4.0029299e-005 0.0019966387 -0.0035328642 0.12976913 -0.41905358
18998750000 0.075356275 0.16555937 -6.228844e-005 -1.908702e-005 -0.0022118441 -0.0019530223 0.24831215 -0.52841091
19020000000 -0.046750035 0.13113001 9.0010889e-007 4.5827786e-005 -0.00056746631 -0.002092273 0.1345699 -0.59354627
19041250000 -0.10286926 0.0062702438 -9.5416064e-005 7.8294288e-005 -0.0032484925 -0.00082335644 -0.0015055389 -0.4893029
19062500000 -0.097642817 0.072329581 -5.303766e-005 0.00012760572 -0.0023986956 0.0030427757 0.28118145 -0.61449718
19083750000 -0.074268565 -0.17710023 8.2446473e-005 -7.4651245e-005 0.0023131284 -0.00031239048 -0.04062904 -0.60548896
19105000000 0.088675834 -0.058835272 -5.5052256e-005 -5.4697048e-005 -0.0024571153 0.0010663349 0.020913459 -0.22549078
19126250000 0.05743131 0.049919136 -8.7976914e-005 2.9956898e-005 0.0030321218 -0.0012369686 0.45011771 -0.54445934
19147500000 -0.061115187 -0.042069726 -3.0673225e-005 -2.4840552e-005 -0.0025411912 -0.0015125952 0.10547908 -0.5811606
19168750000 -0.1157418 -0.099928372 -7.4900483e-005 -0.00017317134 -0.0014173797 0.00066989567 0.15790188 -0.46662793
19190000000 -0.16332725 -0.18918416 -0.00011563187 8.8352936e-005 -0.0019804705 0.00086909678 0.13510102 -0.48457259
19211250000 -0.10453273 -0.29349861 -6.3681509e-005 -0.00012255955 -0.0013344396 0.0036710224 0.19132127 -0.45000988
19232500000 0.13245553 -0.15942569 0.00010819304 2.081909e-005 0.0026960864 0.0017969877 -0.097724631 -0.33868223
19253750000 -0.011185193 -0.10495868 -0.00025174077 0.00012650611 0.00045919567 0.0012589097 0.30090499 -0.27683654
19275000000 0.044207089 -0.18949962 4.3887154e-005 -1.1629324e-006 0.0040567713 -0.0005561501 0.18074457 -0.5233357
19296250000 -0.0029067104 -0.13057129 3.8037297e-007 7.9471341e-005 -0.00035069484 -0.0020759283 0.025551802 -0.3980307
19317500000 -0.12921193 -0.23159584 -3.1349166e-006 5.0816325e-006 -0.00037812846 -0.00065189501 0.20095955 -0.3649106
19338750000 0.18862072 -0.29986584 -1.1640459e-005 0.00013257822 0.00043460904 0.00010510439 -0.1296771 -0.53466868
19360000000 0.1735047 -0.20928863 1.3861296e-006 -0.00015910719 -0.0017049473 0.00023678344 -0.10791169 -0.20207568
19381250000 0.15804811 -0.23072541 -3.0054475e-006 -1.8419234e-005 0.0024581717 0.0014172281 0.15782849 -0.31072572
19402500000 0.20126735 -0.13845932 -1.068233e-005 2.7663637e-005 0.0010666914 -0.00060761452 -0.052844044 -0.3727088
19423750000 0.028896715 -0.16152968 4.7461392e-005 3.7240727e-005 0.0022095768 -0.0021951718 0.058293507 -0.47152609
19445000000 0.091639966 -0.16958651 -5.8324226e-006 -1.4128981e-005 -0.0002329452 -0.0031339435 -0.21313013 -0.37094605
19466250000 0.25904045 -0.11421473 0.00012086723 -1.6346701e-006 -0.0027418921 -0.00053876848 -0.076890752 -0.3675037
19487500000 0.19235216 -0.063653022 -4.9112452e-005 2.3250926e-005 -0.00053733698 -0.0026454707 -0.27216208 -0.47257721
19508750000 0.22831112 -0.1630744 4.4446857e-005 -3.4041645e-005 -0.0043880539 0.0025195526 -0.19665681 -0.086636342
19530000000 0.1578847 0.031208843 -2.0066416e-005 -7.9272351e-005 0.00079840288 0.0011078727 0.11729308 -0.41670713
19551250000 0.060073189 -0.028260378 -7.5386888e-005 -9.710461e-005 0.0014348037 0.00052712613 -0.43637332 -0.72099417
19572500000 0.22235145 -0.040464085 -4.6741083e-005 -3.6217476e-005 -0.0013515601 0.00053766562 -0.18316536 -0.23212561
19593750000 0.1608402 0.097244002 8.5166474e-005 -7.1433496e-005 0.0027535707 -0.0018276022 -0.1757344 -0.62641102
19615000000 0.084407143 -0.02195888 7.5483396e-005 9.5209114e-005 -0.0042231116 -0.00051690341 -0.34389648 -0.41028106
19636250000 0.11382535 0.053858038 -0.00013559853 5.2553314e-005 1.5131136e-005 0.002326149 -0.12702584 -0.36480415
19657500000 -0.092302687 0.10404253 -0.00013971391 -0.0001743998 -0.0013552826 -0.0012119695 -0.17927386 -0.41423219
19678750000 0.0022574579 0.0064577651 5.096955e-007 -0.0001376766 -0.0016003574 0.0069595892 -0.076829694 -0.73972005
19700000000 -0.0051082876 0.093682937 0.00015219678 -3.6338828e-005 0.0062087593 -0.0013251108 -0.37597108 -0.50493497
19721250000 -0.023554064 0.063452527 8.6718692e-006 6.3570813e-005 -0.00097306201 -0.00028279543 -0.083394803 -0.33667424
19742500000 -0.13476397 -0.03674465 -0.00020147592 -0.00016683451 0.002743819 0.00035598967 -0.14600182 -0.69276696
19763750000 -0.16726354 0.028941179 -4.3598226e-005 -8.9398207e-005 0.00047310587 -0.0036009757 -0.28782693 -0.34268862
19785000000 -0.21696775 0.061333369 2.4928439e-005 -4.7020945e-005 -0.0021715325 0.0014451192 0.21654557 -0.29283482
19806250000 -0.076894097 -0.074515976 -0.00027584928 9.2619361e-005 0.00050636573 -0.00082360115 0.013338602 -0.81491321
19827500000 -0.10081059 0.028950799 2.350137e-005 7.0614238e-005 8.0779617e-005 0.0022411309 -0.054952171 -0.3589462
19848750000 -0.21592031 -0.11753912 0.00015296403 1.090025e-005 0.0018394139 -0.00056277006 0.059588075 -0.41375288
19870000000 -0.12635559 -0.12530144 -0.00021147517 -0.00011944884 0.0016166132 -0.0015736745 -0.024708396 -0.41019583
19891250000 -0.25020596 -0.171986 -2.3144668e-005 -0.0001341202 -0.00045800055 -0.0015131773 0.13489929 -0.28657258
19912500000 -0.10220014 -0.32334366 0.00011191139 8.0211525e-005 -0.00027784341 -0.0035283098 0.11501815 -0.017185936
19933750000 -0.010944201 -0.14819056 -2.7320977e-005 -2.9201659e-005 -0.0030834971 -0.00024342762 0.26399478 -0.47635534
19955000000 -0.11377069 -0.21242176 0.0002080627 -0.0001021081 -0.0030436995 4.9879505e-005 -0.29645854 -0.36048776
19976250000 -0.15597945 -0.24572861 6.0135728e-005 7.943192e-005 0.0014527427 0.003382799 0.05678362 0.02849349
19997500000 -0.17997371 -0.22666362 -5.5734614e-005 0.00011271414 -0.0014123819 -0.00023520968 0.033030294 -0.15542346
20018750000 -0.066076867 -0.28427637 0.00031900938 3.9436531e-005 0.0026516889 0.0012455843 -0.15028967 -0.0034181541
20040000000 0.16505612 -0.31468284 0.00017075089 -2.2302524e-006 -0.00060424313 -0.0012461946 0.042969964 0.23048447
20061250000 0.30258662 -0.079475775 0.00024843909 -6.7305555e-005 -0.00017246685 -0.0017026247 0.013437617 -0.26305854
20082500000 0.10917516 -0.052140094 -0.00012601128 0.0001601456 -0.0038058837 0.00099159696 -0.3490108 -0.20514542
20103750000 0.14680147 0.0097913127 2.9119415e-006 6.6561697e-005 0.00015116832 0.0028385434 -0.33832118 -0.089861877
20125000000 -0.12126718 0.05307072 9.5836738e-005 3.7830505e-005 0.001147046 0.00081941707 -0.35416737 0.10523317
20146250000 0.060375806 -0.17893116 0.00015629511 -4.9084392e-005 6.7202222e-005 0.0029424317 -0.29087833 -0.27971753
20167500000 0.28415072 -0.074690454 9.4182018e-005 -3.0204953e-006 0.0048689991 -0.00039515374 -0.79452193 -0.15925865
20188750000 0.21695681 0.015073794 -0.00012361743 -1.831693e-005 0.00026538942 -0.00064549287 -0.042167287 -0.12048889
20210000000 0.22599925 0.11115904 -7.0949667e-005 -0.00014961594 0.001870556 -0.0021428317 -0.57242566 -0.83946818
20231250000 0.03095565 0.37074599 5.5118253e-005 0.00025846352 -0.0018022235 -0.0017412972 -0.75346452 -0.15419765
20252500000 -0.11697724 0.18895818 9.1891205e-005 0.0001176917 -0.00097715377 0.0019377591 -0.44719914 -0.43435058
20273750000 0.039554704 0.12234767 -2.0129121e-006 5.9451613e-005 0.0011726791 -0.0010163493 -0.40105543 -0.3797673
20295000000 0.087107472 0.21330303 5.1760187e-005 5.7644855e-005 -9.2214665e-005 0.0021364498 -0.44150862 -0.47301686
20316250000 0.032828838 0.18842524 0.00013194238 0.00013344322 0.0034943726 -0.00065169233 -0.17665711 -0.56048107
20337500000 -0.11137588 0.25710127 5.5923982e-005 -0.00017567641 0.00044959827 -0.0042076693 -0.066300824 -0.79858059
20358750000 -0.31110093 0.36039981 -9.842193e-005 0.00014757281 -0.0021476857 0.00014066952 -0.56814867 -0.69144094
20380000000 -0.33660859 0.091924861 0.00014482607 -1.5376072e-005 -2.2921025e-005 -0.0023189075 -0.30399561 -0.36199817
20401250000 -0.16401948 0.085925497 6.3634128e-005 9.1846552e-005 -0.0042934595 -0.0004174299 0.29549229 -0.6724416
20422500000 -0.24645709 0.054922789 6.2759376e-005 6.161155e-005 -0.00051887362 0.003591018 -0.19115467 -0.6288709
20443750000 -0.13945657 0.039962027 -3.9350864e-005 0.00012793181 0.00090860284 -0.00078693533 0.15880586 -0.19806488
20465000000 -0.26560408 0.21670401 7.3815485e-005 7.6247379e-005 -0.00039787363 0.0027261374 0.39067003 -0.81942278
20486250000 -0.38815588 0.065634191 9.6243435e-005 -6.5539447e-005 0.0024401187 -0.0027225218 -0.30590302 -0.32233769
20507500000 -0.19499804 -0.032553066 -5.6885161e-005 0.00013213664 -0.0030850205 -0.00031295948 0.2325851 -0.099771388
20528750000 -0.15291943 -0.1103993 -0.00012729361 -4.9352966e-006 0.0013918779 0.0017486098 0.22003448 -0.15392013
20550000000 -0.099868275 -0.29049358 -1.8138378e-005 -1.5526955e-005 -0.0029203431 -0.0024108882 0.20155899 -0.043808717
20571250000 -0.085001536 -0.15166669 8.5701802e-005 -9.3900991e-005 -0.0003543279 0.0068180184 -0.0090589104 0.051625919
20592500000 -0.11389711 -0.10009362 8.915447e-005 1.4631784e-005 0.0033825315 -0.0017844646 0.36198485 0.22680882
20613750000 -0.086164989 -0.18861835 -7.7697572e-005 -4.3551619e-005 -0.0011544827 0.0029663877 -0.23864909 -0.16373213
20635000000 0.25393313 -0.26380891 -0.00012143784 -5.7178338e-005 0.0061796424 -0.00204264 -0.41465884 0.58142996
20656250000 0.10507847 -0.25878674 -5.1358688e-006 -2.037736e-005 -0.0022823168 -0.0022908631 0.21821119 0.48192522
20677500000 0.20594124 -0.35378087 4.9464699e-005 -8.0360078e-005 0.0014460216 3.3164393e-005 -0.30175671 0.035628866
20698750000 0.25946769 -0.09063185 -1.283305e-005 -0.00026372549 -0.0026364711 -0.00073269976 -0.5566113 0.49718091
20720000000 0.12150414 -0.14030586 5.6666096e-005 8.2389677e-005 0.00053833256 0.001951196 -0.29603761 0.30602884
20741250000 0.35874525 -0.10816571 6.4472988e-005 3.7770715e-006 0.0015339124 -0.00020530869 -0.79966438 0.24722506
20762500000 0.36001399 -0.034025241 0.0001688733 -4.8674705e-005 0.00094312866 -0.00031817504 -0.69740129 0.29281157
20783750000 0.25268361 -0.074549906 -6.6899611e-006 9.6982403e-006 0.00049500231 -0.0012471257 -0.49526462 0.33862332
20805000000 0.41560277 0.062873177 3.9617276e-005 -9.9854507e-005 0.001261759 -0.0022130234 -0.43777734 -0.062602721
20826250000 0.26240867 0.23469014 1.2961733e-005 -6.6999957e-005 -0.0037156886 -0.0022401381 -0.91041279 -0.22806035
20847500000 0.20973586 0.097484216 5.6129116e-005 8.4901614e-005 -0.00049813546 0.00098196603 -0.59325022 -0.03411248
20868750000 0.27957535 0.16450532 -6.6210763e-005 -1.2810375e-005 -0.0033446194 -0.00059922127 -0.44998834 -0.75094825
20890000000 0.16617019 0.19196659 -9.8716977e-005 -7.6843417e-006 0.00016293915 0.0039859577 -1.0494827 -0.35318547
20911250000 0.22347111 0.10565673 9.4049647e-005 -3.2446601e-006 0.0019686141 -0.0005886156 -0.38935071 -0.20181173
20932500000 0.19671845 0.29976067 -3.357499e-005 -0.00010292309 -0.001883589 0.0001709733 -0.46467641 -0.74842238
20953750000 -0.05103508 0.3494384 7.0912334e-005 -5.724451e-005 0.0035000257 -5.6380271e-005 -0.4288415 -0.62069148
20975000000 0.1576142 0.04486654 -0.00012001725 0.00011021858 -0.0041539925 -0.0024454673 -0.19671191 -0.55639112
20996250000 0.052336451 0.11118264 0.00012769605 0.00014340549 0.00013456085 0.0037320042 -0.1642857 -0.57030404
21017500000 -0.1193212 -0.02039782 6.4657477e-005 2.7369078e-005 -0.00054909615 -0.0012534118 -0.14168884 -0.71265501
21038750000 -0.020060103 0.050300211 9.7320799e-006 2.9278312e-005 -0.0014311803 0.0054492294 -0.20790954 0.1613871
21060000000 -0.21914004 0.1590604 8.5977103e-005 0.00012718292 0.0060939463 -0.0007155388 0.58488065 -0.30864748
21081250000 -0.22697489 -0.035101984 -0.00018752606 6.2241757e-005 -0.0022899976 0.00084580487 0.074594483 -0.60139859
21102500000 -0.083946951 -0.066565566 -0.0001325208 3.5293633e-005 0.0052325474 -0.0016306523 0.11247575 0.027665304
21123750000 -0.11963829 -0.14467885 7.6721757e-005 3.9399034e-005 -0.0033433039 -0.0035965384 0.44997886 -0.24680981
21145000000 -0.041077856 -0.36176938 0.00011655863 -6.6097236e-005 -0.00025168777 0.0025529603 -0.069478929 -0.34294349
21166250000 0.06353505 -0.16883633 -1.2517313e-006 4.4065688e-005 0.00036116302 -0.0024293188 0.13660875 0.38157919
21187500000 -0.026567632 -0.19904092 -5.6779416e-005 -4.0324481e-005 -0.0012945273 0.0029049034 0.095383205 0.11502306
21208750000 0.038724896 -0.3842999 -0.0001545069 -2.5494153e-005 0.0023959242 -0.00040293421 0.15071268 0.099510409
21230000000 0.050931022 -0.22991414 -0.0002000918 1.6116683e-005 0.0021479931 -0.00097394688 -0.11941664 0.062234666
21251250000 -0.11819059 -0.45932978 -0.00010690312 -7.6672921e-005 -0.0015992543 -0.0032275943 -0.020351781 0.52889448
21272500000 0.17862743 -0.39346933 7.7303819e-005 -0.00015609198 -0.0005482015 0.00013273266 0.13116124 0.030775467
21293750000 0.25313428 -0.17628133 -9.8575321e-005 -2.6901824e-005 -0.0024850408 -0.0022548558 -0.72234362 0.36528477
21315000000 0.25903437 -0.29673916 2.6164214e-005 -1.1891967e-005 -0.0028038567 0.0026768963 -0.086303614 0.54072917
21336250000 0.32484791 -0.25804731 0.00022747654 -2.7459986e-005 0.0013534629 0.00080144027 -0.25663999 -0.021488041
21357500000 0.18805565 -0.20820504 0.00027286538 5.2644875e-005 -0.00075354445 0.0016889242 -0.66111326 0.28774548
21378750000 0.090522677 -0.29234844 -2.6422014e-005 0.00019193997 0.0023758214 -0.00049777381 -0.37349266 0.34867272
21400000000 0.29661706 -0.24163049 0.0002903553 -1.1648431e-005 -0.00097642647 -0.0011139947 -0.60905862 -0.087430231
21421250000 0.19796795 -0.10445441 0.00013670737 1.1304808e-005 -0.00028546489 0.00063403504 -0.73293048 0.11063514
21442500000 0.31077614 -0.20660184 8.8181892e-005 3.9494855e-005 -0.0013010713 -0.0021041872 -0.5993759 0.15956435
21463750000 0.3330884 -0.011611895 -9.1327187e-005 7.3414303e-005 -0.0019287872 0.0044708503 -0.29704085 0.057517599
21485000000 0.075142123 -0.05014018 0.00012673737 -5.9882906e-005 0.0023827236 -0.00037429627 -0.62818879 -0.35311195
21506250000 0.1885554 -0.10695928 -2.4842113e-005 -5.4582429e-006 0.00082299672 0.0032454683 -0.53018826 0.070217215
21527500000 0.067235552 0.064758874 1.2755739e-005 -0.00016898294 0.0028698095 -0.0018169521 0.056075919 -0.25183141
21548750000 0.020122278 -0.082998037 -0.00022186364 -0.00010674899 -0.0002142458 -0.00080743188 -0.79864281 -0.51746327
