!Keysight Technologies,N5242B,MY47200105,A.14.00.23
!Date: Friday, May 10, 2024 11:13:20
!Correction: S11(C  2-Port  ) 
!S21(C  2-Port  ) 
!S12(C  2-Port  ) 
!S22(C  2-Port  ) 
!S2P File: Measurement: :
# Hz S  RI   R 50
18000000000 0.13651991 -0.022875372 -1.2400491e-005 -0.00017566596 0.023182744 0.024612626 0.8796441 -0.42404285
18021250000 0.064777784 -0.22178183 4.1222061e-006 0.00011253528 -0.0091187162 -0.024861472 0.31802562 -0.1934036
18042500000 0.22253852 -0.091743946 -0.00012049969 -3.6464411e-005 -0.002064019 0.0310148 0.49891061 -0.051378507
18063750000 0.1482162 0.023476493 2.0888925e-005 -2.6625885e-005 0.022056015 -0.022735225 0.40929234 -0.19013381
18085000000 0.21047091 -0.05464451 0.00010604985 0.00010327234 -0.026065823 0.0046757236 0.42609474 0.093427621
18106250000 0.3396666 -0.0023902911 0.0001244469 -4.6800571e-005 0.029357726 0.003637224 0.48028028 -0.090548284
18127500000 0.20600899 -0.048957042 8.5690779e-005 5.5976518e-005 -0.026202127 -0.022998707 0.5690527 -0.20744799
18148750000 0.19156384 -0.044533309 6.4313768e-005 -5.1165789e-005 0.0095051369 0.030681824 0.30449271 -0.36710122
18170000000 0.30950168 0.088843852 2.2108105e-005 -3.5947265e-005 0.0037720008 -0.02791154 0.096867681 -0.1248782
18191250000 0.15186593 0.19331078 0.00011183748 5.2311665e-005 -0.017231751 0.023086961 0.27438444 -0.087735765
18212500000 0.24723965 0.071452804 7.8875593e-005 2.0702566e-005 0.028772471 -0.010444224 0.098996043 -0.12412833
18233750000 0.16415805 0.14547512 -6.5533328e-005 5.1369652e-006 -0.029373819 -0.0082557993 0.32656369 -0.15236294
18255000000 0.021030813 0.062484868 -0.00014215485 9.516401e-005 0.022081375 0.017470649 0.43236274 -0.54341888
18276250000 0.14681371 0.0085796313 -3.4285058e-005 7.0512797e-005 -0.015084357 -0.027631579 0.15213376 -0.46480873
18297500000 0.062644318 0.15610206 2.7742413e-005 -3.1847449e-005 -0.0067536472 0.032232646 0.078520708 -0.46387142
18318750000 0.029213525 0.12789245 -6.1145161e-005 -6.0686478e-005 0.018595632 -0.020626886 0.11642398 -0.34397587
18340000000 0.077294722 0.080557995 -2.6364141e-005 -0.0001630146 -0.027094599 0.014767601 0.14172363 -0.24410263
18361250000 -0.12846835 0.10918021 -2.4492969e-005 -5.3369604e-005 0.034645334 0.0035213684 0.36301744 -0.47567713
18382500000 -0.077986293 -0.023370074 -2.5756728e-005 -0.0001274575 -0.024533415 -0.020067107 0.39872816 -0.41139325
18403750000 0.0044307113 -0.020412017 4.8736747e-005 -2.5475874e-005 0.013193027 0.027906675 0.28254998 -0.67530495
18425000000 -0.031153845 0.024192536 2.5805648e-005 -4.1231877e-005 0.0023262005 -0.030799311 0.071838684 -0.5629006
18446250000 -0.021292811 -0.12995373 -0.00013914019 0.00013968247 -0.021118935 0.027505497 0.50296396 -0.42238203
18467500000 0.019258874 0.0077338452 -5.7306137e-005 -4.2195767e-005 0.032589473 -0.010557188 0.26444888 -0.54820561
18488750000 -0.19424091 -0.034178011 5.3705786e-005 7.9314734e-005 -0.030586351 -0.0045962697 0.35830778 -0.38783121
18510000000 -0.090536237 -0.15854938 -1.6294231e-005 -0.00015496773 0.032671012 0.019711308 0.50797307 -0.5435853
18531250000 -0.026598703 -0.010825587 5.3721411e-005 0.00016508302 -0.012993757 -0.034308065 0.37687409 -0.54437315
18552500000 -0.059544057 -0.19643198 -3.5314803e-005 -3.0276484e-005 -0.0038682816 0.029154001 0.28526035 -0.52926636
18573750000 0.081778131 -0.18527918 -1.972256e-005 -5.3327643e-005 0.017229848 -0.026106415 0.15790914 -0.19722089
18595000000 0.090636089 -0.070338517 -3.7693389e-005 8.1992926e-005 -0.031845655 0.010423494 0.43198696 -0.11341856
18616250000 0.040831197 -0.13938913 1.3749374e-005 -4.8627346e-005 0.031256076 0.0058671068 0.37896457 -0.46478975
18637500000 0.17735146 -0.099693879 -3.5408313e-005 -1.0022208e-005 -0.025035026 -0.020421883 0.26503187 -0.16221857
18658750000 0.0777357 -0.066758499 -0.00010952556 6.8270849e-005 0.014028294 0.030909248 0.4910022 -0.49503255
18680000000 0.08632645 -0.19963405 -0.00010326078 8.108146e-005 0.0047040852 -0.034540959 -0.033622995 -0.44768527
18701250000 0.24187709 -0.092973784 -2.2647302e-005 -2.0817088e-005 -0.024051776 0.023330843 0.2274386 -0.10989577
18722500000 0.13447778 -0.051599834 -2.5676492e-005 4.2596846e-005 0.02862584 -0.0097025698 0.16958413 -0.29774067
18743750000 0.22989544 -0.15318692 -3.533503e-005 -0.00016755667 -0.034133349 -0.0042249723 0.15403332 -0.25245282
18765000000 0.21180089 0.081537716 1.201161e-005 0.00011430096 0.024625894 0.023462906 0.18899788 -0.35714713
18786250000 0.08077354 -0.012514658 6.6466841e-005 3.558728e-005 -0.0098616881 -0.026115285 0.054444343 -0.34648967
18807500000 0.23454219 -0.096924312 4.3705069e-005 3.1847343e-005 -0.0013086873 0.031776633 0.03238361 -0.43283054
18828750000 0.13153413 -0.043222245 0.00010097255 3.6290243e-005 0.020077299 -0.026792808 -0.022364032 -0.46218872
18850000000 0.14871135 -0.054977808 3.1749612e-005 5.6735709e-005 -0.028543428 0.0095880888 0.10410817 -0.12131858
18871250000 0.23358992 0.090846032 9.7413038e-005 -0.00012749665 0.029662794 0.0031795073 0.1267983 -0.59199816
18892500000 0.1370282 0.23865511 0.00015727706 9.8175078e-005 -0.024597999 -0.018587688 0.049348485 -0.43199387
18913750000 0.10746724 0.024991529 -7.6006763e-005 -1.2465692e-005 0.012936891 0.029696899 0.20596284 -0.61252975
18935000000 0.081399739 0.0055080196 -2.4903846e-005 -1.3999517e-005 0.0057817977 -0.029975614 -0.070287883 -0.68189406
18956250000 -0.038764544 -0.0098298918 -3.4201912e-005 4.1490235e-005 -0.016822787 0.023948722 -0.013102439 -0.5030508
18977500000 0.02338019 -0.066902161 -2.2173708e-005 0.00011015136 0.031502292 -0.015408658 0.13005026 -0.41786474
18998750000 0.076423064 0.17365642 -6.7663191e-006 -7.7959281e-005 -0.033093646 -0.0062063062 0.25018159 -0.52830601
19020000000 -0.045625031 0.13187321 -9.4297975e-005 -6.268057e-005 0.022840733 0.016480127 0.13470794 -0.59500998
19041250000 -0.099225126 0.002999553 6.6274151e-005 -6.0041162e-005 -0.013086146 -0.028403113 -0.0033279862 -0.48931256
19062500000 -0.10479444 0.072017215 -6.0890875e-006 5.0803617e-005 -0.0067579416 0.032374956 0.28415871 -0.61574233
19083750000 -0.082060553 -0.17913865 -1.6993381e-005 -4.582277e-005 0.021352254 -0.02185842 -0.041740604 -0.60798961
19105000000 0.090115197 -0.052049849 9.9933159e-006 6.8417125e-005 -0.03094936 0.0095748538 0.022053732 -0.22238716
19126250000 0.057957117 0.051712304 -0.00018471194 7.949373e-006 0.031523243 0.0055385614 0.45548496 -0.54905087
19147500000 -0.056259479 -0.043773685 4.0106519e-005 -6.3680827e-006 -0.022714978 -0.021046016 0.10560025 -0.58412039
19168750000 -0.12223069 -0.10859063 -1.4748702e-005 6.6882712e-005 0.0062276945 0.028257141 0.15926473 -0.46781319
19190000000 -0.17074296 -0.19071445 0.00010312242 0.0001916265 0.0064156037 -0.027400628 0.13666664 -0.48461109
19211250000 -0.10972347 -0.29661417 7.1334871e-006 8.1674334e-005 -0.022709362 0.023031158 0.19484815 -0.45068243
19232500000 0.13437755 -0.15517035 -2.8990005e-006 0.0001448898 0.030928273 -0.0028605203 -0.099267721 -0.33810613
19253750000 -0.0083257249 -0.10764997 -4.1128715e-005 0.00019022464 -0.027855989 -0.0091995075 0.30608016 -0.27491888
19275000000 0.043612812 -0.19913703 -9.668629e-006 3.3741566e-005 0.022624444 0.021167776 0.1835257 -0.52510965
19296250000 -0.004267761 -0.12734121 4.1157131e-005 -3.818858e-005 -0.005406762 -0.031337056 0.025602149 -0.39774591
19317500000 -0.13452278 -0.23466654 -3.6450921e-005 9.152438e-005 -0.011296895 0.028235918 0.20446786 -0.36346287
19338750000 0.19284673 -0.29318044 -0.00030142837 8.6497603e-005 0.024312407 -0.017894922 -0.12999623 -0.5357734
19360000000 0.1843797 -0.20693065 -0.00012461607 6.8534027e-005 -0.03263633 0.002954484 -0.10815568 -0.19914272
19381250000 0.16095839 -0.23825096 -6.7020796e-005 5.9725746e-005 0.030334324 0.014099039 0.16041262 -0.31009889
19402500000 0.19956569 -0.1343358 0.00012425314 1.38366e-005 -0.016516272 -0.025843687 -0.053215969 -0.37219542
19423750000 0.026012087 -0.16419974 -7.0394817e-005 3.7600534e-005 0.0052509606 0.028453369 0.059415668 -0.47288564
19445000000 0.090416849 -0.1604733 4.4905079e-005 3.8105918e-005 0.01408846 -0.030727582 -0.21595542 -0.37011746
19466250000 0.26983675 -0.11202952 8.9656241e-005 1.0855784e-005 -0.029062564 0.017990263 -0.075649738 -0.36681837
19487500000 0.19201867 -0.062210139 5.3915341e-005 -1.1710355e-005 0.031103306 -0.003230368 -0.27361789 -0.47476545
19508750000 0.23264907 -0.16467565 -5.7696703e-005 -5.5171411e-005 -0.034118067 -0.014716537 -0.19750577 -0.083468594
19530000000 0.15080504 0.028624753 0.00010274797 0.00023534571 0.019549301 0.029160853 0.12146799 -0.41918212
19551250000 0.051384155 -0.019976804 2.7079133e-005 -0.00016551081 0.0011477352 -0.032780059 -0.44015753 -0.72638088
19572500000 0.22996511 -0.038193747 0.00012924337 -6.2252046e-005 -0.016990725 0.031277917 -0.18270855 -0.2292202
19593750000 0.15781102 0.098880015 3.2385989e-005 5.5607297e-006 0.03069081 -0.021393672 -0.17609283 -0.62987804
19615000000 0.084898166 -0.020516014 2.7556171e-006 -0.00026849503 -0.039098497 -1.6653767e-005 -0.34487736 -0.41003561
19636250000 0.10842273 0.049047165 -3.5367438e-007 -0.00013220469 0.031001359 0.017815318 -0.12602888 -0.3644425
19657500000 -0.10342163 0.1059908 2.516759e-005 3.1173142e-005 -0.020000646 -0.029785456 -0.17859666 -0.41349486
19678750000 0.0069299839 0.0072376095 -7.3297997e-005 -6.1580969e-005 -0.0014918909 0.040098034 -0.074173249 -0.74195987
19700000000 -0.010444636 0.090809792 -1.7744364e-005 0.00016203836 0.023428291 -0.030349357 -0.3786321 -0.50533593
19721250000 -0.013101798 0.062593967 -6.4941181e-005 -0.00013687684 -0.031814799 0.01752805 -0.080580175 -0.3336494
19742500000 -0.14197841 -0.045612734 4.0524988e-005 9.2049013e-005 0.036736809 0.00025642032 -0.14549874 -0.69564217
19763750000 -0.16978674 0.028002704 -3.4987283e-005 -6.0305789e-005 -0.029565545 -0.022586772 -0.28991461 -0.34058127
19785000000 -0.21780461 0.059598397 -0.00022123674 8.3002815e-005 0.01707311 0.032828927 0.22012088 -0.29038009
19806250000 -0.077836893 -0.077491768 2.4087403e-005 -0.00015350465 0.0027565584 -0.035858013 0.013650137 -0.81932473
19827500000 -0.087562948 0.025812132 -0.00019222571 8.6026979e-005 -0.019566925 0.034434557 -0.055857286 -0.35743359
19848750000 -0.21908484 -0.1269379 -0.00011238709 8.1029219e-005 0.03461802 -0.019006178 0.061074167 -0.4135918
19870000000 -0.12920476 -0.12295875 -0.00011148769 -4.0514504e-005 -0.037008557 -0.0025705367 -0.025154334 -0.41043285
19891250000 -0.25443593 -0.17902437 8.6625369e-006 7.8960489e-005 0.034190323 0.016939178 0.1360011 -0.28866246
19912500000 -0.1005629 -0.32227963 -2.1164911e-005 -0.00016371094 -0.022776049 -0.038377315 0.11365399 -0.014450971
19933750000 -0.0042527905 -0.14802852 -4.4088218e-005 0.00011399064 -0.0032660028 0.037873711 0.26603672 -0.47992575
19955000000 -0.11027975 -0.21844758 0.00024410398 -3.3603985e-005 0.017660515 -0.034067966 -0.30109635 -0.36454576
19976250000 -0.15510502 -0.24024932 -0.00015661126 8.6432767e-005 -0.033131376 0.023496885 0.057100359 0.029922087
19997500000 -0.18549262 -0.23166658 7.4784839e-005 -9.7858305e-005 0.039580893 -0.0010141765 0.034033351 -0.15779281
20018750000 -0.069498107 -0.27364138 -2.2598239e-005 2.8395403e-005 -0.034169223 -0.018855626 -0.15131764 -0.0050235614
20040000000 0.16881211 -0.31443301 -2.2725544e-005 -0.00022398996 0.023670027 0.0351974 0.044869877 0.23157714
20061250000 0.30656055 -0.076513447 -1.5625708e-005 1.6849415e-005 -0.0044208448 -0.042634603 0.016107295 -0.26742193
20082500000 0.10973796 -0.052302778 -0.00011878247 -0.00023752562 -0.022636935 0.0388784 -0.34893423 -0.20793644
20103750000 0.14479905 0.0062743165 -0.00019801814 0.00012154765 0.033583328 -0.021234002 -0.33738565 -0.091936313
20125000000 -0.13328464 0.056095865 -8.7201573e-005 -5.5276971e-005 -0.040967494 0.0035705226 -0.35203737 0.10695408
20146250000 0.062806115 -0.18288194 9.3526658e-005 -4.4199456e-005 0.035729691 0.021292774 -0.28598574 -0.28400758
20167500000 0.28243822 -0.072025031 5.0408569e-005 -5.4272092e-005 -0.017104115 -0.035628434 -0.79771692 -0.15948547
20188750000 0.22273223 0.011791059 3.1502354e-005 4.7800284e-005 0.0026584102 0.038150687 -0.033684283 -0.11887631
20210000000 0.22660333 0.10318101 -7.9827216e-005 5.7319987e-005 0.023478381 -0.034423366 -0.57054132 -0.84557652
20231250000 0.024224022 0.37074089 -0.00017393519 -9.7783297e-005 -0.036826432 0.018565537 -0.75411296 -0.14991695
20252500000 -0.12215616 0.18008097 2.4080704e-005 -6.7354966e-005 0.03815655 0.0018386077 -0.44454831 -0.43489772
20273750000 0.039393097 0.12402003 7.1437695e-005 3.8714265e-005 -0.032271277 -0.018484058 -0.3982977 -0.37794244
20295000000 0.094408348 0.2103004 1.0527148e-005 6.0127881e-005 0.016801301 0.034353256 -0.44294649 -0.47210109
20316250000 0.031998832 0.18019558 8.727461e-005 5.8321551e-005 0.003920774 -0.036913455 -0.17424509 -0.55786026
20337500000 -0.11269394 0.25340015 -2.2458529e-005 -2.9723671e-005 -0.021459913 0.023723917 -0.064217076 -0.79736078
20358750000 -0.3183347 0.35864934 -5.2693842e-005 3.1544816e-005 0.0312743 -0.015599753 -0.57203037 -0.69143355
20380000000 -0.33771071 0.091422237 -4.6588833e-005 -4.7582802e-005 -0.035886832 -0.0042477101 -0.30685449 -0.35709241
20401250000 -0.15039364 0.087961443 5.0917541e-005 0.00016009448 0.02360408 0.02072818 0.29880351 -0.67258316
20422500000 -0.24451454 0.052568916 3.8684186e-005 8.8780849e-005 -0.013076711 -0.028055187 -0.19604899 -0.63050646
20443750000 -0.13074313 0.037334207 3.4851295e-005 1.5040174e-006 -0.0035314278 0.032866903 0.15699427 -0.19480252
20465000000 -0.27221295 0.22172844 3.9664292e-006 -1.2029238e-005 0.024456492 -0.021296563 0.39257252 -0.82659388
20486250000 -0.39160669 0.074470855 -0.00011331946 -0.00014321112 -0.031060036 0.0084735695 -0.31445721 -0.32451135
20507500000 -0.18216673 -0.027612293 -3.3981894e-005 8.7520952e-005 0.030153591 0.0064688725 0.2323041 -0.10063369
20528750000 -0.14805862 -0.10609692 4.0322655e-005 -0.00018275072 -0.024090383 -0.021750238 0.21962072 -0.15751031
20550000000 -0.092297725 -0.29363132 -1.4421688e-005 -5.5180994e-005 0.0078677246 0.029016543 0.20044751 -0.047619145
20571250000 -0.10065588 -0.15188642 2.1006785e-005 8.1571518e-005 0.0060342695 -0.027194494 -0.012061524 0.04783576
20592500000 -0.12171819 -0.090419427 -6.1694536e-006 -0.00017813598 -0.020256095 0.023674676 0.36512655 0.22740459
20613750000 -0.092750236 -0.18761374 -0.00012027288 -0.00012913166 0.032864958 -0.0060005127 -0.23980173 -0.1715778
20635000000 0.26037231 -0.26281121 0.00022619708 -0.00010724285 -0.030045422 -0.0096572721 -0.4167096 0.5837608
20656250000 0.10215523 -0.26182714 8.4964435e-005 -8.7441049e-006 0.020941384 0.022144996 0.22581494 0.48174921
20677500000 0.19529241 -0.36286438 -0.00012413249 9.6149037e-005 -0.0086558163 -0.033477794 -0.30022866 0.028093493
20698750000 0.25148359 -0.079533003 -1.6192103e-005 -3.8513292e-005 -0.0091608521 0.035152793 -0.55518866 0.49763259
20720000000 0.1088498 -0.14604998 -2.985854e-005 -3.9037888e-005 0.024657557 -0.02241083 -0.29041106 0.30441126
20741250000 0.36019725 -0.10524274 -0.00016869654 2.7730694e-005 -0.032916907 0.011122335 -0.7990948 0.24450496
20762500000 0.36381006 -0.038613152 2.6389496e-005 0.0001102486 0.03494006 0.010176031 -0.69525558 0.29336929
20783750000 0.24093066 -0.082174212 -0.00023465586 -3.9489743e-005 -0.021891801 -0.026889883 -0.49109241 0.34270623
20805000000 0.41457504 0.061435547 -0.00019453728 6.9977359e-005 0.006075663 0.032308452 -0.43168402 -0.062957637
20826250000 0.25438917 0.23236164 -6.8596288e-005 5.1427356e-005 0.011952894 -0.034973893 -0.91244018 -0.22834514
20847500000 0.21042979 0.095424861 -4.2899861e-005 8.6329797e-005 -0.030555386 0.020213772 -0.59244162 -0.028572852
20868750000 0.28828743 0.15209492 -0.00026404683 -0.0001270355 0.035542138 -0.0016010558 -0.4446587 -0.7521401
20890000000 0.16386898 0.18521175 -0.00019183091 -0.00013410431 -0.03466852 -0.015806535 -1.0563956 -0.34938505
20911250000 0.22971928 0.10148634 1.54509e-005 -7.5434153e-005 0.022076884 0.030578023 -0.38650379 -0.19656259
20932500000 0.20070092 0.29735577 -8.3656203e-005 6.9116122e-006 -5.5448367e-005 -0.039335132 -0.46643469 -0.75036561
20953750000 -0.047937222 0.35866505 -1.9702369e-005 -0.00012778932 -0.018922407 0.033138376 -0.4336367 -0.62085438
20975000000 0.18082581 0.032248627 0.00016977437 0.00015850243 0.031195741 -0.019650426 -0.20083605 -0.55534762
20996250000 0.063000895 0.1085613 -6.2776613e-005 -3.4525972e-005 -0.043851968 0.002479932 -0.16660431 -0.56763935
21017500000 -0.1119322 -0.025881143 -7.8032797e-005 -2.2012149e-005 0.030968716 0.023681462 -0.1454469 -0.71674156
21038750000 -0.023816071 0.049330335 -0.00014923354 -4.4833039e-005 -0.019953851 -0.029939849 -0.21474105 0.16665505
21060000000 -0.21866539 0.17381857 0.0001123148 3.3976194e-005 -9.3473645e-005 0.039491169 0.58911788 -0.30932373
21081250000 -0.21973047 -0.036852505 -0.00012559802 -0.00012857706 0.022873901 -0.032292008 0.070369847 -0.60983551
21102500000 -0.07725437 -0.06327603 0.0001074713 -8.9629924e-005 -0.032092154 0.016644537 0.109831 0.0275394
21123750000 -0.1108705 -0.14099154 -8.0176214e-005 8.0291771e-005 0.04070903 0.0016346419 0.45130345 -0.25206384
21145000000 -0.049885273 -0.36269173 -6.357138e-005 2.4074763e-005 -0.034954954 -0.023774434 -0.074046619 -0.35197335
21166250000 0.061549753 -0.15368614 5.4795404e-005 -0.00011135993 0.021324141 0.035209741 0.13407731 0.38101086
21187500000 -0.032298148 -0.19183008 -2.1764126e-005 0.00010543242 0.00065212173 -0.039194785 0.09465003 0.11068189
21208750000 0.035456192 -0.38322335 -0.00015742438 -2.3567301e-005 -0.018989665 0.035455063 0.15228982 0.094076753
21230000000 0.056179028 -0.22604603 4.547117e-005 -4.5422661e-005 0.038278759 -0.02332963 -0.12017384 0.055819202
21251250000 -0.13670719 -0.46023935 -7.7095669e-005 -7.0492642e-005 -0.04183843 -0.0030412078 -0.016981591 0.53185356
21272500000 0.17473212 -0.38312483 -0.00010422032 0.00033126539 0.034350868 0.020268124 0.14047647 0.026008138
21293750000 0.24792936 -0.16595735 1.9615052e-005 7.1649585e-005 -0.025874419 -0.038554717 -0.72422868 0.3635217
21315000000 0.25614667 -0.29465672 0.00019473302 9.0931127e-005 -0.0023245465 0.042324305 -0.080133781 0.54233921
21336250000 0.33123147 -0.27082413 -1.77811e-005 0.00022555648 0.019961521 -0.033711839 -0.25193614 -0.027082931
21357500000 0.18613988 -0.2117441 -0.00011979581 -0.00011153855 -0.034716573 0.024628136 -0.66196793 0.28805947
21378750000 0.082696877 -0.29655743 -0.00012794249 -0.00012618478 0.040123988 -0.001236866 -0.36938143 0.35140726
21400000000 0.29655111 -0.24630004 0.00016501675 0.00026459302 -0.037606355 -0.01874198 -0.60736048 -0.087704331
21421250000 0.19627133 -0.098523736 0.00014046647 9.1791728e-005 0.021396723 0.036925234 -0.73210013 0.11465465
21442500000 0.31367654 -0.22360905 0.00010367007 5.9696958e-006 -0.0014883273 -0.038033634 -0.59942275 0.16499779
21463750000 0.33944383 -0.016033396 0.00020626371 3.8279188e-005 -0.020936137 0.037241302 -0.29337841 0.061428241
21485000000 0.072715424 -0.056449551 0.00022201442 6.2158077e-005 0.039239589 -0.018793553 -0.63076556 -0.3545534
21506250000 0.18802683 -0.11278751 -5.7500281e-005 4.9869908e-005 -0.037365735 0.0025461649 -0.53281009 0.075237624
21527500000 0.069723494 0.071755767 7.6532509e-005 -7.2339026e-005 0.038122296 0.022335868 0.062151719 -0.2493472
21548750000 0.023286844 -0.086919993 -3.2627337e-005 -7.5457603e-005 -0.019342564 -0.037463419 -0.80801749 -0.52103269
21570000000 0.19243939 -0.069845565 0.00018634567 0.00025437988 0.00072905066 0.037066262 -0.19721644 0.082456395
21591250000 0.0014945924 -0.047282092 0.00023198477 -7.7737801e-005 0.021715367 -0.036255758 0.12482145 -0.36995882
21612500000 -0.12057708 -0.17681503 0.00025427999 -5.9279966e-005 -0.036027044 0.016452115 -0.29885083 -0.53809559
21633750000 -0.087719902 -0.027128456 7.358061e-005 -7.2598166e-005 0.037127156 0.0030524267 -0.1641684 -0.013466961
