!Keysight Technologies,N5242B,MY47200105,A.14.00.23
!Date: Friday, May 10, 2024 11:18:48
!Correction: S11(C  2-Port  ) 
!S21(C  2-Port  ) 
!S12(C  2-Port  ) 
!S22(C  2-Port  ) 
!S2P File: Measurement: :
# Hz S  RI   R 50
18000000000 0.14252728 -0.029869266 -0.00021159563 -9.0251015e-005 0.00080685818 0.0057684532 0.87204301 -0.42125598
18021250000 0.069531031 -0.21229395 2.1097505e-005 3.2733104e-005 1.2638468e-005 0.00027562704 0.32075164 -0.19677517
18042500000 0.22859275 -0.093482867 -0.00017168798 -9.7784337e-005 0.0028231761 0.0037610841 0.49577782 -0.05672019
18063750000 0.1538976 0.018786747 -0.00017053956 -6.3573425e-005 0.0053710015 -0.0013006733 0.40756673 -0.19247968
18085000000 0.21056712 -0.051195432 1.6402332e-006 -2.4953155e-005 0.00029126753 -0.0044685439 0.42332542 0.087916635
18106250000 0.33701393 -0.0091815125 1.8723364e-005 8.7313965e-006 0.0012817988 -0.0020839458 0.47831181 -0.092290178
18127500000 0.20461269 -0.043320421 -0.0001463092 1.2720957e-005 -0.0055471337 -0.0034829392 0.56368989 -0.20980206
18148750000 0.1972066 -0.040604014 6.551219e-006 0.0001650615 0.00049504393 0.0032808541 0.3031745 -0.36618364
18170000000 0.30097136 0.084307536 -1.7982546e-005 1.7213617e-005 -0.001461387 0.00011186622 0.099003278 -0.1308981
18191250000 0.15477978 0.19426379 1.9373298e-005 4.8773458e-005 0.0022022857 0.00084600778 0.26955131 -0.092865981
18212500000 0.24001031 0.068796165 0.00011739748 -2.6921149e-005 0.0009497226 -0.0012204928 0.098566473 -0.12760291
18233750000 0.16423482 0.14483579 0.00010705546 -6.1644758e-005 0.00011758586 -0.0026013823 0.32324144 -0.15651213
18255000000 0.028244372 0.067136601 -4.4744571e-005 -5.2441934e-005 -0.0028370603 -0.0019687389 0.42709228 -0.54385608
18276250000 0.13893194 0.010315279 -3.0560481e-005 -3.2218013e-005 -0.0033153901 1.2069026e-005 0.15049429 -0.46652573
18297500000 0.064551748 0.15598048 1.6082973e-005 -4.7424197e-005 -0.0025387034 0.0023988313 0.077561729 -0.46523303
18318750000 0.020282025 0.12432601 2.6747735e-005 2.5027322e-005 -0.00042054508 0.0034248591 0.11561479 -0.34766263
18340000000 0.06634324 0.083205782 5.4111275e-005 -2.2061035e-005 0.0016432059 0.0024887954 0.14094582 -0.24877195
18361250000 -0.12238528 0.10520487 -6.3637908e-006 -8.6280943e-006 0.0028804613 0.0010407427 0.36241484 -0.47504875
18382500000 -0.082269922 -0.023011094 -7.006395e-005 -5.0464481e-005 0.0017514076 -0.0021505093 0.39772955 -0.41669118
18403750000 0.0052130651 -0.021062078 -5.4554981e-005 -2.6894497e-005 -0.0010160952 -0.00081392191 0.28258577 -0.6735273
18425000000 -0.033495296 0.014479835 -6.9948946e-005 -7.2021903e-005 -0.0003873645 3.8924009e-005 0.075269379 -0.56317252
18446250000 -0.027455166 -0.12716909 9.2207256e-006 -8.4428983e-005 -0.0025025262 0.0012923226 0.4976511 -0.4249512
18467500000 0.021617057 -0.0029082769 0.00019137276 -2.340677e-005 0.0037553341 0.0041923728 0.26402158 -0.54738235
18488750000 -0.18898289 -0.0363506 -1.9082263e-005 4.2810203e-007 0.0013992892 -0.0018744855 0.3555705 -0.38830674
18510000000 -0.086254701 -0.15914883 6.5854278e-005 -0.00018712923 0.0034721559 0.0011592426 0.50598192 -0.539922
18531250000 -0.026986545 -0.023022655 3.7508584e-005 -8.123889e-005 0.0022569115 -0.0050632386 0.37592682 -0.5430029
18552500000 -0.061174463 -0.19129242 -7.8628553e-005 -8.4090811e-005 -0.0027588354 -0.0029616139 0.28341186 -0.52661967
18573750000 0.079402529 -0.18890189 3.5367546e-005 -0.00010475485 -0.00059600192 0.00054513401 0.15963469 -0.19962545
18595000000 0.089044318 -0.072642222 -0.00016995861 3.7067781e-005 -0.0029837398 -0.0032817391 0.42641526 -0.11751441
18616250000 0.05118227 -0.13812439 2.8536928e-005 -4.5605484e-005 -0.00099017902 0.0043870765 0.37565815 -0.46145117
18637500000 0.17218654 -0.1031277 8.2742037e-005 -4.5280158e-005 0.00098601507 -0.0017323821 0.26313612 -0.16649695
18658750000 0.081062779 -0.064556696 7.1287919e-005 2.7429154e-005 -8.364251e-005 0.0016851355 0.48255932 -0.49276912
18680000000 0.084586293 -0.2015328 -3.6627505e-005 8.9554123e-006 0.0018738585 -0.0024625515 -0.033156931 -0.44747937
18701250000 0.23929383 -0.091441259 -2.4717776e-005 2.7948432e-005 -0.0039263126 -0.002919826 0.22085166 -0.11494339
18722500000 0.14610226 -0.051740944 0.00015824997 3.7057733e-005 -0.0016743491 0.0028771651 0.1653076 -0.29862666
18743750000 0.22546546 -0.14809671 8.0310332e-005 3.6513895e-005 -0.0020952867 -0.00041763167 0.14922738 -0.25450307
18765000000 0.21634932 0.081064537 6.4022286e-005 1.162618e-005 -0.0019050949 0.0045089452 0.18543233 -0.35683456
18786250000 0.079447061 -0.011550198 7.695931e-005 0.00014383876 0.0029882442 0.0036000393 0.054404508 -0.34914723
18807500000 0.22633067 -0.092845567 1.0593862e-005 -4.9032238e-005 0.0027024164 -0.00091370387 0.031044954 -0.43434584
18828750000 0.13646969 -0.042089827 4.956195e-005 -6.5740853e-005 7.4551768e-005 4.9275157e-005 -0.022576284 -0.46400544
18850000000 0.14836618 -0.0521033 0.00011432448 7.5063021e-005 0.0030656657 -0.0016074532 0.10141601 -0.1295988
18871250000 0.23682052 0.08666455 1.2850955e-005 -1.1504088e-005 -0.0036599147 -0.0002799021 0.12504491 -0.59036505
18892500000 0.13664465 0.23117174 0.00011119447 4.4764613e-005 0.0022199298 0.0013523435 0.050432283 -0.43467662
18913750000 0.10199259 0.02632924 6.857796e-005 2.2296403e-005 -0.0012376016 0.00028239776 0.20400608 -0.61168522
18935000000 0.081161179 0.00099139218 0.00010754316 -6.5305045e-005 0.0031751255 0.0020465956 -0.066790782 -0.68056089
18956250000 -0.035368606 -0.0065349992 -0.00012371627 -0.00010671806 0.0017609971 -0.0025924856 -0.01218817 -0.50404906
18977500000 0.028803697 -0.068670146 1.4303088e-005 -8.1452607e-005 0.0014513099 -0.0013331909 0.13002083 -0.41981941
18998750000 0.075690992 0.16402914 -8.181257e-005 -0.00010409744 -0.00037083522 -0.0034290198 0.24695447 -0.52847487
19020000000 -0.046091106 0.12984766 -1.1990918e-005 -8.9195084e-005 -0.0027741762 -0.0016670012 0.13448365 -0.59219062
19041250000 -0.10187814 0.0052112862 5.2510946e-005 0.0001851712 -0.00076849939 5.6664307e-005 -0.0012064219 -0.48956469
19062500000 -0.096721098 0.072011314 -0.00017429702 1.343775e-005 -0.003966514 0.00096205837 0.27927086 -0.61340964
19083750000 -0.073845655 -0.17791782 1.6288295e-005 0.00011801121 0.002638075 0.0022436972 -0.040790919 -0.60406011
19105000000 0.089325011 -0.060106102 -4.9073366e-005 8.009735e-005 -0.00096519361 -0.0012276067 0.020365935 -0.22531177
19126250000 0.058639944 0.05038486 9.4672483e-005 -0.00010874702 0.00055915688 0.00048808393 0.44845721 -0.54214358
19147500000 -0.060537938 -0.042538948 -6.1612482e-005 -0.00016871291 0.00011483741 -0.0016952776 0.10553867 -0.57991493
19168750000 -0.11528311 -0.10009851 0.00010335524 -9.4874031e-006 -0.0038154256 -0.0001882319 0.15750934 -0.4652634
19190000000 -0.16293909 -0.1891024 -0.00014129732 6.4539444e-007 -0.00035847948 0.0025046596 0.13419117 -0.48378578
19211250000 -0.10451622 -0.2927691 -0.00011707024 -1.0575482e-005 -0.0014714209 0.0017505665 0.189271 -0.44850755
19232500000 0.13372575 -0.1591333 -8.907009e-006 1.9278632e-005 0.0019189941 0.0033008705 -0.097778231 -0.33834422
19253750000 -0.010383883 -0.10469145 7.6642638e-005 -7.3389638e-005 0.0018904532 0.00070339162 0.297966 -0.27728707
19275000000 0.04450861 -0.18902393 -4.4679182e-005 -7.3156247e-005 0.0028019922 -0.0011546953 0.17937711 -0.52160358
19296250000 -0.0024140717 -0.13032602 -9.9278432e-006 5.8745878e-005 1.6777478e-005 -0.000422596 0.024971317 -0.39776877
19317500000 -0.12921678 -0.2292984 -0.00020932186 4.512745e-005 0.00054027798 -0.0025853869 0.19888777 -0.36513045
19338750000 0.18969446 -0.29871833 0.00010443225 8.0722253e-005 -0.0016314411 0.0013441406 -0.12999803 -0.53412229
19360000000 0.17483895 -0.20983945 -0.00020969738 -5.7406847e-005 0.001169531 7.0640148e-005 -0.1087794 -0.20286846
19381250000 0.15796813 -0.23064694 2.8860961e-005 9.4337112e-005 -0.00022383018 0.0002484516 0.15627362 -0.31030193
19402500000 0.20118234 -0.13870898 6.5083346e-005 3.0598412e-006 0.0029475586 0.0020446954 -0.053313296 -0.3727439
19423750000 0.029059365 -0.16086856 0.00012496603 -2.7508579e-005 0.0017363779 -0.0052678199 0.057102107 -0.47064915
19445000000 0.092330888 -0.16875036 -5.8345242e-005 -3.8911861e-005 -0.0010940559 -0.00035744574 -0.21264456 -0.37144899
19466250000 0.26021877 -0.11469813 -0.00013727718 -0.00011358745 -0.00055182498 -0.0023381531 -0.078336857 -0.36743554
19487500000 0.19272436 -0.06374412 -8.5428495e-005 -6.0424125e-005 -0.0031742221 -0.0019635772 -0.2725096 -0.47085661
19508750000 0.22790723 -0.16438472 -2.3228276e-005 0.00014169655 -0.0021917319 0.0031090928 -0.19707537 -0.087662794
19530000000 0.15719956 0.030160267 6.7754336e-005 0.00018464462 -0.00025819184 0.00019988563 0.11430784 -0.41569072
19551250000 0.059981808 -0.026771527 2.3544426e-005 -5.3913711e-005 0.0010900885 0.0018886431 -0.43460339 -0.71884847
19572500000 0.22149986 -0.040342707 -0.00015333416 0.00014396322 -5.0738374e-005 -0.00031201003 -0.18388115 -0.23270032
19593750000 0.16197342 0.09686546 8.0035425e-005 8.3791412e-005 0.00091732014 -0.0020913368 -0.17641567 -0.62462646
19615000000 0.084668413 -0.020670766 -0.00015227785 -3.7767302e-005 -0.0028145777 0.00070657633 -0.34474456 -0.40995172
19636250000 0.11160023 0.053542245 1.0393447e-005 4.0868654e-005 -0.00045969532 0.0002481004 -0.12745754 -0.36435035
19657500000 -0.090915322 0.10309945 9.2123111e-005 -0.00012564794 -0.0023459918 0.0014803229 -0.17993142 -0.41466272
19678750000 0.0028252569 0.0066102468 8.3236173e-006 9.7562428e-005 0.00016883573 0.005138285 -0.078819051 -0.73816454
19700000000 -0.0046195923 0.093034118 -2.9456171e-005 2.060159e-005 0.0037618941 -0.00081189885 -0.37533456 -0.50450414
19721250000 -0.023026822 0.063348837 0.00013726746 -8.8740118e-005 0.0013757659 0.0009148136 -0.085541606 -0.33807001
19742500000 -0.13577312 -0.036687739 1.4650434e-005 -0.00014663982 0.0012576354 -0.0017915767 -0.14739229 -0.69105148
19763750000 -0.16682644 0.028285725 2.4135916e-005 1.686332e-005 0.00066122535 -0.00093004637 -0.28763127 -0.34335589
19785000000 -0.21620488 0.060890824 -3.2355216e-005 1.5861433e-005 -0.0010071741 -0.0011899073 0.21394102 -0.29356703
19806250000 -0.07733237 -0.07501746 -0.00012610343 5.8407055e-005 -0.0017645792 0.00070037658 0.01222382 -0.81354105
19827500000 -0.099885665 0.026715184 3.9260987e-005 0.00014084055 0.0027105834 0.0018282835 -0.055443171 -0.35933232
19848750000 -0.21622229 -0.11911696 4.9375167e-006 9.0729998e-005 -0.00021050332 -0.0018697153 0.058790267 -0.41388613
19870000000 -0.12646684 -0.1271224 -2.8273853e-005 -0.00021471007 0.0028044239 0.00011441982 -0.025405455 -0.40990293
19891250000 -0.25007463 -0.17308122 -3.9915281e-005 4.9626487e-006 7.6159398e-005 -0.0033982438 0.13416959 -0.28533822
19912500000 -0.10359693 -0.32405475 -7.8219411e-005 -0.000127318 -0.0019456373 -0.0019403179 0.11509342 -0.01768475
19933750000 -0.01026886 -0.14865211 -5.275388e-005 -0.0001345247 -0.0010596218 -0.0007593754 0.26273042 -0.47356385
19955000000 -0.11337449 -0.2128 1.112749e-005 2.6336787e-005 -0.0049287253 -0.00070598727 -0.29474217 -0.35739744
19976250000 -0.15603192 -0.24592091 8.2155369e-005 -0.00013358267 0.0021542974 0.0047896127 0.055661459 0.029376712
19997500000 -0.17942913 -0.22678876 3.0938972e-005 -0.00014136822 -0.0006275269 -0.0021168911 0.032213673 -0.1529519
20018750000 -0.065089621 -0.28299668 -7.7342142e-005 -3.5385212e-005 0.00072268018 0.0026818956 -0.15137249 -0.0027581926
20040000000 0.16598196 -0.31413096 -3.0684034e-005 -7.8571153e-005 0.0022914647 -0.0015039482 0.041226868 0.23152547
20061250000 0.30550396 -0.081009351 -8.5810272e-005 3.6712849e-005 -0.0029076478 -0.0030752171 0.011855841 -0.26106724
20082500000 0.11160135 -0.052732073 5.1288112e-005 0.00016789488 -0.00206175 0.0038760065 -0.35057774 -0.20318526
20103750000 0.14801075 0.0096057234 -8.6826396e-005 8.1023718e-005 -0.00053363224 -0.00041077568 -0.34007946 -0.088526547
20125000000 -0.12105944 0.053974785 0.00011418497 -1.6228578e-005 -0.00041310335 0.0036602521 -0.35619691 0.10591029
20146250000 0.059897423 -0.17720452 0.00010749379 3.516443e-005 0.0026080857 0.0013606604 -0.29371428 -0.2771391
20167500000 0.28552729 -0.073090784 -0.00015414557 0.00017054963 0.0015528668 -0.00057701324 -0.79420692 -0.1584899
20188750000 0.21751659 0.01686435 -1.1728401e-005 -3.0586936e-005 0.0029241354 0.00084344682 -0.04667224 -0.12059925
20210000000 0.22724585 0.11046574 2.2641792e-005 -5.0982242e-005 0.00058394403 -0.0045514898 -0.57449764 -0.8375352
20231250000 0.03292137 0.37170479 -7.831461e-005 -7.3974152e-005 -0.0019254904 0.0011310867 -0.75465363 -0.15538953
20252500000 -0.11798172 0.19128232 -3.8780905e-005 3.4066608e-005 0.00044686394 -0.00022445421 -0.44871199 -0.43345982
20273750000 0.040052127 0.12394898 -6.8526271e-005 1.4803993e-005 -0.00071230938 4.03509e-005 -0.40288761 -0.3807908
20295000000 0.086185575 0.21702769 -0.00014979261 -6.5194756e-005 0.0012958705 0.0023959156 -0.44072166 -0.4730024
20316250000 0.032305665 0.18772675 -6.761033e-005 0.00019171997 0.002763265 -0.0018520799 -0.17714797 -0.56155217
20337500000 -0.10989289 0.25841948 -1.1737773e-005 -0.00013815763 -0.00043536685 -0.0030906044 -0.06729085 -0.79922688
20358750000 -0.3121773 0.36312172 0.00023868716 4.4216435e-005 -0.00028970843 -0.00055683457 -0.56524903 -0.69090468
20380000000 -0.33740065 0.093585186 -6.3017622e-005 6.5775428e-005 -0.0020092162 -0.0030222414 -0.3030923 -0.36401108
20401250000 -0.16391745 0.087895818 0.00012727217 -0.00017500891 -0.0023416698 0.0016482845 0.29385698 -0.67245197
20422500000 -0.24784237 0.055716272 3.9609557e-005 0.00019567163 -0.0014012235 0.00062392623 -0.18911168 -0.62767738
20443750000 -0.14073254 0.038144793 5.2338477e-005 2.6888063e-005 0.0003342641 0.002397971 0.15941949 -0.19972044
20465000000 -0.2663306 0.21766455 0.00013443458 0.00016189754 0.0021024721 0.00013415255 0.390255 -0.81707662
20486250000 -0.39129636 0.066028997 0.00022830159 -0.00010984097 -0.00076819491 -0.0014878698 -0.30312988 -0.32155338
20507500000 -0.19291985 -0.03342915 3.8880622e-005 -0.00015447069 0.00045118944 -0.00022133843 0.23212025 -0.098098904
20528750000 -0.15144953 -0.10893224 4.3637268e-005 -9.8810866e-005 -0.001959211 -7.0384616e-005 0.21959352 -0.15142074
20550000000 -0.10115667 -0.29146507 3.1601787e-005 -4.9915638e-005 -0.0013538094 0.00023249541 0.20146108 -0.041593436
20571250000 -0.087302841 -0.15180738 0.0001480925 -3.6346413e-005 -0.00055513129 0.0038966569 -0.0082650399 0.053358003
20592500000 -0.11533318 -0.099066354 -3.0201871e-005 -9.3764786e-005 0.0019972567 0.00025484603 0.35949644 0.2288907
20613750000 -0.086593285 -0.18682432 -6.9562637e-005 -2.7893166e-005 0.001032148 0.0022867052 -0.238959 -0.15869358
20635000000 0.25438094 -0.26609606 -9.6405311e-006 7.8312762e-005 0.003748703 -0.0025756555 -0.41519028 0.58119166
20656250000 0.10579853 -0.26089126 5.1389496e-005 8.4656269e-005 -0.0012586758 -0.00041759244 0.21295337 0.48314002
20677500000 0.2057402 -0.35612434 -0.00010518135 -0.00015601299 0.0013967848 -0.002505837 -0.3038891 0.038952395
20698750000 0.25903156 -0.08975856 -0.00014253681 -0.00010938337 -0.0036649834 0.0014215007 -0.55908334 0.4972868
20720000000 0.11959913 -0.13873811 0.00019508885 -1.7061584e-005 0.0024695373 0.0010485842 -0.29975674 0.30606705
20741250000 0.35851708 -0.10763028 4.0329127e-005 6.1496263e-005 -0.00070140482 -0.0012320444 -0.80385065 0.24951351
20762500000 0.36021167 -0.033579078 -4.4366272e-005 -7.88873e-005 0.002330391 0.0020544131 -0.69989586 0.29185176
20783750000 0.25190154 -0.075640313 1.9776968e-005 -8.1872771e-005 0.00034933144 -0.0040821373 -0.49886262 0.3362537
20805000000 0.41544107 0.061018888 6.3668609e-005 -5.2481155e-005 -0.00050893484 0.00027291689 -0.44153258 -0.063411355
20826250000 0.26312667 0.23472841 -8.1812046e-005 -9.9739176e-005 -0.0003284917 -0.0032730631 -0.90898269 -0.22936383
20847500000 0.20961174 0.097970426 1.8922197e-005 -9.2034286e-005 -0.0043866662 0.00031553651 -0.59474975 -0.037983026
20868750000 0.27936441 0.16402042 0.0001006133 7.8446763e-005 7.2198294e-005 0.0023159934 -0.45282614 -0.75252926
20890000000 0.16723324 0.19120635 -6.1665705e-005 -2.9923678e-005 -0.0019752691 0.00020803885 -1.0465655 -0.35676378
20911250000 0.22082008 0.10614641 -7.0933937e-005 1.6092301e-005 0.0022708303 0.0027203758 -0.38992512 -0.20518476
20932500000 0.1951081 0.29772153 0.00011177897 6.5753877e-005 -0.00014885614 -0.0023372618 -0.46275619 -0.74951857
20953750000 -0.049885735 0.35077474 3.5903129e-005 -0.00017913814 0.00032952425 0.00078814238 -0.42641491 -0.62212825
20975000000 0.15725686 0.044344127 0.00016633104 -7.5293276e-005 -0.00095227885 -0.0019375449 -0.19357674 -0.55720645
20996250000 0.053419761 0.10982303 0.00011251182 -0.00011308915 -0.0022848784 0.0016896236 -0.16208382 -0.57186425
21017500000 -0.11816496 -0.020043572 0.00010095147 7.7147568e-005 0.0001400113 0.0013142083 -0.13895276 -0.71022242
21038750000 -0.020246254 0.048444971 0.00015159033 -4.8123831e-005 -0.00096876523 0.0033247638 -0.20473072 0.15873626
21060000000 -0.21732622 0.15796138 0.00012524707 5.0853901e-005 0.0043029198 0.00021200164 0.5849998 -0.30722082
21081250000 -0.22733326 -0.034938078 -0.00018244135 7.9554193e-005 -0.00037549553 0.00070141925 0.077975027 -0.59757763
21102500000 -0.084849544 -0.067255363 1.5615386e-005 -8.3292492e-005 0.0042372136 -0.0028903198 0.11506028 0.028393591
21123750000 -0.11876731 -0.14516404 -0.00019902842 -2.937375e-005 -0.0030657554 -0.0012147368 0.44975823 -0.24199592
21145000000 -0.042299215 -0.36157757 3.6502963e-005 5.030493e-005 0.00065812719 0.00048211514 -0.067528948 -0.33828586
21166250000 0.062047888 -0.17106196 -1.8556631e-005 7.7426776e-005 -0.0016604151 -0.0011312265 0.1376521 0.38288948
21187500000 -0.023556262 -0.19773947 2.7023194e-005 -1.4229428e-005 0.00066942401 0.0033018966 0.095771894 0.11687219
21208750000 0.037055053 -0.38248017 -8.0433245e-005 -7.1091774e-005 0.00075145939 -0.0026119552 0.14979586 0.1017969
21230000000 0.052793823 -0.23231724 -5.5144395e-005 -3.608947e-005 0.0032432866 0.0020586292 -0.11962479 0.06565433
21251250000 -0.1186197 -0.46016264 -9.0972339e-005 2.3837014e-005 -0.00099369138 -0.0064882613 -0.022470389 0.52809846
21272500000 0.17743695 -0.39370316 -4.2515905e-005 0.00012280025 -0.0023445308 0.0023538668 0.12687291 0.034401324
21293750000 0.25369558 -0.17444897 9.6920856e-005 -9.5215262e-005 0.00042599617 -0.0041567907 -0.72204763 0.36524522
21315000000 0.25871235 -0.29492173 -1.863012e-006 -0.00014162771 -0.0054305112 0.002618005 -0.090230212 0.54067242
21336250000 0.32586664 -0.2584478 -0.00010232712 4.2120013e-005 0.0034366858 0.0015627433 -0.25996286 -0.018965077
21357500000 0.18980938 -0.20989464 7.9463862e-005 -0.00011769633 -0.0017230434 0.00020622449 -0.66271329 0.28677183
21378750000 0.088583715 -0.28870097 0.0001975683 -0.00015959988 0.0017013124 0.00059561932 -0.37515247 0.34645611
21400000000 0.29460177 -0.2446727 -2.1728756e-005 -0.00018049231 0.00057367218 -0.0015623713 -0.61066562 -0.087833352
21421250000 0.20114248 -0.10320992 8.5614935e-005 5.5496253e-005 -0.0018131823 0.00046262247 -0.73414433 0.10895918
21442500000 0.30700204 -0.20500241 -8.7738306e-005 4.8160808e-005 -0.00038293941 -0.00029180717 -0.60031217 0.15658057
21463750000 0.33081055 -0.014376276 5.984099e-005 -3.1152678e-005 -0.0017830788 0.0023680648 -0.29969668 0.054825343
21485000000 0.072700411 -0.050308738 -0.00014993994 1.6262768e-005 0.00071320019 0.0017501219 -0.62653321 -0.35429254
21506250000 0.18724026 -0.10687379 -3.0685231e-005 -9.373477e-006 0.0032347271 0.0017379264 -0.52930707 0.066706896
21527500000 0.065630205 0.065923579 7.4374802e-005 7.7134908e-005 0.00036455758 -0.0020253197 0.054345157 -0.25337172
21548750000 0.019600023 -0.083816983 -0.00016779234 -0.00023050557 0.0014506254 0.001033523 -0.7947771 -0.51732814
21570000000 0.1804219 -0.06870012 -0.00010624431 0.00014923589 0.0012705964 -0.0031035189 -0.19403416 0.075644493
