!Keysight Technologies,N5242B,MY47200105,A.14.00.23
!Date: Friday, May 10, 2024 11:15:22
!Correction: S11(C  2-Port  ) 
!S21(C  2-Port  ) 
!S12(C  2-Port  ) 
!S22(C  2-Port  ) 
!S2P File: Measurement: :
# Hz S  RI   R 50
18000000000 0.13996382 -0.026031204 -7.8496232e-005 5.5218909e-005 -0.00040669565 0.0045206612 0.87734151 -0.42311454
18021250000 0.062157456 -0.21826077 -4.1200614e-008 -2.4501251e-006 0.00080424093 0.001794529 0.31913933 -0.19453742
18042500000 0.22605675 -0.092440367 0.00019672219 4.353554e-005 0.0029402215 0.0018878987 0.49827477 -0.05266998
18063750000 0.14882822 0.020910798 -2.8263462e-006 8.1779996e-005 0.004284651 0.00038885674 0.40932557 -0.19039237
18085000000 0.20884708 -0.052245565 -0.00013035552 2.3338343e-005 0.0022652829 -0.0061031007 0.42552447 0.092192478
18106250000 0.34070733 -0.0066803289 5.8970301e-005 5.2259951e-005 -0.0016004415 -0.00092422712 0.47996262 -0.090928346
18127500000 0.20346487 -0.045249902 -9.3124472e-005 -1.4661934e-005 -0.0027333049 -0.0038074635 0.56784409 -0.20796379
18148750000 0.1956595 -0.044163685 -7.3217284e-006 -5.3322627e-005 -0.0021054349 0.0027646027 0.30420601 -0.36644825
18170000000 0.30670518 0.086149998 6.4195541e-005 7.5331292e-005 0.00021850179 0.0012722488 0.09804026 -0.12600565
18191250000 0.15378597 0.1957757 0.00020660661 8.2639694e-005 0.0011920711 -0.00060983159 0.27347669 -0.089376934
18212500000 0.24548212 0.067577288 -6.9484158e-005 3.0053054e-005 0.0014050117 0.00015997651 0.099382088 -0.12495562
18233750000 0.16337791 0.14744943 -6.3604741e-005 -3.1194348e-005 5.3271862e-005 -0.0039294162 0.32553339 -0.15358794
18255000000 0.024942692 0.063576952 1.9043599e-005 -8.5826818e-005 -0.0026228314 -0.0009933603 0.43099344 -0.54332209
18276250000 0.14388342 0.0076464755 -5.8341752e-006 4.4950371e-005 -0.0034249783 -0.00043608219 0.15192167 -0.4654274
18297500000 0.067217432 0.15841135 -4.8256661e-005 -0.00012352754 -0.0022135065 0.0026009469 0.077891201 -0.46413442
18318750000 0.025908627 0.12397783 1.7569703e-006 4.8717662e-005 -0.00071522611 0.0027523895 0.11591999 -0.34516439
18340000000 0.074347749 0.082980141 5.2258591e-005 3.8867172e-005 0.0022108199 0.0036281715 0.14169051 -0.24558008
18361250000 -0.12406779 0.10914958 -4.4819357e-005 -6.1417173e-005 0.0028052027 -0.00052966585 0.36310223 -0.47562495
18382500000 -0.081987627 -0.023077734 -1.9446366e-005 -8.5638412e-006 0.0010232782 2.8829869e-005 0.39859745 -0.41299388
18403750000 0.0078237196 -0.018951505 1.2447069e-005 -6.8251866e-005 0.00035737234 -0.0030197774 0.28267491 -0.67490309
18425000000 -0.033287339 0.019850435 6.4580025e-005 1.8046236e-005 -0.0025568476 0.0021245235 0.073014364 -0.56322765
18446250000 -0.02376814 -0.12598848 -6.9464324e-005 -3.6408405e-006 -1.9707792e-005 8.4210173e-005 0.50180113 -0.42296633
18467500000 0.021342695 0.0046391739 -0.00012639185 0.00020281476 0.0012303502 0.0042191292 0.26438731 -0.54764438
18488750000 -0.1954941 -0.03158981 3.3398916e-005 7.5327494e-005 0.0035618483 -0.001424002 0.35767141 -0.38790262
18510000000 -0.08664497 -0.15673992 8.085728e-005 -6.1198334e-005 0.0022285166 3.6128618e-005 0.50692427 -0.54253519
18531250000 -0.028859567 -0.014919101 -4.3800283e-005 -2.1688358e-005 0.0025337853 -0.0035134174 0.37686005 -0.54401505
18552500000 -0.060917281 -0.19173802 -6.949329e-006 -5.4676577e-005 -0.0021758934 -0.0043302616 0.2848002 -0.52888471
18573750000 0.081503153 -0.18878968 -5.0796384e-006 -5.4391574e-005 -0.0016627944 0.0013462503 0.15870422 -0.19844088
18595000000 0.088451006 -0.067383923 -8.6011809e-005 -2.0455667e-005 -0.0013908932 -0.0033197887 0.43090764 -0.11556007
18616250000 0.044336028 -0.13985506 -0.00011336982 2.2720202e-005 -0.0023731438 0.0038426733 0.37785107 -0.46427584
18637500000 0.17368495 -0.10242618 -1.1651157e-005 3.567787e-006 0.0021640146 -0.0003653561 0.26467052 -0.16394547
18658750000 0.079290703 -0.063581452 -2.0433585e-005 3.7641055e-006 -0.0004663509 0.00079117861 0.48909885 -0.4944829
18680000000 0.084158346 -0.20325087 -8.702746e-005 3.0181311e-005 0.001360171 -0.0016236395 -0.033206902 -0.44756004
18701250000 0.23993611 -0.090380155 4.9293521e-006 -4.0002215e-005 -0.0030719335 -0.0028544257 0.22518364 -0.11124437
18722500000 0.13934657 -0.053683288 -0.00021338408 -2.5972089e-005 -0.002705642 0.0023250347 0.16787863 -0.29777119
18743750000 0.22532895 -0.1523497 3.0785352e-005 -5.6448724e-005 -0.0013181661 0.00019579711 0.152851 -0.2532413
18765000000 0.21414705 0.081302769 0.00018644654 -8.3973828e-005 -0.0025058524 0.0040146783 0.18777625 -0.35703295
18786250000 0.078146659 -0.015420728 -8.8474117e-005 -1.282841e-005 0.002798938 0.0043217391 0.055124089 -0.34706995
18807500000 0.23097211 -0.094323367 -2.8758527e-006 -6.8776608e-005 0.0030240971 -0.0014450618 0.032404691 -0.433393
18828750000 0.13409716 -0.044600803 0.00010717857 -1.651753e-005 -0.00028088625 0.00020136504 -0.022282055 -0.46264952
18850000000 0.14601631 -0.053142421 -8.8284196e-006 6.0476894e-005 0.0033177866 -0.001800264 0.10362941 -0.12385236
18871250000 0.23725003 0.089153379 1.267843e-005 -0.00012725279 -0.0031629028 -0.00067339389 0.12646373 -0.59106511
18892500000 0.13420917 0.2348801 8.7203924e-005 1.8831448e-005 0.0018664842 0.0013233247 0.050138459 -0.43281779
18913750000 0.10584455 0.026852608 4.6757243e-005 -1.5376052e-005 -0.00064297544 0.00050675869 0.20517181 -0.61214972
18935000000 0.082586475 0.0019407606 -5.7715519e-005 0.00010317491 0.0026859485 0.0015389448 -0.069169126 -0.68140751
18956250000 -0.039459836 -0.0067320671 -6.6135974e-005 7.2153249e-005 0.0021472215 -0.0013114219 -0.012676325 -0.50360775
18977500000 0.028032208 -0.06748876 -9.5208859e-005 -8.1678227e-005 0.0021182077 -0.0028349676 0.12990217 -0.41831747
18998750000 0.072954386 0.16992278 -8.3779918e-007 3.3794386e-005 -0.0011197482 -0.0017474188 0.24972939 -0.52853251
19020000000 -0.044385869 0.13279001 -3.548359e-005 4.0731742e-005 -0.0015950768 -0.002921697 0.13454342 -0.59434277
19041250000 -0.10080084 0.0014095072 -9.1401977e-005 -5.3433178e-005 -0.0023813224 0.00072139129 -0.0026556067 -0.48948756
19062500000 -0.10374928 0.074564099 -3.3909884e-005 7.3047318e-005 -0.0026118911 0.00082162151 0.28277451 -0.61576992
19083750000 -0.078284301 -0.18073204 5.2941468e-006 2.1879683e-005 0.0011532316 0.0021013797 -0.041121453 -0.60684317
19105000000 0.087683447 -0.055039763 -0.00014575965 0.00025571516 -0.00041344753 -0.00058500608 0.021503897 -0.22366291
19126250000 0.059846766 0.053342815 -2.8588865e-005 8.7313681e-005 0.00035843108 -0.00031441022 0.45378205 -0.54763579
19147500000 -0.06029902 -0.047072917 -7.0842223e-005 0.00012546654 0.00026707226 -0.0013347925 0.10565659 -0.58303392
19168750000 -0.11915051 -0.10393629 -2.0563331e-005 -0.00011042343 -0.0036496609 -0.00035751786 0.15855815 -0.46742615
19190000000 -0.16780981 -0.19213739 -9.9456011e-005 -7.9700276e-006 -0.00044609184 0.0023508463 0.13623059 -0.48445335
19211250000 -0.11026902 -0.29527587 3.8197813e-005 -0.00018066326 -0.0016608965 0.0016376713 0.19370925 -0.45017147
19232500000 0.13545161 -0.15648285 1.2413701e-005 5.6935307e-005 0.0021046959 0.0030588359 -0.098504767 -0.33833659
19253750000 -0.010660786 -0.10940955 0.0001352809 8.3694758e-005 0.0019936799 0.00075534178 0.30407831 -0.27586693
19275000000 0.044170022 -0.19342406 -4.3026579e-005 7.1054048e-005 0.0028500895 -0.00033061547 0.18264441 -0.52456832
19296250000 -0.0039968858 -0.1319537 -0.00010105206 -7.617215e-006 0.00023332736 -0.0014422419 0.025705926 -0.3980979
19317500000 -0.13409732 -0.23174191 9.5946862e-006 -9.9224111e-005 3.2359228e-005 -0.0013993565 0.20335892 -0.36410642
19338750000 0.19477573 -0.29568067 -0.00019372885 8.8424997e-005 -0.00059148262 0.00036592066 -0.13011968 -0.53544873
19360000000 0.17901528 -0.20846353 0.00013241572 8.687182e-005 -0.0003083288 0.0010252437 -0.10808972 -0.20030089
19381250000 0.16082288 -0.23492882 -6.7351398e-006 5.8695296e-005 0.001114544 0.00031520508 0.15936095 -0.3104324
19402500000 0.20129614 -0.13853186 3.6448502e-005 -1.2661587e-005 0.0011184328 0.0013665615 -0.053104866 -0.37229916
19423750000 0.025426582 -0.15948248 -3.2708547e-005 2.3027216e-005 0.0029824784 -0.0039345575 0.058976509 -0.47234502
19445000000 0.093759283 -0.16552371 -6.3716681e-005 6.5393106e-005 -0.0024519698 -0.0018094521 -0.21500239 -0.37031442
19466250000 0.26505342 -0.11245774 0.00014866354 4.2251486e-005 0.00017752658 -0.001271704 -0.076300435 -0.36706865
19487500000 0.19475463 -0.06138761 0.00010125883 -8.4458778e-005 -0.0032115628 -0.0031395587 -0.27309388 -0.47371805
19508750000 0.23029485 -0.16653924 -6.2673251e-005 3.4882913e-005 -0.0023242044 0.0036123493 -0.19696058 -0.084930882
19530000000 0.151941 0.031855013 -0.00012016689 2.9446577e-005 0.0002775843 -0.00061284692 0.1195512 -0.41802645
19551250000 0.055459391 -0.024781713 7.1983603e-005 6.6174965e-005 0.00056855235 0.0021835943 -0.43833753 -0.72395003
19572500000 0.22428156 -0.03769828 -8.2706334e-005 1.4349206e-005 0.00078259269 -0.00066477718 -0.18287508 -0.23055212
19593750000 0.16095272 0.099367067 0.00015049844 -7.5293785e-005 0.0004625275 -0.001803534 -0.17604004 -0.62844831
19615000000 0.082205303 -0.023238111 0.00010590773 3.3250013e-005 -0.0025891936 0.0011720436 -0.34450626 -0.4102985
19636250000 0.11131418 0.053519133 0.00016211528 2.4616975e-005 -0.00064708362 -8.4572697e-005 -0.12658431 -0.36430633
19657500000 -0.099993184 0.10437586 5.2219752e-006 -2.2038928e-005 -0.0021180764 0.0018713165 -0.17860782 -0.41353589
19678750000 0.0030701 0.0062099136 0.0001885728 2.8763552e-005 0.00046797597 0.0047455607 -0.075095631 -0.74106395
19700000000 -0.0047343806 0.091212496 1.7550656e-005 -4.7531779e-005 0.0033682517 -0.00015281416 -0.37706262 -0.50491172
19721250000 -0.020277452 0.060729995 -2.6100835e-005 -4.8946291e-005 0.0014158249 5.2517666e-005 -0.081438348 -0.33495921
19742500000 -0.13881342 -0.041855186 0.00012220799 -2.9759092e-005 0.00029619355 -0.0013510744 -0.14548661 -0.6944617
19763750000 -0.16920741 0.025567915 -5.5955399e-005 0.00017666531 0.0012585962 -0.0014526752 -0.28828657 -0.3415767
19785000000 -0.21927813 0.060279068 -0.0001091951 1.0901358e-005 -0.0019426696 -0.0011064643 0.21834873 -0.29143843
19806250000 -0.074001357 -0.07873375 -6.5450663e-006 -6.5045278e-005 -0.0011463581 0.0004095546 0.013647496 -0.81691527
19827500000 -0.094940819 0.025237316 7.5096053e-005 -5.9372331e-005 0.002420747 0.001946305 -0.055241182 -0.35822374
19848750000 -0.21700482 -0.12488268 1.1196782e-005 0.00016311088 -0.00010872279 -0.0019272029 0.06054049 -0.41375235
19870000000 -0.12688456 -0.12768064 3.9814131e-005 -4.5168126e-005 0.0031998039 0.00035597992 -0.024508731 -0.41057795
19891250000 -0.25498024 -0.17310205 1.7905169e-005 -0.00012609031 -0.00043422604 -0.0043206373 0.13572699 -0.28812242
19912500000 -0.10025891 -0.32700112 -8.068826e-005 -0.00013376834 -0.00082430476 -0.0010638451 0.11404251 -0.015516087
19933750000 -0.0075707389 -0.14739268 2.0875135e-005 5.9645448e-005 -0.0016245734 -0.0012861706 0.26484933 -0.47839937
19955000000 -0.10989353 -0.21502092 1.9404484e-005 4.2567379e-005 -0.0048949993 0.00049438758 -0.29940054 -0.36306429
19976250000 -0.1565934 -0.24570265 -0.00018764267 -1.7558452e-005 0.0028997953 0.0041181538 0.056741297 0.029197821
19997500000 -0.1829904 -0.22541474 -0.00013021025 -4.4404831e-005 -0.0014313415 -0.001249829 0.033616021 -0.15686785
20018750000 -0.06750717 -0.27875972 -6.5576656e-005 8.1831131e-005 0.0016528425 0.0026899856 -0.15036996 -0.0047156946
20040000000 0.16594017 -0.31214824 -0.00012969716 -0.00019725945 0.00083454174 -0.0015651344 0.044068392 0.23078373
20061250000 0.30921099 -0.077622004 -0.00011013284 3.2615098e-005 -0.0021824935 -0.0024050346 0.014760144 -0.26543233
20082500000 0.10733606 -0.054248832 7.5917807e-005 0.00010458445 -0.0023161259 0.0029887513 -0.34902683 -0.20701534
20103750000 0.14831519 0.0095271561 4.1503154e-005 0.00016365672 -0.00095893873 0.00062802137 -0.3378849 -0.091060132
20125000000 -0.1312779 0.053783342 7.2168987e-005 0.00011940973 0.00026995139 0.0028517188 -0.35269159 0.10630453
20146250000 0.058302399 -0.18079652 0.00017329708 6.9088885e-005 0.0019269835 0.0013724713 -0.28764096 -0.2822049
20167500000 0.28734055 -0.073685832 -0.00019213697 -0.0001263179 0.0025082224 2.264897e-005 -0.79671615 -0.15945387
20188750000 0.21700168 0.01370068 8.8046581e-006 -1.2585193e-005 0.0024289598 -0.00038406849 -0.0371379 -0.11928785
20210000000 0.22907963 0.1053986 -0.0001812461 7.178996e-005 0.00072922459 -0.0037416823 -0.57180613 -0.84356236
20231250000 0.02580901 0.36797729 -0.00014041517 -0.00010895272 -0.0014515977 0.00051016978 -0.75430697 -0.15131231
20252500000 -0.12259611 0.18443902 1.9236481e-005 -1.6051776e-005 0.00015902692 8.1268401e-005 -0.44547442 -0.43475917
20273750000 0.041700792 0.12073596 -0.00015723969 -4.5921101e-006 -0.00069816306 0.00072866923 -0.3995721 -0.37890771
20295000000 0.088753991 0.21240008 -5.2682066e-005 -0.00015884537 0.0013535917 0.0016789018 -0.44308922 -0.47266677
20316250000 0.034287702 0.18177953 7.0606977e-005 -0.00010272369 0.0025779107 -0.00061500352 -0.17590362 -0.55965549
20337500000 -0.11311335 0.25215343 -4.4604338e-005 -2.7537742e-005 0.00035118742 -0.0033377137 -0.065312237 -0.79922122
20358750000 -0.31713119 0.36273658 -5.121799e-005 -0.00018928004 -0.0013986953 -0.00053380127 -0.57108849 -0.69207752
20380000000 -0.3371346 0.087610625 6.7742956e-005 0.00011687525 -0.0015040032 -0.0019378447 -0.30583334 -0.35961819
20401250000 -0.15536976 0.089398213 7.5017815e-005 -5.5617526e-005 -0.003079464 -0.00031511587 0.2972841 -0.67328084
20422500000 -0.2434593 0.053745329 6.9329129e-005 -5.8059089e-005 -0.0011675193 0.0024570411 -0.19398652 -0.62991869
20443750000 -0.13462329 0.03502962 7.8336423e-005 1.9817267e-005 9.2174741e-005 0.00030557672 0.15818502 -0.19658649
20465000000 -0.26797503 0.22483981 -0.00010910378 9.9787947e-005 0.0012100502 0.001814718 0.39191338 -0.82383609
20486250000 -0.39055517 0.069689967 -0.00017336704 -0.00016205087 0.00014332736 -0.0023478395 -0.31057701 -0.3238605
20507500000 -0.18538287 -0.027615596 -2.2741036e-005 3.9509941e-005 -0.00058732473 0.00032703747 0.23286462 -0.10091005
20528750000 -0.14660217 -0.10740362 1.5724934e-005 -1.5385665e-005 -0.00038415441 -0.00048292606 0.22014883 -0.15585721
20550000000 -0.097528696 -0.29496866 0.00020168291 -5.8304598e-005 -0.0020730139 0.00069212576 0.20086087 -0.046258651
20571250000 -0.093594059 -0.14960892 -4.8136018e-005 -5.0035633e-005 0.00057410449 0.0032901072 -0.010873403 0.049342643
20592500000 -0.12104745 -0.093950935 5.4110827e-005 0.0001211382 0.0013244426 0.0010005828 0.36425033 0.22722442
20613750000 -0.093076751 -0.18587041 -6.2127627e-005 0.00013909281 0.0016990612 0.0018332395 -0.23896331 -0.1679762
20635000000 0.26137474 -0.26406112 -3.4537818e-005 0.00018708745 0.0025631879 -0.0024590099 -0.41683212 0.58292198
20656250000 0.098475255 -0.26104736 0.0001041682 0.00033728473 0.00028407163 0.00022379745 0.22241984 0.48182681
20677500000 0.19954151 -0.36106595 -6.7328481e-005 -3.9097467e-005 -0.00050656003 -0.0036504338 -0.30111614 0.031453069
20698750000 0.25134677 -0.083921924 1.4889105e-005 2.8621937e-005 -0.0022718331 0.0033959604 -0.55614543 0.49737504
20720000000 0.10863845 -0.142427 0.00016025224 -6.0580271e-005 0.0010579798 -0.0016945231 -0.29329774 0.30527952
20741250000 0.36221549 -0.10877588 0.00013969414 -8.7067092e-005 -0.00050150929 0.0019473627 -0.80021441 0.24535652
20762500000 0.36015719 -0.036202896 -9.4309675e-005 -4.4616532e-005 0.0037165121 -0.00096565788 -0.69747978 0.29335114
20783750000 0.2455949 -0.080230676 9.7657583e-005 -2.5102925e-005 -0.002132253 -0.0019251696 -0.49347898 0.34095827
20805000000 0.41230372 0.058343805 -4.6533612e-005 6.7600289e-005 0.0030954818 -0.00097311067 -0.43466419 -0.063665971
20826250000 0.25736976 0.23469415 6.0107843e-005 3.0092351e-006 -0.003903582 -0.003671282 -0.9117924 -0.22862937
20847500000 0.21078046 0.092590384 0.0001900881 0.00012290364 -0.0010047406 0.0016374962 -0.59299725 -0.031671997
20868750000 0.28421462 0.15631515 6.5145505e-005 0.00010294515 -0.0019042713 -0.0006951656 -0.44603318 -0.7525419
20890000000 0.16832122 0.18561877 -0.00012777139 -8.4496147e-005 -0.00092377805 0.0033133633 -1.0538583 -0.35190254
20911250000 0.22666302 0.10059657 3.1571042e-005 -1.645999e-005 0.0029824085 0.00012017928 -0.38733849 -0.19930607
20932500000 0.20268612 0.29954538 -0.00019015084 -0.00026611125 -0.0016912789 -0.00030053093 -0.46537104 -0.75110799
20953750000 -0.046948478 0.35284993 0.00014179735 7.6699696e-005 0.0022805789 0.0002515197 -0.43081808 -0.62154382
20975000000 0.1744082 0.036433127 -5.8200374e-005 -3.52241e-005 -0.0023974432 -0.0019299075 -0.19828297 -0.55589449
20996250000 0.064282812 0.10705837 0.00023963964 -2.0854879e-005 -0.0016766167 0.0024705441 -0.16442046 -0.56936735
21017500000 -0.11572362 -0.025129627 0.00018433503 -8.1074781e-005 -0.00019549069 7.3202418e-006 -0.14269133 -0.71488035
21038750000 -0.01889788 0.050031897 0.00013650446 4.7453221e-005 -0.0013978985 0.0042184554 -0.21096401 0.16464001
21060000000 -0.21802755 0.16689619 -4.4553126e-005 -8.3053594e-005 0.0039272984 -9.0346373e-005 0.5880276 -0.3091023
21081250000 -0.22146118 -0.032959819 -0.00014768288 0.0001372855 3.3976535e-006 0.0004577091 0.072920047 -0.60564631
21102500000 -0.076518707 -0.065817609 -8.9691915e-005 5.5219229e-005 0.0028099348 -0.0021051439 0.11136916 0.028062047
21123750000 -0.11595725 -0.14059137 0.00022222281 6.593937e-005 -0.0012180418 -0.0022039639 0.45133659 -0.24967448
21145000000 -0.045011748 -0.36092156 0.00015472287 9.4917901e-005 -0.0012234517 0.00019922662 -0.071382396 -0.34843042
21166250000 0.060155448 -0.15928291 8.6768217e-005 -4.0940409e-005 0.00057855796 -5.0938332e-005 0.13563357 0.3821139
21187500000 -0.030827822 -0.1893318 0.00013985328 -0.00010801374 -0.0010381087 0.00096901308 0.095278606 0.11303455
21208750000 0.037314218 -0.38510743 -0.00021978763 2.421647e-005 0.0017723913 0.0012634333 0.15234521 0.096747652
21230000000 0.05184637 -0.22405143 -0.00012394018 -0.00013895538 0.0031729431 -0.0016752067 -0.11969813 0.059496991
21251250000 -0.13052672 -0.45922419 -0.00013443019 -2.3875171e-005 -0.0016788139 -0.0028220101 -0.017980237 0.53127432
21272500000 0.17271394 -0.38695863 0.00016861332 -0.00013765795 0.00019484152 0.00010080426 0.13637845 0.028366882
21293750000 0.24989361 -0.16549687 7.4614036e-005 0.00034418688 -0.0027755545 -0.0022911031 -0.72283083 0.36546201
21315000000 0.2567507 -0.29701 -8.6874184e-005 -3.4168306e-006 -0.0023119575 0.0023336471 -0.083183087 0.54180223
21336250000 0.32745817 -0.26509562 0.00010369388 -8.4565574e-005 0.00041692812 0.0015947751 -0.25424558 -0.024041448
21357500000 0.18842705 -0.21392494 -6.7699853e-005 0.0001378351 8.0065402e-005 0.00061179826 -0.66194135 0.28797978
21378750000 0.081574768 -0.29587275 1.7538145e-005 -1.856097e-006 0.0011343788 0.00017563965 -0.37124982 0.34991798
21400000000 0.29779515 -0.24424812 -0.00010432234 -7.3315285e-005 0.0010216756 -0.00099813496 -0.60845667 -0.087885164
21421250000 0.19568232 -0.10356437 -0.00014632144 3.3357228e-005 -0.0018341143 -0.0004603694 -0.73253006 0.11183202
21442500000 0.31214908 -0.21865013 5.1447227e-005 -3.6395853e-005 0.00048404906 -0.00073765061 -0.59977734 0.16250892
21463750000 0.33844322 -0.017018434 4.1008989e-005 -4.0252195e-005 -0.0028818871 0.0020354595 -0.29516095 0.059358295
21485000000 0.069157384 -0.055288471 -5.9095528e-005 0.00016336516 0.0020722006 0.0026606778 -0.63028562 -0.35458928
21506250000 0.19317837 -0.11141449 3.2074648e-005 2.9505188e-006 0.0017569929 0.00072223961 -0.5319798 0.072466917
21527500000 0.067252517 0.069250785 -0.00011407405 0.00038561405 0.0014041258 3.5055247e-005 0.060069431 -0.2508803
21548750000 0.022995919 -0.084965557 0.00023751364 -2.223798e-005 0.0014199272 -0.001143291 -0.80358708 -0.51969421
21570000000 0.18998128 -0.0723885 -5.11172e-005 -0.00013182916 0.00092751294 -0.0018063152 -0.19619511 0.080412328
