!Keysight Technologies,N5242B,MY47200105,A.14.00.23
!Date: Friday, May 10, 2024 11:02:27
!Correction: S11(C  2-Port  ) 
!S21(C  2-Port  ) 
!S12(C  2-Port  ) 
!S22(C  2-Port  ) 
!S2P File: Measurement: :
# Hz S  RI   R 50
18000000000 0.13210295 -0.02035754 -3.7699636e-005 8.7551081e-005 0.0033404459 0.0083251745 0.89000612 -0.42657322
18021250000 0.060331196 -0.22186397 9.166573e-005 -9.0117588e-005 -0.00063078216 -0.0029830555 0.31426993 -0.18918407
18042500000 0.22126792 -0.088481076 -9.7865843e-005 -5.9424572e-005 0.0014583532 0.0070022754 0.50354904 -0.042630427
18063750000 0.13850509 0.016037349 -2.4223544e-005 3.234969e-005 0.0083166761 -0.0033141866 0.4174467 -0.18843232
18085000000 0.20740728 -0.052508336 7.9187004e-005 0.00013404923 -0.0032846383 -0.0049804193 0.43280661 0.095921651
18106250000 0.33557487 -0.00089532876 8.7141445e-005 -9.651322e-005 0.0040891473 0.00068928057 0.48264471 -0.089045577
18127500000 0.20257972 -0.051997673 -5.3947093e-005 9.4066432e-005 -0.0062447353 -0.0074094636 0.57803464 -0.20287423
18148750000 0.19503061 -0.048419818 8.508654e-005 -4.685466e-005 -0.00073853025 0.0069934758 0.30630705 -0.36736622
18170000000 0.30180115 0.086335376 -1.1701805e-005 -0.00010246343 0.0016903682 -0.0021930954 0.097097822 -0.11075737
18191250000 0.15333937 0.19242361 1.5973517e-005 -2.1930497e-005 -0.0019914892 0.0011142575 0.28573492 -0.075825743
18212500000 0.25108773 0.070690632 3.5785288e-005 -2.7296242e-005 0.0043865857 0.0010779361 0.10428798 -0.11630468
18233750000 0.16204762 0.14686452 -9.2191731e-005 -2.8824878e-005 -0.0013302738 -0.0064252992 0.32954723 -0.14898759
18255000000 0.026659334 0.056584679 -1.9198666e-005 -3.5459627e-005 -0.003655602 0.0022252109 0.43751052 -0.53491092
18276250000 0.14637206 0.0084955851 -4.983279e-005 6.1365688e-005 0.0002823869 -0.0028317457 0.15664332 -0.45932192
18297500000 0.066210471 0.15646927 -9.7337281e-005 -2.1811089e-005 -0.0070528397 0.0031460342 0.078202143 -0.45816749
18318750000 0.032657448 0.12684637 -0.00010234433 -4.8659254e-005 0.0038574515 0.0052308259 0.11743315 -0.33524975
18340000000 0.079797804 0.090549111 0.00011084885 -5.546544e-005 -0.00098919519 -0.0014868968 0.14263511 -0.23700744
18361250000 -0.12224261 0.10565617 3.4855086e-005 -6.448901e-005 0.0028046353 0.0056761689 0.35936254 -0.47781947
18382500000 -0.078098863 -0.020252112 -4.4878114e-005 -6.4413565e-005 0.0043719169 -0.0061421758 0.39348769 -0.40127811
18403750000 0.0042687901 -0.016027655 -7.7179779e-005 9.8754055e-005 -0.0053147562 0.0010424182 0.2783044 -0.67326611
18425000000 -0.035911635 0.024392968 -3.8810056e-005 7.2021234e-005 0.0037056773 0.00083502103 0.064951621 -0.56295705
18446250000 -0.023938721 -0.11744718 4.2219308e-005 1.7227228e-006 -0.0051677451 -0.002123764 0.50631475 -0.41865978
18467500000 0.014562707 0.012045854 3.1721644e-005 -6.9497248e-005 0.0038169106 0.0082175592 0.265973 -0.54975653
18488750000 -0.20171858 -0.027476829 7.6012157e-006 4.6846249e-005 0.0038834086 -0.0055072326 0.36184356 -0.39469251
18510000000 -0.091437854 -0.15050584 5.4455228e-005 0.00016583331 -0.00068923214 0.003158093 0.50512809 -0.55151039
18531250000 -0.035728171 -0.010370136 -5.7677058e-005 6.1461586e-005 0.0066038645 -0.0037070736 0.37901345 -0.54800141
18552500000 -0.05654972 -0.19023992 0.00011563881 0.00010534987 -0.0052926992 -0.006941238 0.2873759 -0.53646302
18573750000 0.080688633 -0.1878522 -6.2737832e-005 -3.6853515e-005 -0.0011154573 0.0057887458 0.15860775 -0.19542737
18595000000 0.083612099 -0.072759584 0.00022340452 0.0001609076 0.00084999297 -0.0080483044 0.44222575 -0.11170967
18616250000 0.0422961 -0.14486572 7.8241756e-005 0.0001143925 -0.006785885 0.0070636794 0.3854745 -0.47241032
18637500000 0.16594203 -0.104265 6.2533804e-006 -1.258211e-005 0.0076585966 -0.00059908075 0.27047718 -0.1572554
18658750000 0.077164412 -0.064607389 -6.2384068e-005 0.00010115223 -0.005614874 -0.0026701333 0.50543261 -0.4967514
18680000000 0.087466575 -0.20272383 3.9306517e-005 -6.7268898e-005 0.0043384554 0.00373596 -0.028042832 -0.44429892
18701250000 0.2428185 -0.092141345 0.00010574947 1.8233213e-005 -0.0027910164 -0.0092861056 0.24159738 -0.10291128
18722500000 0.14331587 -0.059866626 6.7213659e-005 7.9836456e-005 -0.0057892632 0.0075083743 0.1825112 -0.29245225
18743750000 0.23000613 -0.158327 -4.2035619e-005 1.6455826e-005 0.0034844619 -0.0021182983 0.16387905 -0.25105765
18765000000 0.21999876 0.078885734 -1.7904686e-005 4.7628837e-005 -0.0073940386 0.0027263518 0.19328947 -0.35378903
18786250000 0.089845605 -0.020886278 8.4293293e-005 -0.00012091352 0.0062131314 0.0079582091 0.05615085 -0.33709764
18807500000 0.24023448 -0.096598744 2.0253881e-005 -1.026508e-005 0.0027247646 -0.0062358282 0.034116272 -0.4260166
18828750000 0.13670291 -0.050460663 -0.00014929651 -1.0635493e-005 -0.0027611095 0.0042494568 -0.023127915 -0.45567387
18850000000 0.15264551 -0.049986608 -1.3085404e-006 0.00010034633 0.0077882502 -0.0031358344 0.10723684 -0.10455485
18871250000 0.24331042 0.097875364 9.1341193e-005 3.8376831e-005 -0.0083641503 -0.0017936464 0.12705135 -0.59038901
18892500000 0.14252977 0.23788553 -6.3846113e-005 -4.1369887e-005 0.0051032472 0.0051827934 0.045298815 -0.42696348
18913750000 0.11502039 0.032662455 -2.2277698e-005 -0.0001296129 -0.0014557774 -0.0045235148 0.20218387 -0.6106841
18935000000 0.084658258 0.0031374921 -1.9833702e-005 5.4499029e-005 8.4837244e-005 0.0058570406 -0.077567875 -0.67925149
18956250000 -0.043738913 -0.0069333012 8.2143139e-005 -3.9296614e-005 0.0068365349 -0.0037437039 -0.016557932 -0.50205088
18977500000 0.019299624 -0.061783172 1.9401685e-005 7.6523836e-005 -0.0038172675 -0.0035876299 0.12690915 -0.41254276
18998750000 0.064443618 0.17886457 -2.4343342e-006 -0.00016304968 0.0030695193 0.001341846 0.25286341 -0.53047991
19020000000 -0.045638971 0.14161323 -2.2777607e-005 -8.9335437e-005 -0.0030727051 -0.0077907918 0.13064039 -0.59910703
19041250000 -0.1075376 0.0030935204 6.8227491e-005 -4.6883819e-005 -0.0042122072 0.0053194421 -0.0094340611 -0.49009913
19062500000 -0.11724734 0.076495782 -0.00013295264 3.0547857e-005 0.0020102623 -0.0019762211 0.28984419 -0.61910236
19083750000 -0.087932631 -0.17658888 2.1895919e-005 8.2665967e-005 -0.0038319498 0.0014260113 -0.040594094 -0.6157757
19105000000 0.077956416 -0.048842587 1.5441186e-006 1.2822514e-005 0.0040724385 0.0030448844 0.024639979 -0.22169201
19126250000 0.055636942 0.051406607 -9.0655676e-006 -0.00015540824 -0.0013968684 -0.0058101974 0.46762902 -0.56583905
19147500000 -0.069194965 -0.052316319 -2.3222963e-006 1.0201818e-005 -0.0016791256 0.004048768 0.10678223 -0.59459084
19168750000 -0.13499835 -0.1109843 0.00012314619 4.9421702e-005 0.0009235795 -0.0041180993 0.16128869 -0.47333246
19190000000 -0.17603587 -0.19721659 -9.1150294e-005 3.6813528e-006 -0.0063669309 0.0031864138 0.14422566 -0.48475951
19211250000 -0.11916102 -0.29899135 -7.5133263e-005 1.7917973e-006 0.0033935397 0.0044274153 0.20602585 -0.45579389
19232500000 0.13606602 -0.1594865 -8.5778658e-005 -5.8870977e-005 -0.00028663952 -0.001510264 -0.10031467 -0.3366572
19253750000 -0.0077173733 -0.1176744 -4.9063997e-006 3.9407991e-005 0.00047512766 0.0061640786 0.3223379 -0.27254274
19275000000 0.044944331 -0.20446981 -8.6764871e-005 -6.629563e-005 0.0073441095 -0.0041024177 0.19091751 -0.52979827
19296250000 -0.00076360296 -0.14058495 2.3648885e-005 -7.7104669e-006 -0.0054963762 -0.00083853543 0.028638896 -0.39559242
19317500000 -0.13484409 -0.23994288 -7.7938414e-005 7.2882183e-005 0.0055029909 0.0015242731 0.21219631 -0.35655755
19338750000 0.20004579 -0.29601586 0.00014079691 -8.1834827e-005 -0.0033705612 -0.0051957662 -0.12547396 -0.5333783
19360000000 0.19127686 -0.20930634 -7.4911964e-006 -0.00012458621 -0.0012549164 0.0070182984 -0.10759991 -0.19399355
19381250000 0.17311187 -0.23662207 2.7207934e-005 0.00011814541 0.0058800317 -0.0046618823 0.16582179 -0.30480725
19402500000 0.20865887 -0.13908644 2.5199926e-005 -9.2881244e-005 -0.0049447482 0.0030445224 -0.053152584 -0.3691259
19423750000 0.036242422 -0.16242225 -3.6146888e-005 8.0195037e-005 0.008911063 -0.0019483786 0.058701314 -0.47553647
19445000000 0.10371561 -0.16337545 -0.00014157878 -3.3945002e-005 -0.0053900578 -0.0070414934 -0.22407654 -0.36284909
19466250000 0.27395231 -0.11774609 -5.5145065e-005 4.9414622e-005 -0.00012698874 0.0053838124 -0.071485639 -0.36328444
19487500000 0.1981006 -0.061828278 3.6866426e-005 -2.3887123e-005 0.00086643029 -0.0082562761 -0.27673617 -0.47790998
19508750000 0.22767046 -0.16428185 -0.00014518856 3.6212699e-005 -0.0092692794 0.0061753774 -0.19983576 -0.078308374
19530000000 0.14896646 0.036975428 0.00012652267 3.3064767e-005 0.0065527307 0.0013939906 0.12581943 -0.42294472
19551250000 0.055126779 -0.013729077 -3.0694198e-005 -0.00015852526 -0.0033448092 -0.0035167132 -0.44979984 -0.73536193
19572500000 0.22684558 -0.029082645 0.00013352931 0.00012014855 0.00050351955 0.0068558524 -0.18358912 -0.22738868
19593750000 0.16353725 0.10695817 0.000125099 0.00020707864 0.0042176987 -0.0081751058 -0.17709535 -0.63192922
19615000000 0.089051664 -0.018242592 -7.432585e-005 6.3369407e-005 -0.0095398119 0.0030945633 -0.34272999 -0.4120943
19636250000 0.1079729 0.047753427 -0.00016638427 7.0485745e-005 0.0066230968 0.0019685191 -0.12759691 -0.36490327
19657500000 -0.10888678 0.098554075 -1.9807339e-005 -3.8703289e-005 -0.0072732386 -0.0045965686 -0.17584722 -0.40876943
19678750000 -0.0019082782 0.0093882363 7.1335693e-005 0.00019020052 0.0010294844 0.013139233 -0.067889266 -0.74733627
19700000000 -0.0093733706 0.091250397 -4.124043e-005 2.7302411e-005 0.0077947648 -0.0080526704 -0.38267979 -0.50294715
19721250000 -0.013466683 0.064343162 4.4806475e-005 -1.4283287e-005 -0.0060914806 0.0051804739 -0.072123542 -0.32562736
19742500000 -0.14036316 -0.042238511 -8.4954685e-005 -3.0274023e-005 0.0097836982 -0.0013917307 -0.1421223 -0.69983351
19763750000 -0.16781978 0.020360896 4.9672966e-005 -6.4925839e-006 -0.0065402822 -0.0063292594 -0.2910507 -0.33680335
19785000000 -0.21547438 0.060693674 -0.00010641665 -6.6081127e-005 0.0027261106 0.0073296661 0.22694866 -0.28393608
19806250000 -0.073955245 -0.083284147 -6.2701802e-005 5.6824032e-005 0.00051472447 -0.0079568159 0.016945126 -0.82512635
19827500000 -0.087924972 0.022344012 3.7195965e-005 -1.3825309e-005 -0.0039978325 0.0083576683 -0.057780571 -0.35421911
19848750000 -0.21476164 -0.12193549 3.3666758e-005 -0.00018583394 0.0087501593 -0.00374712 0.06353803 -0.41030654
19870000000 -0.13113789 -0.12567201 -0.00022950981 0.00022461134 -0.0056885742 -0.0023174284 -0.023168571 -0.41226515
19891250000 -0.25635701 -0.16955644 -0.00014361144 -5.9634771e-005 0.0053445217 0.0028623184 0.13558729 -0.29566741
19912500000 -0.097078174 -0.31545413 0.00018931345 3.4854354e-005 -0.0025676931 -0.010424427 0.10796764 -0.0097327838
19933750000 -0.00014784971 -0.13826685 0.00015147963 -0.00010520283 -0.0052753207 0.0057786475 0.26527879 -0.4882727
19955000000 -0.097588286 -0.20946001 -6.2652172e-005 -4.5226177e-005 0.0025729744 -0.0032990873 -0.31263751 -0.37436673
19976250000 -0.15665242 -0.23935102 5.7993966e-005 7.5993456e-005 -0.0054269079 0.002667086 0.056389723 0.028218498
19997500000 -0.18879603 -0.22699662 -3.7882282e-006 0.00015305968 0.004108326 0.0039131301 0.033915404 -0.16497335
20018750000 -0.073549412 -0.2716406 -0.00012989124 0.00023043813 0.0001185932 -0.0054081283 -0.14956746 -0.013810303
20040000000 0.15491685 -0.30662817 -6.6970031e-005 1.1279803e-006 -0.0023090229 0.0062095951 0.045306455 0.2267765
20061250000 0.30128467 -0.071985267 6.5094042e-005 1.3016621e-005 0.0052427454 -0.0061953519 0.022564044 -0.27482682
20082500000 0.096568696 -0.04437666 -0.00013131982 4.9207891e-005 -0.010661434 0.0013661177 -0.34331316 -0.21928641
20103750000 0.13619259 0.013664021 -4.2466279e-005 3.2317876e-005 0.0058387504 0.0068712989 -0.33001208 -0.097252108
20125000000 -0.14271528 0.054355633 -8.1059934e-006 0.00018633714 -0.0021046984 -0.0060754367 -0.34055892 0.10624281
20146250000 0.051810406 -0.18502581 -1.6062264e-005 -5.1657214e-005 -0.0013266071 0.010059399 -0.27165937 -0.29419035
20167500000 0.27829719 -0.080606937 8.0993523e-005 3.1109885e-005 0.010556901 -0.0053942492 -0.79949248 -0.16030635
20188750000 0.21375236 0.0043469598 0.00017445801 -0.00014484559 -0.0069080824 0.00078051857 -0.012314793 -0.11470748
20210000000 0.22091791 0.093532681 -0.00013425977 -3.9685652e-005 0.0081436876 0.0016364052 -0.56447941 -0.84799165
20231250000 0.0084394813 0.35321626 -5.1531126e-005 -7.4073738e-005 -0.0053886967 -0.0079305656 -0.74605125 -0.13721523
20252500000 -0.12818253 0.17364343 -6.3872096e-005 -0.00013643826 -0.0016984515 0.0086261965 -0.43624911 -0.43035817
20273750000 0.03988925 0.11198655 -6.9513117e-005 -0.00015179229 0.0057709417 -0.006067378 -0.38702095 -0.37102237
20295000000 0.094557293 0.19733405 4.5370125e-005 -3.3925346e-005 -0.0075925817 0.0029511454 -0.45221162 -0.4684715
20316250000 0.039541077 0.17033182 -4.7232264e-005 -3.4731718e-005 0.010461863 0.0020876054 -0.17390876 -0.54575998
20337500000 -0.11292246 0.24042557 2.9181247e-005 0.00010051431 -0.003497981 -0.010979063 -0.065347798 -0.79186869
20358750000 -0.30887198 0.35215724 -8.8923887e-005 -0.00016145862 -0.0018060412 0.0080763586 -0.59112376 -0.68202543
20380000000 -0.32808289 0.079317577 5.7290497e-005 -0.0001105862 0.0040610353 -0.0092855822 -0.31686187 -0.34234685
20401250000 -0.14581825 0.085334353 7.3300776e-005 6.3442312e-005 -0.011446213 0.002761917 0.29671514 -0.67090279
20422500000 -0.22973736 0.054808572 9.25286e-005 -0.00021219217 0.0069211633 0.0041688452 -0.21252842 -0.63219124
20443750000 -0.12259313 0.043955181 -0.00010132194 9.6463009e-006 -0.0051768264 -0.0049884683 0.14709139 -0.18585695
20465000000 -0.25629073 0.23274191 -0.00015523734 -1.9591846e-005 0.0012400463 0.0089910282 0.39063177 -0.83683622
20486250000 -0.37916431 0.078992575 3.476637e-005 2.3428145e-005 0.0039849603 -0.0084999083 -0.33257407 -0.33126032
20507500000 -0.17824842 -0.013039747 -3.7201688e-005 7.0591836e-005 -0.0072269267 0.002720756 0.22701865 -0.10882255
20528750000 -0.14005107 -0.099861115 -1.8381934e-005 2.4735844e-005 0.0059918999 0.002265936 0.21639554 -0.17119271
20550000000 -0.099495023 -0.28092283 0.00014254099 -5.3597378e-005 -0.0062213489 -0.0062966179 0.19323799 -0.065758906
20571250000 -0.10626913 -0.13501255 -7.7386852e-005 0.00012198118 1.1976449e-005 0.012642049 -0.021406827 0.03426826
20592500000 -0.12902606 -0.083326548 1.3913944e-005 6.0516445e-006 0.0066958093 -0.0071186167 0.37076056 0.2202425
20613750000 -0.1043568 -0.17470521 -3.0266277e-005 4.9442926e-005 -0.0074739526 0.0059425062 -0.24045949 -0.19425963
20635000000 0.2494729 -0.25807798 0.00021743753 0.00026858662 0.013607215 -0.0015291625 -0.4126415 0.57956851
20656250000 0.080519669 -0.24805212 -0.00010064257 4.6457579e-005 -0.0072723832 -0.0065153996 0.24849272 0.47068486
20677500000 0.18337232 -0.34682742 -0.00010434349 0.00012614748 0.003446376 0.0059250346 -0.28936595 0.0090797953
20698750000 0.23764643 -0.080484226 0.00012560131 5.9170034e-005 -0.00027512867 -0.007836896 -0.54168552 0.49242133
20720000000 0.091570698 -0.14620464 -0.00010997122 5.4016182e-005 -0.0055270242 0.0059140334 -0.26905826 0.30195028
20741250000 0.34053031 -0.10972085 -1.1860492e-005 6.8515044e-005 0.0094335573 -0.0014194292 -0.77883649 0.23321754
20762500000 0.34234613 -0.036475193 -8.2596773e-005 2.0898853e-005 -0.0057865782 -0.0037155098 -0.68219227 0.29688618
20783750000 0.23445219 -0.081431344 -0.00011039888 3.7579353e-005 0.0038398171 0.0048064091 -0.46867132 0.35488001
20805000000 0.40440327 0.051746156 0.00018204494 0.00013042311 0.0020312336 -0.0093444875 -0.41141817 -0.057963263
20826250000 0.25453183 0.22360814 -5.4410237e-005 7.4103176e-005 -0.0081714122 0.0032814534 -0.91043627 -0.21345969
20847500000 0.21227561 0.076342702 -4.0585266e-005 -7.9729361e-005 0.00562661 -0.00080788624 -0.5856818 -0.0054698978
20868750000 0.28784537 0.13594392 5.8186974e-006 5.02353e-005 -0.0096222255 -0.0033543226 -0.42671606 -0.73349589
20890000000 0.1763683 0.16988461 0.00018123825 5.2601263e-005 0.00288689 0.010152318 -1.0700656 -0.32699037
20911250000 0.23419303 0.08813981 7.8398312e-005 0.00015277133 0.0026433156 -0.0071674353 -0.38528612 -0.17425708
20932500000 0.21505463 0.28623214 2.405474e-005 -0.00023924094 -0.00676816 0.0051588076 -0.47991854 -0.74343789
20953750000 -0.032921556 0.34049353 -0.00011400806 -5.2825075e-005 0.0096982187 -0.0011100752 -0.45440701 -0.61741877
20975000000 0.19115259 0.02617554 4.6810044e-005 1.9487807e-005 -0.0093353707 -0.0060845865 -0.22400354 -0.54804301
20996250000 0.083322406 0.10192399 -0.00018616884 -0.00016871108 0.00314422 0.01030611 -0.18288925 -0.55832744
21017500000 -0.10305008 -0.020918874 -0.00011838412 1.8849092e-005 0.0012473499 -0.0085006775 -0.16663104 -0.72957367
21038750000 -0.0090518892 0.057122871 -0.00021889589 7.0175192e-005 -0.0063861879 0.011112886 -0.23613566 0.17720881
21060000000 -0.2076758 0.17173508 -0.00014452141 0.00015296323 0.013365265 -0.0020258273 0.58261824 -0.32386634
21081250000 -0.21505418 -0.027494185 -0.00012394051 -0.00016219076 -0.0091867791 -0.0017215027 0.04960328 -0.63376474
21102500000 -0.074939892 -0.061316822 -7.9820886e-005 0.00011842073 0.0100018 0.0045018615 0.096198209 0.016100004
21123750000 -0.11632039 -0.12605052 -4.7883391e-006 -8.5657761e-005 -0.0031205644 -0.011484183 0.44603676 -0.27794653
21145000000 -0.054822665 -0.34308451 -0.00011415866 0.00010012719 -0.0047042784 0.0087100491 -0.084403455 -0.38739997
21166250000 0.047773778 -0.14616531 -7.6214172e-005 -2.9709265e-005 0.0072673024 -0.0052464698 0.12551017 0.36782551
21187500000 -0.046263188 -0.17430319 1.9041307e-005 2.0387371e-005 -0.0089169545 0.0013951854 0.094737761 0.092153408
21208750000 0.01908757 -0.3799305 -2.353755e-005 -0.00012106876 0.0080300532 0.0046533486 0.15777899 0.071616478
21230000000 0.033746641 -0.21815795 0.00013949384 1.7606508e-005 0.00021093919 -0.0080002258 -0.11640062 0.035307273
21251250000 -0.15241064 -0.44493678 4.2716223e-005 -0.00013612882 -0.0035465241 0.0025288532 1.3319268e-005 0.5297482
21272500000 0.15341674 -0.37871295 -8.0421021e-005 -6.1785948e-005 0.0056670378 -0.0024043929 0.16653001 0.0074403579
21293750000 0.23530762 -0.16118479 -8.5935477e-005 -5.2422893e-005 -0.0095999194 -0.0040460802 -0.71429473 0.36172974
21315000000 0.2425849 -0.30056152 -1.8182918e-007 5.074048e-005 0.0021813859 0.0081370044 -0.056499008 0.54066998
21336250000 0.31798965 -0.28137887 -0.00011776399 -9.248979e-005 -0.0001219937 -0.0074633891 -0.23186962 -0.036864318
21357500000 0.18692338 -0.22280242 -0.00015119946 8.5189313e-005 -0.0034561965 0.0099939751 -0.65141296 0.29320014
21378750000 0.072796829 -0.31048173 0.00018791035 -0.00013820127 0.0090716984 -0.0052782749 -0.35608867 0.36433232
21400000000 0.29606482 -0.26105839 -5.3274005e-007 9.0889898e-006 -0.0094206724 -0.00019887969 -0.59497404 -0.079360798
21421250000 0.19632223 -0.11330974 -0.00018922704 -8.3966239e-005 0.0074433191 0.0047798273 -0.72853732 0.13124962
21442500000 0.31326932 -0.23843658 6.3165142e-005 0.00023077536 -0.0048873858 -0.0087107942 -0.5930779 0.18674366
21463750000 0.35259306 -0.033013646 -4.3216816e-005 3.8858157e-005 -0.0025889322 0.012119913 -0.28198889 0.07659816
21485000000 0.08396925 -0.06276492 0.00019822198 -1.2123804e-005 0.007665317 -0.0062560393 -0.64031059 -0.34074152
21506250000 0.20840679 -0.12337659 0.00027360802 0.00012307319 -0.0061294888 0.0050811367 -0.53505993 0.094149061
21527500000 0.089246422 0.064348787 0.00018188577 0.00010207783 0.010112878 0.0012047357 0.065902516 -0.23860177
21548750000 0.038882364 -0.08855205 5.4636246e-005 0.00013390569 -0.0044295411 -0.0069807968 -0.83238226 -0.51964813
21570000000 0.20771039 -0.074774228 -0.00017770054 -7.0851369e-005 0.001987926 0.0059301802 -0.20798306 0.092909291
