!Keysight Technologies,N5242B,MY47200105,A.14.00.23
!Date: Friday, May 10, 2024 11:14:26
!Correction: S11(C  2-Port  ) 
!S21(C  2-Port  ) 
!S12(C  2-Port  ) 
!S22(C  2-Port  ) 
!S2P File: Measurement: :
# Hz S  RI   R 50
18000000000 0.14153318 -0.024997707 -0.00010543266 -9.0732414e-005 0.0001139246 0.0077537466 0.8785044 -0.42385131
18021250000 0.061297908 -0.22107668 -0.000140706 7.0650443e-005 0.0015694902 -0.0010056538 0.31892192 -0.19447239
18042500000 0.22564496 -0.089644358 1.2188659e-005 -3.6993944e-005 0.0007437063 0.0041357004 0.49894711 -0.053154077
18063750000 0.14933971 0.019066064 2.8926574e-005 -6.1119012e-005 0.0069353003 -0.00047126095 0.41008601 -0.19118525
18085000000 0.20756692 -0.051656011 -4.3552169e-005 -0.00010096301 -5.4208474e-005 -0.0065027946 0.42678759 0.091981538
18106250000 0.34290016 -0.0057319361 0.00010176814 -2.3114431e-005 0.00028893162 0.00058149599 0.48041156 -0.091041163
18127500000 0.20165642 -0.047411431 -9.8965342e-005 4.3341097e-005 -0.0034006229 -0.005811309 0.56876796 -0.20765074
18148750000 0.19643158 -0.042254038 4.0216739e-005 -2.195615e-006 -0.0027157911 0.0043124803 0.30475929 -0.36628109
18170000000 0.30753002 0.084392443 -6.7163433e-005 -0.00010201601 0.0022919846 0.00034336816 0.098708726 -0.12544028
18191250000 0.15216893 0.19736524 -0.00013143562 0.00010173076 -0.001106524 -0.00068119948 0.27487448 -0.088613853
18212500000 0.24861947 0.067797631 -0.00015330229 -5.7183144e-005 0.0035136729 0.001310837 0.099880859 -0.12451123
18233750000 0.16052781 0.14708157 -6.252531e-006 -2.9648141e-005 -0.00086409564 -0.0058773039 0.32605663 -0.15317734
18255000000 0.025961854 0.064183086 0.00017155886 -3.0341822e-005 -0.0028627282 0.0013341928 0.43109518 -0.54211259
18276250000 0.14406894 0.0067628785 -3.3367356e-005 -5.1823892e-005 -0.0018131667 -0.0021660568 0.15256311 -0.46385157
18297500000 0.064636551 0.16022654 -2.5556088e-005 -3.543439e-005 -0.0046685226 0.0036022458 0.078568712 -0.46313441
18318750000 0.028540088 0.12282193 0.00010872581 2.8243872e-005 0.0017549428 0.0037443656 0.11616698 -0.34391528
18340000000 0.072949402 0.083382532 3.9036109e-005 4.2893127e-005 -0.00016839085 0.0009844231 0.14136273 -0.24480848
18361250000 -0.12329991 0.10991693 -7.6819242e-007 -3.8665738e-005 0.0039575328 0.0032820902 0.36212581 -0.47506499
18382500000 -0.082127675 -0.025087243 5.2234194e-005 -1.3090948e-005 0.001996943 -0.0040488546 0.39793572 -0.41153035
18403750000 0.0072530112 -0.017025519 4.2921893e-005 -9.3831823e-006 -0.0022681239 0.00042559841 0.28198197 -0.67429793
18425000000 -0.032084629 0.018367095 0.00011975248 2.1527847e-005 0.0014941054 -0.00014921812 0.072240777 -0.56302899
18446250000 -0.024720928 -0.12542459 3.2084059e-005 2.526545e-005 -0.0046419012 0.00028356822 0.50116605 -0.42238837
18467500000 0.022041194 0.0054030772 -0.00011058305 -3.1447911e-005 0.0054208869 0.0057624802 0.26369196 -0.54767227
18488750000 -0.19672404 -0.03452424 6.3723171e-005 -2.0400597e-005 0.00068118016 -0.0045178775 0.35678732 -0.38813755
18510000000 -0.086494945 -0.15533461 -5.8195277e-005 -0.00015099661 0.0035494471 0.0040834881 0.50694233 -0.54309773
18531250000 -0.02788643 -0.016161822 7.0549781e-005 6.7667635e-005 0.0030970436 -0.0070920461 0.37650889 -0.54425585
18552500000 -0.062011417 -0.19182812 2.6368556e-005 0.00012514842 -0.0042040288 -0.0015840522 0.28477296 -0.52930397
18573750000 0.084168822 -0.18889041 -0.00013674053 -3.8504164e-005 0.0010343008 0.00064999104 0.15876245 -0.19815917
18595000000 0.086825058 -0.068830423 -9.9697254e-006 -7.6479097e-005 -0.0038396949 -0.0042752447 0.43188235 -0.11538543
18616250000 0.045643117 -0.13844079 -0.0001278897 -0.0001116541 -0.0011488158 0.0056218095 0.37859824 -0.4649317
18637500000 0.17428461 -0.1037109 -3.2579446e-005 1.4311101e-005 0.0024515912 -0.00337059 0.26503628 -0.16350158
18658750000 0.078072138 -0.062782757 -1.9630661e-005 2.6966358e-005 -0.0023018413 0.0027714609 0.49057937 -0.49493876
18680000000 0.087098323 -0.20375879 -7.416882e-005 -4.3772412e-005 0.0044228467 -0.0021078549 -0.032826882 -0.44772232
18701250000 0.23851751 -0.090587072 2.583927e-005 -7.9873629e-005 -0.0061962926 -0.0043814778 0.22689715 -0.11067027
18722500000 0.13963726 -0.051651068 5.6709378e-005 -0.000159225 -0.00015833488 0.0055513401 0.16963758 -0.29774985
18743750000 0.22548656 -0.15490703 -5.2874006e-005 -6.7489273e-005 -0.0017512442 -0.0038368157 0.15423714 -0.25274479
18765000000 0.21411899 0.083667129 -8.9113142e-005 9.4047427e-005 -0.0035823972 0.0080772657 0.18920074 -0.3567307
18786250000 0.080289334 -0.016190823 -8.9485795e-005 -4.6865094e-005 0.0061646812 0.0010712013 0.055626232 -0.34663025
18807500000 0.22967842 -0.093477435 -9.8792174e-005 -2.0903763e-006 -0.0013165035 -0.00045997609 0.033235542 -0.43225989
18828750000 0.13567156 -0.04409539 -1.7107377e-005 -4.8478301e-005 0.0040736403 0.0014168416 -0.021828897 -0.46164221
18850000000 0.14556904 -0.055200044 -5.1512674e-005 4.7118916e-005 -0.00014802247 -0.0054075168 0.10434535 -0.12183071
18871250000 0.23692121 0.092445299 -5.0440649e-005 5.5737644e-005 -0.0021020458 0.0045970376 0.12669057 -0.59096205
18892500000 0.13554922 0.23327604 -9.2740716e-005 -9.9495366e-005 0.0029418471 -0.0039444291 0.049838647 -0.43156093
18913750000 0.10412057 0.028052548 -6.295043e-006 0.00021583049 -0.0037591613 0.0046175327 0.20531829 -0.61103642
18935000000 0.084895857 0.0024701497 -0.00020041176 1.7701997e-005 0.0073588416 -0.00036352381 -0.06956102 -0.68054628
18956250000 -0.042211581 -0.0076797684 4.7154066e-005 -7.4364158e-005 -0.0029988701 -0.0023662813 -0.013111517 -0.50259799
18977500000 0.027537506 -0.065340705 4.5374636e-005 -3.0762851e-005 0.0059479824 0.00069086399 0.1297868 -0.41720235
18998750000 0.073560402 0.16815449 3.5671048e-005 0.00013323223 -0.0033427069 -0.0072052828 0.24926957 -0.52819151
19020000000 -0.045896012 0.13492231 -3.38346e-005 1.996862e-005 -0.0024291093 0.0026432169 0.13381205 -0.59416819
19041250000 -0.09841872 -5.4134853e-005 4.5553325e-006 -2.5495903e-005 0.0010641054 -0.0034668776 -0.0034918576 -0.48912463
19062500000 -0.10721237 0.073485151 6.330313e-005 -4.0518953e-005 -0.0072838659 0.0034065268 0.28316393 -0.61528665
19083750000 -0.076662682 -0.17926393 -1.9862109e-005 0.00010789143 0.0064156423 0.0024367739 -0.041560337 -0.60771209
19105000000 0.086695686 -0.05629224 -3.0204099e-005 -0.00010736332 -0.0042655538 -0.00418919 0.02123501 -0.22378232
19126250000 0.059417311 0.055211131 3.9264785e-005 2.2924149e-005 0.0026302519 0.0043863812 0.45367622 -0.54891777
19147500000 -0.057874382 -0.048504058 -3.8251524e-006 -3.1696556e-005 0.00049021532 -0.0057728081 0.105619 -0.58391708
19168750000 -0.12239645 -0.10435357 2.8202878e-005 5.5619075e-005 -0.0064088348 0.0031901763 0.15905382 -0.46783108
19190000000 -0.1657465 -0.19143075 5.9287304e-005 0.00010427357 0.003922008 0.0013293419 0.13672084 -0.48513636
19211250000 -0.11242678 -0.29741591 -2.6222066e-005 -0.00015721754 -0.0057234718 0.00055998086 0.19435918 -0.45135319
19232500000 0.13607413 -0.15364486 -0.00010740171 -1.6884087e-005 0.0050884066 0.0069725118 -0.09867695 -0.33890676
19253750000 -0.0099728787 -0.11126576 3.4219422e-005 -2.2509405e-006 0.00094226701 -0.0047338847 0.3050431 -0.27621529
19275000000 0.042274721 -0.19323505 5.1335574e-005 -4.9261456e-005 0.001096932 0.004237175 0.18330972 -0.52498776
19296250000 -0.0013692825 -0.13087174 -9.3115923e-005 3.6201345e-005 0.0041102744 -0.0044941898 0.026230348 -0.39807013
19317500000 -0.13720712 -0.23283082 9.4326506e-006 -0.00018114901 -0.0051166872 -0.00099443155 0.2039209 -0.36419708
19338750000 0.19632268 -0.29290399 -2.5290839e-005 1.8695844e-006 0.0039208294 0.0028005042 -0.12918578 -0.53577536
19360000000 0.18007113 -0.20999829 -5.2666084e-005 8.8998524e-005 -0.0034055409 -0.0044233394 -0.10738609 -0.20019889
19381250000 0.16020942 -0.23316117 -8.1377701e-005 9.9638957e-005 0.0017640843 0.0063904296 0.16021734 -0.31021351
19402500000 0.20214109 -0.13872884 3.28352e-005 -8.4279687e-005 0.0039056116 -0.0044179796 -0.052532911 -0.37266552
19423750000 0.023108901 -0.16064127 0.00018682315 6.3837957e-005 -0.0018652742 -0.00035441565 0.059579652 -0.47255221
19445000000 0.094878003 -0.16222532 6.5707951e-005 -0.00012338588 0.0042228815 -0.0023338085 -0.21467972 -0.37007967
19466250000 0.26491526 -0.11451729 -0.00013963146 1.3639324e-006 -0.0058514955 -0.0034943207 -0.075357601 -0.36693391
19487500000 0.19406104 -0.058621164 -0.00010783125 6.0144263e-005 0.00063304679 0.0020907556 -0.27265665 -0.47394356
19508750000 0.23183092 -0.16878867 3.7083522e-005 -4.8264184e-005 -0.0036409844 -0.0024387625 -0.19694825 -0.084269777
19530000000 0.14906266 0.032494497 6.1869505e-005 8.0648337e-005 -0.0018647645 0.0053738169 0.11977482 -0.41803747
19551250000 0.056610525 -0.022775272 -5.6146666e-005 1.8427494e-005 0.0051322775 -0.0014357005 -0.4389272 -0.72417367
19572500000 0.2235797 -0.039132159 6.4964217e-005 0.00013004123 -0.0053803474 0.00042496121 -0.18263814 -0.22975397
19593750000 0.16113862 0.10090372 2.822557e-005 -0.00012309116 0.0057832045 0.00014107896 -0.17518543 -0.62816852
19615000000 0.083515853 -0.024786433 -3.2533073e-005 -0.00015546413 -0.0058608777 -0.0034649819 -0.34444502 -0.41007498
19636250000 0.10842396 0.054078709 3.2375607e-005 1.7275983e-005 -0.00020694081 0.0048139319 -0.12672018 -0.36359888
19657500000 -0.098941512 0.10367915 -0.00012202158 6.6543944e-006 0.00013007334 -0.0027263963 -0.17881104 -0.41275522
19678750000 0.0018162729 0.0059871711 2.4157049e-005 -7.3898136e-006 -0.0037670322 0.0065997974 -0.074696779 -0.7406286
19700000000 -0.0047176322 0.092648245 -2.8922443e-005 0.00011667751 0.0083300155 0.00078879355 -0.37775457 -0.50505096
19721250000 -0.018785985 0.059333969 0.00025432941 -9.9713354e-005 -0.0022430453 -0.003087088 -0.081265233 -0.33426532
19742500000 -0.14053771 -0.041083336 -0.00013778837 -3.8795988e-005 0.0020054213 0.0033275259 -0.14574209 -0.69496971
19763750000 -0.16811924 0.024595337 -3.485609e-005 -0.00024226918 0.0029086205 -0.0061303466 -0.28961501 -0.34117341
19785000000 -0.22109725 0.060676813 -2.1044307e-006 1.3938844e-005 -0.006100337 0.0026025272 0.21894248 -0.29115319
19806250000 -0.073779307 -0.076936632 6.8812574e-006 0.00010633006 0.004655615 0.00057559961 0.01358037 -0.81860423
19827500000 -0.094309568 0.023385052 0.00011108006 -6.8895424e-005 -0.0034920343 -0.00054281385 -0.055920083 -0.35786608
19848750000 -0.21782631 -0.1233791 -2.3861764e-007 5.7267269e-005 0.0034304624 0.0035363659 0.060561847 -0.41396761
19870000000 -0.12731148 -0.12746507 0.00010898839 4.4175056e-005 0.0020929978 -0.0062370151 -0.024809012 -0.41079521
19891250000 -0.2573404 -0.17392886 5.9705082e-005 -0.00024545222 -0.0027670045 0.0025129588 0.13555667 -0.28872359
19912500000 -0.098846979 -0.32569733 -0.00013432816 -4.0118532e-005 0.0039577279 -0.0062148524 0.11335501 -0.015787974
19933750000 -0.0085210325 -0.14871271 7.9379992e-005 8.0435151e-005 -0.0075520654 0.00034228052 0.26486325 -0.4794237
19955000000 -0.10962943 -0.21453612 -1.9657675e-006 -5.277367e-005 0.0010683354 0.0020711373 -0.29973257 -0.36399996
19976250000 -0.15649888 -0.24610102 0.00013503086 -2.1053991e-006 -0.0018202274 -0.00060514465 0.05720716 0.028222619
19997500000 -0.18612695 -0.22652867 0.00012698393 8.2534054e-005 -0.00041419873 0.0044130208 0.033586703 -0.15796746
20018750000 -0.066241585 -0.27785084 -6.6313623e-005 3.5215449e-005 0.003439303 -0.003754006 -0.15100086 -0.00564186
20040000000 0.16427882 -0.3136701 5.2442214e-005 -1.3521725e-005 -0.0033531946 0.0027153108 0.043973472 0.23087697
20061250000 0.30916545 -0.076468781 0.00010313355 7.7679833e-005 0.0037113419 -0.0033397241 0.016012231 -0.26630673
20082500000 0.10779894 -0.055803914 -9.2073518e-005 -7.7862889e-005 -0.0073502054 0.00032597984 -0.34804377 -0.20774238
20103750000 0.14575142 0.0099742282 8.4295403e-005 8.8914559e-005 0.0025634258 0.0055308524 -0.33708116 -0.091699585
20125000000 -0.12972197 0.053106926 6.455843e-005 -3.9034501e-005 5.6433768e-005 -0.0027260249 -0.35152596 0.10610669
20146250000 0.057450607 -0.18208568 6.5729677e-005 8.5425363e-006 -0.0010618184 0.005987844 -0.2863273 -0.28259
20167500000 0.28726462 -0.072616868 -2.7696477e-005 -4.3902277e-005 0.007678776 -0.0018387149 -0.79674381 -0.15888757
20188750000 0.21807687 0.010876003 -4.8537881e-005 -0.0001111096 -0.0035671906 -0.00065620494 -0.035449103 -0.11878676
20210000000 0.22750153 0.1065036 5.5848914e-006 8.0094425e-005 0.0049909255 0.00087113888 -0.57074738 -0.84271228
20231250000 0.026905566 0.3668052 -7.1926428e-005 2.4628112e-006 -0.0042684986 -0.006068097 -0.7529856 -0.15033515
20252500000 -0.12404389 0.18297099 3.3547833e-005 0.0001839113 -0.0009397121 0.0064957975 -0.44473574 -0.43409762
20273750000 0.043471929 0.12228411 1.5767982e-005 0.00011659576 0.0030211492 -0.0048362543 -0.39882001 -0.37794575
20295000000 0.08902704 0.20917851 -7.5632204e-005 -6.6057088e-005 -0.0041623511 0.003833933 -0.44352433 -0.47204345
20316250000 0.034088045 0.18385704 -8.5915221e-005 8.9963956e-005 0.0086349556 -0.0005277344 -0.17586124 -0.55770218
20337500000 -0.1121165 0.2508615 -0.000155225 1.4143969e-005 -0.0040709418 -0.007630582 -0.065947235 -0.79746395
20358750000 -0.31881085 0.3628248 0.00020096629 -0.00010085633 0.00071722991 0.0047861086 -0.57199043 -0.69100481
20380000000 -0.33454463 0.089125849 -3.3649521e-005 8.239154e-005 2.4223165e-005 -0.0075108474 -0.30722916 -0.35811672
20401250000 -0.1560241 0.087910824 2.3318433e-005 4.2364849e-005 -0.0074103861 0.0040917015 0.29617921 -0.6724748
20422500000 -0.24309495 0.055967879 0.00015787299 1.794426e-005 0.0046559912 0.00073258439 -0.19601695 -0.62986106
20443750000 -0.13365091 0.033533633 0.00024829063 -4.747578e-005 -0.005290512 -0.00039010929 0.15633172 -0.19568338
20465000000 -0.27104253 0.22669169 7.5033764e-005 8.3398176e-005 0.0052095219 0.0059067099 0.39104369 -0.82434422
20486250000 -0.38805094 0.070164196 -3.2468415e-006 3.8546979e-005 -0.0016607116 -0.007489353 -0.31224582 -0.32458973
20507500000 -0.1873605 -0.027599949 -9.09132e-005 -9.7029988e-006 -0.0016271174 0.00576314 0.23132986 -0.10124598
20528750000 -0.1458782 -0.10602038 9.8449382e-006 7.1625102e-005 0.0025886374 -0.0042027365 0.21894614 -0.15751292
20550000000 -0.09677694 -0.29658836 -0.00014540323 -0.00012065862 -0.0062874448 0.0022551185 0.19989298 -0.048240718
20571250000 -0.096647508 -0.14696395 6.7735877e-005 -2.9288651e-006 0.0047400044 0.0043650819 -0.011465404 0.047903039
20592500000 -0.11938635 -0.096062645 6.1033352e-006 5.0969935e-005 -0.0012661611 -0.0022482157 0.36421898 0.22603072
20613750000 -0.094863795 -0.18605514 -0.00014313983 7.8009558e-005 0.0022923255 0.0058508967 -0.23885673 -0.17058584
20635000000 0.26235941 -0.26348239 -0.00012505884 4.2200198e-005 0.0044412571 -0.0064055366 -0.41503337 0.5814985
20656250000 0.09698315 -0.26311046 -0.00017874972 6.3025538e-005 -0.0028757837 0.0017052039 0.2246252 0.48025474
20677500000 0.1989392 -0.35947368 -5.2786301e-005 3.9802966e-005 0.0036435011 -0.0031544575 -0.2998226 0.02962818
20698750000 0.2526271 -0.085005499 7.5235454e-005 -0.00016127985 -0.005559152 -5.1249011e-005 -0.55417347 0.49598366
20720000000 0.10699776 -0.1426889 -2.9011744e-005 -5.9940645e-005 0.0027888936 0.0035629503 -0.29074872 0.30437189
20741250000 0.36407244 -0.10753991 -2.628833e-005 5.176476e-005 0.00011074228 -0.0035544857 -0.79683769 0.24343111
20762500000 0.3584761 -0.038579829 -4.6421213e-005 -4.1598025e-007 0.00058410771 0.0035149718 -0.69449949 0.29346702
20783750000 0.24645153 -0.079124212 -8.1113532e-005 -8.4640379e-007 0.0026358583 -0.0039627533 -0.49037927 0.34226498
20805000000 0.41342983 0.057865269 0.0001721419 -8.0047503e-005 -0.0023912892 -0.0019232766 -0.43249944 -0.062199194
20826250000 0.25540626 0.23516126 -5.4038839e-005 0.00010975878 0.00030962867 8.9369649e-005 -0.91018724 -0.22613028
20847500000 0.21360041 0.091430947 0.00014264652 -3.6094159e-005 -0.0036840113 -0.003190005 -0.5917145 -0.028568003
20868750000 0.28270957 0.15544306 8.1434046e-006 0.00023004664 -0.001972392 0.0051846988 -0.44520485 -0.74833411
20890000000 0.16825555 0.18706702 -0.0001387073 4.5989535e-005 0.0013631796 -0.00094436517 -1.0542755 -0.34844008
20911250000 0.22741665 0.098853551 -5.8823403e-005 -3.839696e-005 -0.0010205137 0.0017746231 -0.38753447 -0.19696563
20932500000 0.20140305 0.30181989 0.00022274398 -4.0128907e-006 0.0025987567 0.00042407322 -0.46804044 -0.74791765
20953750000 -0.045660086 0.35212141 7.721757e-005 -4.4603948e-005 -0.00093082979 -0.0027826468 -0.43413678 -0.62056601
20975000000 0.17403656 0.036257841 -6.5760978e-005 -0.0001411249 -0.0016874193 0.0015113093 -0.20079474 -0.55568057
20996250000 0.064812534 0.10854518 2.7182865e-005 -6.4714484e-005 -6.8141417e-005 -0.00082378497 -0.16779476 -0.56896645
21017500000 -0.11576084 -0.026927948 8.8467721e-005 0.00010941707 -0.0029494727 0.0016949181 -0.14554518 -0.71692336
21038750000 -0.019992931 0.053512383 -6.4813583e-005 -0.00014592278 0.0028318267 0.0043946989 -0.21483497 0.1653039
21060000000 -0.21792598 0.16663541 -0.00016065635 0.00012900039 0.0013758602 -0.0022075376 0.58597517 -0.31048301
21081250000 -0.22282936 -0.033479746 -5.9462956e-005 2.9704246e-005 0.0017135775 0.0040367628 0.069961861 -0.6085757
21102500000 -0.075259775 -0.064471766 5.1088038e-005 3.3425633e-005 0.0032977655 -0.0057076104 0.10903139 0.027035559
21123750000 -0.11721712 -0.14251223 -6.6478642e-005 8.4321837e-005 -0.0038214915 0.0014807093 0.4493162 -0.25229475
21145000000 -0.044841889 -0.35928261 -6.0843948e-005 -1.9842599e-005 0.0024038029 -0.0015837689 -0.073455416 -0.35239384
21166250000 0.060571451 -0.15942428 9.2003444e-005 -0.00010762474 -0.0030389857 -9.9357683e-005 0.13389739 0.37970948
21187500000 -0.033697359 -0.18957964 6.0021244e-005 -0.00010778143 0.0025422396 0.0030428991 0.094651096 0.11044924
21208750000 0.039384276 -0.38514671 0.000177735 -0.00014114383 -0.00041217383 -0.0016778951 0.1518161 0.0940101
21230000000 0.050752796 -0.22548324 -2.7302483e-005 0.00015631087 0.0027030359 0.0011646819 -0.11885572 0.056584224
21251250000 -0.13055789 -0.45846525 -3.6890178e-005 0.00011883297 0.00038450459 -0.0048123412 -0.01641232 0.53005481
21272500000 0.17420015 -0.3873823 -8.1733509e-005 -3.4188259e-005 -0.0032806138 9.8442091e-005 0.13955538 0.026302561
21293750000 0.24898134 -0.16446373 -2.0218919e-005 -0.00023308923 0.00057146547 -0.00076523336 -0.72173703 0.36370611
21315000000 0.25966883 -0.29832831 0.00024383063 -0.00015665196 -0.004356788 -0.00085865951 -0.080247544 0.54152101
21336250000 0.32708013 -0.26707882 -7.3773561e-005 -0.00021478201 0.00087398203 0.0059780544 -0.25149888 -0.025187932
21357500000 0.18922047 -0.21171018 -7.0794995e-005 1.4645485e-008 0.0018835267 -0.0036114757 -0.65927511 0.28863475
21378750000 0.082567051 -0.29786575 -9.3799217e-006 5.0202627e-005 -0.0028906004 0.0029695579 -0.36923119 0.35136485
21400000000 0.29815263 -0.24157968 -0.00015969657 6.5812637e-005 0.0056750714 -0.0022517389 -0.60629356 -0.087440088
21421250000 0.19762629 -0.1032219 -2.186131e-005 -0.00018186824 -0.0069852648 -0.0016653463 -0.73289263 0.11416106
21442500000 0.31068662 -0.21881911 0.00038067976 0.00026445722 0.003848607 0.0025455579 -0.59947443 0.16487812
21463750000 0.34014675 -0.015602474 7.8243982e-005 -4.7104055e-005 -0.0039632497 -0.0021964437 -0.29414213 0.062041972
21485000000 0.068967476 -0.05674468 0.00025434335 6.8722169e-005 0.001209504 0.0073079527 -0.6307227 -0.35234812
21506250000 0.19218403 -0.10864009 0.00010179244 -1.2725053e-006 0.0042130812 -0.0027362772 -0.53203809 0.074873619
21527500000 0.067945346 0.068701081 -1.9522697e-006 -1.8047975e-005 -0.002592731 0.0010146942 0.058808133 -0.24838996
21548750000 0.020169413 -0.084580913 0.00016999814 4.7355657e-005 0.0064242561 -0.00028305757 -0.80626589 -0.5184688
21570000000 0.19225866 -0.07121446 6.2641957e-005 -8.5385385e-005 -0.0022953313 -0.0049976492 -0.19800782 0.081938311
