!Keysight Technologies,N5242B,MY47200105,A.14.00.23
!Date: Friday, May 10, 2024 11:03:57
!Correction: S11(C  2-Port  ) 
!S21(C  2-Port  ) 
!S12(C  2-Port  ) 
!S22(C  2-Port  ) 
!S2P File: Measurement: :
# Hz S  RI   R 50
18000000000 0.13242713 -0.021303922 2.7390636e-006 -4.9892489e-005 0.0029082994 0.007228693 0.88857561 -0.42597613
18021250000 0.062046792 -0.22380504 6.9037938e-005 -8.7068896e-005 -0.00067816419 -0.0017418033 0.31475595 -0.18904099
18042500000 0.22377111 -0.085616432 -5.1238054e-005 0.000100447 0.0018573495 0.0061273756 0.50282168 -0.043180682
18063750000 0.13941336 0.015687216 -6.2403458e-005 -0.0001227621 0.0078843599 -0.0028895815 0.41546476 -0.18752095
18085000000 0.21002255 -0.05109591 -1.3254236e-005 1.3671634e-005 -0.0025582223 -0.0049062613 0.43185946 0.097052388
18106250000 0.33789375 0.0012352481 -0.0001470102 1.9742096e-005 0.0036694079 3.4918116e-007 0.48219028 -0.08903452
18127500000 0.20199157 -0.052754123 -8.9838279e-005 0.0002477096 -0.0063364762 -0.0067441314 0.57547826 -0.20304726
18148750000 0.19708417 -0.04506309 3.0887164e-005 3.6933208e-005 -0.0005454226 0.0065008197 0.30521315 -0.36711183
18170000000 0.30216289 0.088254154 2.3495244e-005 -2.1091873e-005 0.0010081518 -0.0019716057 0.096311897 -0.1127675
18191250000 0.1531755 0.19442293 5.3744645e-007 -7.9310848e-007 -0.0013019777 0.0011549136 0.28306198 -0.077554643
18212500000 0.25276941 0.072518803 7.5503733e-005 8.7927374e-006 0.003750388 0.00036060749 0.10239248 -0.11781145
18233750000 0.15931992 0.14753547 -9.5732139e-005 5.591775e-005 -0.0013126991 -0.0054901764 0.32864806 -0.14975362
18255000000 0.027661594 0.057824187 -1.2041352e-005 -4.5337012e-005 -0.0030633144 0.0013421143 0.43571568 -0.53830594
18276250000 0.14611375 0.009234637 -0.00010011257 -1.6613752e-005 -0.0011223418 -0.0023480481 0.15460731 -0.4606469
18297500000 0.063594051 0.15735959 8.6624939e-005 6.9061149e-005 -0.0056381281 0.0031990802 0.077452123 -0.46002394
18318750000 0.034383774 0.12595032 5.3296142e-005 8.9145178e-005 0.002431788 0.0045504142 0.11639808 -0.33765927
18340000000 0.07704664 0.090411641 -1.8979195e-005 6.4017579e-005 0.00016120177 8.3761042e-005 0.14270476 -0.23895684
18361250000 -0.12392713 0.10453165 3.6711062e-005 3.019151e-005 0.002459863 0.0039884178 0.36061904 -0.47910678
18382500000 -0.07790076 -0.022521542 5.2148771e-005 -2.0096637e-005 0.0041689198 -0.0044093952 0.39491963 -0.40465495
18403750000 0.0015385611 -0.016149832 -5.4603861e-005 4.3953754e-005 -0.004451979 -0.00037364024 0.28002059 -0.67476159
18425000000 -0.035526536 0.021880994 -1.2723182e-006 7.6285862e-005 0.0023397242 0.0016953726 0.06653019 -0.56365198
18446250000 -0.024478985 -0.11845929 -0.00017660737 -2.6857228e-005 -0.0038101375 -0.0022577387 0.50748199 -0.42003861
18467500000 0.014176322 0.011373526 -0.00016447871 -3.5903966e-005 0.0029451451 0.0077362633 0.26655594 -0.54996526
18488750000 -0.20007357 -0.031008488 -4.8583031e-005 -9.9292665e-005 0.0041130832 -0.0048189922 0.36233908 -0.39309853
18510000000 -0.091162607 -0.1499075 -0.00013000194 -0.0002089215 -0.00045174637 0.0022881981 0.50723517 -0.55082905
18531250000 -0.034851544 -0.011295672 3.0701951e-005 0.00010838643 0.0060331109 -0.0035123583 0.37963715 -0.54705071
18552500000 -0.055222817 -0.19156593 3.1517986e-005 9.0193753e-006 -0.0050113564 -0.0062291152 0.28793508 -0.5346843
18573750000 0.081538707 -0.18509196 0.00011192528 -8.0455466e-005 -0.00048702452 0.0044501792 0.15942341 -0.19438122
18595000000 0.084225707 -0.074735291 8.3717612e-005 -8.5311129e-008 -0.00059815764 -0.0063569071 0.44166902 -0.11032014
18616250000 0.043269064 -0.14284858 -1.1750625e-005 -9.7918994e-005 -0.004520759 0.0055615972 0.3847464 -0.47042778
18637500000 0.1662882 -0.10229819 -3.1001877e-005 -4.6616424e-005 0.0048180162 -0.00012614562 0.26961762 -0.1566835
18658750000 0.076232217 -0.064490356 -4.1442869e-005 4.0560633e-005 -0.0027352683 -0.0017756865 0.50303584 -0.49535897
18680000000 0.08825022 -0.19868022 4.785378e-005 -3.8791663e-005 0.0017892886 0.0016926383 -0.030168755 -0.44363445
18701250000 0.24199311 -0.091683246 -6.8144574e-005 3.967225e-005 -0.0016704513 -0.0061927442 0.23847267 -0.10282976
18722500000 0.14269856 -0.05823328 -2.8912693e-005 -5.1122006e-005 -0.005337344 0.0040566949 0.17918843 -0.29222175
18743750000 0.22993092 -0.15575455 8.196928e-005 8.2037826e-005 0.0016294852 0.00080850493 0.16172627 -0.2501837
18765000000 0.21682212 0.079112723 6.4759675e-005 3.7260193e-005 -0.0042137862 0.0010188624 0.19177979 -0.35459507
18786250000 0.088966317 -0.019881269 -0.00013461777 -5.5185021e-005 0.0029860251 0.007417812 0.054733247 -0.33895358
18807500000 0.23750179 -0.096465595 8.7125853e-005 6.2777792e-005 0.0052679656 -0.0042325091 0.033030123 -0.42762631
18828750000 0.13283494 -0.051057767 2.7191547e-005 5.8630849e-005 -0.0041652075 0.001311533 -0.023912396 -0.45755848
18850000000 0.15162168 -0.049538292 0.00010947521 3.655834e-005 0.0072280425 -6.3093234e-005 0.10585064 -0.10803894
18871250000 0.23945507 0.096901216 -7.2294482e-005 6.9885382e-006 -0.0065365285 -0.0038296389 0.12663242 -0.59182292
18892500000 0.14164789 0.23764521 7.7864926e-005 0.00019224806 0.0026252798 0.005948192 0.045603156 -0.4286654
18913750000 0.11532519 0.031535503 0.00011849522 1.8540313e-005 0.0008762785 -0.0037179457 0.20297273 -0.61256617
18935000000 0.082092375 0.00086243957 -8.1967533e-005 -2.4352261e-005 -0.0012024206 0.003867917 -0.076927818 -0.68060261
18956250000 -0.041531041 -0.0099903466 -7.9177604e-005 -2.0108822e-005 0.0067322571 -0.0013774878 -0.015639096 -0.50272626
18977500000 0.018894274 -0.064004734 -5.0551816e-006 -9.7495416e-005 -0.0022614559 -0.0052033314 0.12819143 -0.41473994
18998750000 0.064395674 0.17606439 0.00020177368 -1.5840209e-005 0.00059484347 0.0016477472 0.25330874 -0.53123766
19020000000 -0.043369636 0.13850126 -9.5245465e-005 0.00010792563 -0.0006561125 -0.0063588833 0.13206759 -0.5994392
19041250000 -0.10778479 0.0020379666 4.9706592e-005 -6.3639054e-005 -0.0052575972 0.0025446618 -0.0077995113 -0.49040753
19062500000 -0.11485342 0.074016862 5.6535544e-005 8.2076376e-006 0.0011490012 0.0014401301 0.2905212 -0.61897165
19083750000 -0.085667662 -0.17808843 -0.00011060629 3.3250359e-005 -0.0012360523 -0.00090947881 -0.039959401 -0.61429769
19105000000 0.078320071 -0.047799982 -7.3503878e-005 -5.1202546e-006 0.00015267111 0.0038798915 0.025987923 -0.22084439
19126250000 0.058506209 0.048848014 0.00010082084 -9.9818128e-005 0.0024985494 -0.0045619146 0.467188 -0.56324601
19147500000 -0.067619085 -0.050187267 -1.4590312e-005 7.3460113e-005 -0.0042855619 0.0012152677 0.10733333 -0.59240484
19168750000 -0.13424461 -0.11055616 3.640023e-005 -8.3745777e-005 0.001614764 -0.00029028443 0.1620716 -0.47184071
19190000000 -0.17399286 -0.19739681 0.00011476599 -4.0002167e-005 -0.0048484853 -0.00040041507 0.14304158 -0.48424959
19211250000 -0.11906624 -0.29509738 -4.7224489e-006 -4.0743043e-006 4.2117073e-005 0.0063951053 0.20465454 -0.45399097
19232500000 0.13626575 -0.15967806 -3.0778639e-005 0.00011697356 0.0036623043 -0.0016302698 -0.1000797 -0.33575925
19253750000 -0.0077222208 -0.11529882 8.4041669e-005 2.8304858e-005 -0.0027821758 0.0041063307 0.31974173 -0.27157944
19275000000 0.044676021 -0.20161676 -1.0924202e-005 -6.7305322e-005 0.0079763113 -0.0013827465 0.1899412 -0.5286265
19296250000 -0.0025264178 -0.14190747 0.0001147942 6.6857247e-005 -0.0041561625 -0.0036280085 0.027361179 -0.39529735
19317500000 -0.13613419 -0.23649305 2.4350486e-005 -8.2849665e-006 0.0021044579 0.0030616934 0.21067812 -0.35732216
19338750000 0.19816665 -0.29458794 -0.00020444319 -9.731617e-006 0.00031106648 -0.0042336006 -0.12764886 -0.5337016
19360000000 0.19000819 -0.20932417 -0.00011219623 -0.00021518787 -0.0041379868 0.003822027 -0.10785307 -0.19388051
19381250000 0.17316373 -0.23523256 5.8379504e-005 -6.1665472e-005 0.0065921773 -0.00020988486 0.16506255 -0.30604094
19402500000 0.20454602 -0.14117716 0.00011272143 8.6193788e-005 -0.0028712209 -0.0013779155 -0.053668879 -0.36962849
19423750000 0.035196636 -0.16266358 7.5907708e-005 7.1129332e-005 0.0049521839 0.0007514843 0.059062615 -0.47538161
19445000000 0.10188697 -0.16363826 -4.3143129e-005 2.6075557e-005 -0.00051652535 -0.007231662 -0.22272985 -0.36450294
19466250000 0.27199841 -0.11974116 0.00014400732 -1.1210881e-005 -0.0045572454 0.0029105856 -0.072417803 -0.3639257
19487500000 0.20028719 -0.062494785 2.3506231e-005 5.0719998e-005 0.0026338007 -0.003762742 -0.27648538 -0.47797701
19508750000 0.22656217 -0.16737333 7.7953933e-005 5.8287037e-006 -0.008070684 0.001193392 -0.19937435 -0.07889948
19530000000 0.14851694 0.033708777 7.785623e-006 -0.00017717785 0.0031410288 0.0046026437 0.12554286 -0.423278
19551250000 0.056342233 -0.014373089 -4.2440242e-005 -4.2603479e-005 0.0015381094 -0.0038760481 -0.44900945 -0.73472947
19572500000 0.22556818 -0.029246591 0.00020479548 -9.9943536e-005 -0.0036003562 0.0042160978 -0.18296354 -0.22754052
19593750000 0.16763717 0.10530616 7.6993303e-005 -4.2042295e-005 0.0061038607 -0.0033789896 -0.17660369 -0.63290036
19615000000 0.090931259 -0.018768333 -0.00010166946 -4.850937e-005 -0.0080712028 -0.0017355649 -0.34363952 -0.41172183
19636250000 0.1089674 0.047826596 8.9288129e-005 -0.00010254227 0.0023727254 0.0054659829 -0.12695841 -0.36521757
19657500000 -0.10483973 0.097277828 3.6143829e-005 8.1815313e-005 -0.0013516842 -0.0052830381 -0.17670101 -0.40995875
19678750000 -0.0016254467 0.012511486 -1.9326733e-005 0.00015392658 -0.0038811481 0.010129156 -0.068537079 -0.74702334
19700000000 -0.0079345219 0.09094099 4.7808477e-005 -0.00010647526 0.010097722 -0.0023890131 -0.38223571 -0.50372553
19721250000 -0.010717527 0.064681239 -9.8822515e-005 3.5264085e-005 -0.0051409374 -0.001729424 -0.073587254 -0.327097
19742500000 -0.14219917 -0.038927231 2.6256575e-005 0.00017387417 0.0052206959 0.0038687885 -0.14280349 -0.69981921
19763750000 -0.16653748 0.019793754 -0.00023748634 -5.0826769e-005 0.00045313966 -0.0085471356 -0.29077518 -0.33713937
19785000000 -0.21660721 0.064791642 -0.00011290352 -0.00010320494 -0.0043812781 0.0054201577 0.22650176 -0.28590712
19806250000 -0.074267469 -0.081314713 3.0104646e-005 7.3750511e-005 0.0044444092 -0.0022129617 0.016454779 -0.82487714
19827500000 -0.0874798 0.021737248 -6.5779832e-006 -0.00010552589 -0.0043025902 0.0012500113 -0.056811903 -0.35475519
19848750000 -0.2161606 -0.12020708 0.00010136012 -4.2011558e-005 0.0053296858 0.0030344487 0.063597262 -0.41155243
19870000000 -0.13607037 -0.12820773 -5.5886434e-005 0.00010851875 0.0005594627 -0.0063003073 -0.023135563 -0.41193911
19891250000 -0.25848565 -0.17142653 0.00020265397 5.9783037e-005 -0.00170208 0.0024933328 0.13665123 -0.29502389
19912500000 -0.09883187 -0.31220037 1.1502749e-005 -0.00017211131 0.0034822726 -0.0057328995 0.11027014 -0.010711367
19933750000 -0.004635762 -0.14023717 -0.00011693937 1.1845135e-005 -0.0070192544 -0.00092810742 0.26614222 -0.48694417
19955000000 -0.097588614 -0.21022376 -7.0670525e-005 -0.00012235765 0.00025541638 0.0033260756 -0.31056574 -0.3722223
19976250000 -0.16003315 -0.23986058 0.00010103402 -0.00012719102 -4.6380901e-005 -0.00087072386 0.057502151 0.029522808
19997500000 -0.19130452 -0.22981693 -1.046285e-005 -0.00016624396 -0.0028012337 0.0032865801 0.034895565 -0.16322233
20018750000 -0.073286302 -0.27022693 -0.00010687285 4.2603016e-005 0.005751044 -0.00077235064 -0.14935738 -0.011252138
20040000000 0.15299137 -0.3077682 -2.61394e-005 -0.000188317 -0.0048513273 -0.0017689113 0.046128388 0.2290027
20061250000 0.30449882 -0.073459007 -0.00012586272 -2.1494749e-005 0.0027637433 0.0011745553 0.020879298 -0.27289847
20082500000 0.098620914 -0.045067452 -7.1026479e-005 -0.00010919952 -0.0040908139 -0.003289799 -0.345209 -0.21596998
20103750000 0.13411039 0.010907073 0.0001294916 0.0001588001 -0.0024083671 0.0067005707 -0.33187199 -0.095809303
20125000000 -0.14040455 0.052080512 -0.00016612961 5.8678029e-006 0.005350404 -0.0011013186 -0.34347549 0.10726943
20146250000 0.052574418 -0.1828851 -0.00012843018 0.00018183059 -0.0046783579 0.002292329 -0.27464426 -0.291823
20167500000 0.27912861 -0.080143459 3.8060953e-005 -4.9221304e-005 0.0083350725 0.0034834966 -0.80139232 -0.15939133
20188750000 0.2181679 0.0045167692 -3.396648e-005 2.8296121e-005 -0.00072671141 -0.0053425361 -0.016734645 -0.11499308
20210000000 0.22093526 0.095406882 -0.00014608928 8.2479055e-005 -0.00082296331 0.002231091 -0.56823266 -0.84962219
20231250000 0.0092691565 0.35210484 3.3185068e-005 -0.00023751646 0.0028977003 -0.0042502708 -0.74910313 -0.1392553
20252500000 -0.12837555 0.17563783 0.00013069861 -7.9818501e-006 -0.0062745721 0.0016334617 -0.43914515 -0.43251199
20273750000 0.037528533 0.11614861 -0.00030256479 -0.00019474729 0.00510603 0.0022368392 -0.39007726 -0.37356237
20295000000 0.095685728 0.19856091 -0.00013972465 -3.6341571e-005 -0.0011758347 -0.0028993709 -0.45072433 -0.47094646
20316250000 0.039100762 0.17416823 -9.0070491e-005 -0.00010731992 0.0021374319 0.0043695569 -0.17510994 -0.55003244
20337500000 -0.11714078 0.24013709 -3.1115262e-005 2.1241467e-005 0.0043412717 -0.0070232037 -0.066055067 -0.79516488
20358750000 -0.31056473 0.35231653 -2.4265657e-005 -0.000185225 -0.0064466852 0.00034420533 -0.58817232 -0.68651062
20380000000 -0.33233091 0.082876585 2.5338868e-006 0.00015646585 0.0034456521 -0.00043755758 -0.31510034 -0.34710672
20401250000 -0.14872073 0.084066406 -0.00010487888 0.00018089339 -0.0048320852 -0.0041277935 0.29819119 -0.67449564
20422500000 -0.23097934 0.053746313 -0.00015001568 -6.0451326e-005 -0.0024538331 0.0067029074 -0.20957632 -0.63372928
20443750000 -0.12721518 0.043912757 -0.00013372935 -2.9829293e-005 0.0042296774 -0.0029896235 0.15012115 -0.1889416
20465000000 -0.26145446 0.22772831 -8.9900001e-005 -0.00014475177 -0.0044245343 0.0014978134 0.39309606 -0.8374325
20486250000 -0.38030866 0.079883285 -3.1269639e-005 -1.1674432e-006 0.0050417138 0.00072899996 -0.32785326 -0.33021328
20507500000 -0.17957419 -0.015086342 7.0946931e-005 5.7044726e-005 -0.00312974 -0.0050749956 0.23101255 -0.10812192
20528750000 -0.13879749 -0.10577346 4.5922694e-005 6.6684748e-005 -0.0017417839 0.0061388388 0.21889754 -0.16828026
20550000000 -0.096740305 -0.28457245 -9.5913732e-005 -0.00011310617 0.0016265169 -0.0052719014 0.1967091 -0.06182183
20571250000 -0.11045002 -0.14143588 5.4224587e-005 -0.00013845136 -0.0057943491 0.0066389707 -0.017735293 0.037670076
20592500000 -0.12683703 -0.087010473 -7.8962061e-005 -4.3448785e-005 0.0072942143 0.0014155786 0.3721714 0.22210869
20613750000 -0.10223198 -0.17483483 0.00017896354 6.9868351e-005 -0.0026779673 -0.0020409245 -0.23946697 -0.18891951
20635000000 0.25305742 -0.26174203 -0.0001744944 0.00016557515 0.004854254 0.0032982505 -0.41232613 0.58240891
20656250000 0.087304711 -0.25142774 -2.4323257e-005 6.5079919e-005 0.0012909053 -0.0052550682 0.24551493 0.47412363
20677500000 0.18457545 -0.35021856 2.0094507e-005 -5.4312088e-005 -0.0028747078 8.0769765e-005 -0.291922 0.013570318
20698750000 0.23865071 -0.081914581 2.5048377e-005 -1.0311762e-005 0.0012382029 0.0018699284 -0.54402536 0.49679086
20720000000 0.096105896 -0.14495596 4.879586e-005 6.7317851e-005 -0.0011918934 -0.0024085275 -0.27401963 0.30353612
20741250000 0.34241453 -0.1071403 -3.4600082e-005 7.4789791e-006 0.0004887408 0.0045182244 -0.78557318 0.23858196
20762500000 0.34751809 -0.036199164 7.6730403e-006 1.2021584e-005 0.0048585227 -0.0025747742 -0.68654037 0.29768974
20783750000 0.23727801 -0.078744911 7.370839e-005 -4.5047305e-005 -0.0036975956 -0.0018309265 -0.47507322 0.35356879
20805000000 0.40381604 0.055309307 -1.9139936e-005 -7.1095477e-005 0.0041466365 0.0010148253 -0.41713715 -0.059193585
20826250000 0.25639969 0.2268353 -5.9568381e-005 -0.00016470432 -0.0038960483 -0.0071769757 -0.91357541 -0.21760796
20847500000 0.21279693 0.082965679 1.6513781e-005 -0.00017816639 -0.0036581915 0.0055571948 -0.58920008 -0.010969106
20868750000 0.28748226 0.13909449 7.7555786e-005 -0.00017184678 0.0028089518 -0.002390807 -0.43146053 -0.7416718
20890000000 0.17582297 0.17124026 0.00023393682 3.0031893e-005 -0.0063869809 0.0021390384 -1.0697469 -0.33408043
20911250000 0.23056719 0.092002608 3.2811582e-005 0.00012689279 0.0068247234 0.0039837859 -0.38624397 -0.18086898
20932500000 0.21103869 0.28668302 0.00017447729 8.521675e-005 -0.0031519313 -0.0068702013 -0.47786027 -0.74870026
20953750000 -0.037097298 0.34246868 -0.00012111205 -0.00017586323 0.00080741121 0.0062096692 -0.44980964 -0.62090433
20975000000 0.18770647 0.026860131 -9.5339979e-005 -0.00016918461 0.0015056267 -0.0064186738 -0.21774477 -0.55227429
20996250000 0.079039544 0.099239461 -7.4814991e-005 -0.00012457592 -0.0071615353 0.0038699163 -0.17783345 -0.56169546
21017500000 -0.1061965 -0.022216082 0.00024701902 -0.00013210306 0.0048900396 0.0025540558 -0.15959841 -0.72876078
21038750000 -0.014429591 0.053104594 -0.00016712229 0.00011700563 -0.0040265061 -0.00024764665 -0.23005131 0.17448519
21060000000 -0.21140014 0.16608994 -0.00010243266 4.9490194e-005 0.0044611511 0.005000168 0.58681482 -0.32136086
21081250000 -0.21730065 -0.030236801 -2.138423e-005 8.5066116e-005 0.0018358646 -0.0031158312 0.054469552 -0.6293757
21102500000 -0.076870501 -0.066075027 -2.1130674e-005 0.00012177111 0.00011707493 -0.0010450416 0.10040717 0.018090386
21123750000 -0.114415 -0.13045846 -3.3930861e-005 -0.00020901515 0.0011611488 -0.00057856808 0.44849843 -0.27260447
21145000000 -0.053737536 -0.34766689 5.5760105e-005 -3.6559562e-005 -0.0018480263 -0.0027518112 -0.081390545 -0.37988415
21166250000 0.047927141 -0.15158983 -4.0489096e-005 0.00013169271 -0.0010490968 0.0027152719 0.12764679 0.37118685
21187500000 -0.040773228 -0.17632805 5.8606609e-005 -5.9367017e-006 0.0031218808 0.00012201096 0.094902106 0.097467907
21208750000 0.021982899 -0.38109541 -9.5200805e-005 0.00022057786 -0.0029745304 -0.0010348338 0.15676577 0.077730849
21230000000 0.039668743 -0.2206468 0.00020100444 5.585674e-006 0.0069142403 0.0034165177 -0.11783973 0.041078135
21251250000 -0.14708494 -0.44698608 0.00010138686 0.00010691144 -0.0028518289 -0.0096016182 -0.0038903309 0.53221792
21272500000 0.15523544 -0.37922469 7.0140319e-005 -1.3999696e-005 -0.0026400092 0.00643112 0.16021849 0.012259749
21293750000 0.23983164 -0.15950429 -9.4867879e-005 0.00012353151 0.0030238621 -0.0073859571 -0.71763974 0.36326379
21315000000 0.24667147 -0.29693395 -3.7865964e-005 -0.00011239275 -0.0094772354 0.0034976848 -0.061774042 0.54240364
21336250000 0.32136095 -0.27768081 -6.4239583e-005 -6.6065717e-005 0.0077544306 0.0035539167 -0.23778185 -0.034876678
21357500000 0.19138032 -0.22006491 -2.4059835e-005 -8.4985724e-005 -0.0048700091 -0.0039455546 -0.6556794 0.29356816
21378750000 0.072219372 -0.30538142 -6.9495101e-005 5.9039903e-005 0.0021001161 0.0058021354 -0.35984516 0.36221948
21400000000 0.29542896 -0.25808641 6.8037967e-005 -8.9682675e-005 0.0030101542 -0.0059670429 -0.59873611 -0.080847532
21421250000 0.19589198 -0.1075756 -2.2838263e-005 1.670317e-005 -0.0064056958 0.0019510071 -0.73112053 0.12744583
21442500000 0.31016505 -0.23285557 6.5121756e-005 7.5518103e-005 0.0044320826 0.00018275392 -0.59605777 0.18218575
21463750000 0.34949791 -0.03012006 -0.0001111056 0.00019742073 -0.005293367 -0.0005616034 -0.28500238 0.073092006
21485000000 0.077920102 -0.057630476 5.2158393e-005 -1.2723454e-005 0.001511134 0.0055939164 -0.63953215 -0.34607446
21506250000 0.20169429 -0.12001763 0.00023961203 -0.00011771915 0.0049092011 -0.0012603604 -0.53594613 0.089698568
21527500000 0.08457835 0.064214468 -0.00026190188 -3.8844217e-005 -0.0035632688 -0.00086936902 0.065096341 -0.24190968
21548750000 0.033650648 -0.087639973 9.4763236e-005 -3.7086662e-005 0.0053041694 0.0020583116 -0.82913417 -0.52295309
21570000000 0.2015112 -0.078535706 1.3388181e-005 -0.0001608087 -0.00012101467 -0.0062449221 -0.20550467 0.090119846
