!Keysight Technologies,N5242B,MY47200105,A.14.00.23
!Date: Friday, May 10, 2024 10:59:09
!Correction: S11(C  2-Port  ) 
!S21(C  2-Port  ) 
!S12(C  2-Port  ) 
!S22(C  2-Port  ) 
!S2P File: Measurement: :
# Hz S  RI   R 50
18000000000 0.12738484 -0.00040092159 -2.2232069e-005 -4.2519579e-005 0.02691612 -0.006740483 0.89677882 -0.43005475
18021250000 0.048958763 -0.25418827 7.103019e-005 2.2282261e-006 -0.025702287 -0.0017936552 0.31249043 -0.18794446
18042500000 0.2298822 -0.070315592 -4.086741e-005 2.6137279e-005 0.024177155 0.019185053 0.50609803 -0.039389823
18063750000 0.12953068 0.021992514 -0.00010783428 6.8727335e-005 -0.0071108071 -0.02260503 0.4195087 -0.18639325
18085000000 0.22240913 -0.069339052 0.00012773857 -5.779952e-005 0.0005668549 0.021464625 0.43705329 0.099266015
18106250000 0.35544229 0.0073021948 -0.00013943197 -0.00023475068 0.015348402 -0.025559198 0.48654774 -0.088703811
18127500000 0.18459499 -0.072368816 0.00017599096 6.1981285e-005 -0.029399732 0.009273544 0.58306247 -0.20266108
18148750000 0.17825951 -0.054970443 -1.0180585e-005 -9.3095668e-006 0.026935197 0.0040435898 0.30691537 -0.36816171
18170000000 0.30969763 0.1043118 7.7540681e-005 -1.9926722e-005 -0.023567993 -0.012780063 0.096744947 -0.10467444
18191250000 0.13099287 0.20254372 0.00014231345 -0.00011074355 0.014830538 0.024274511 0.28956935 -0.070506029
18212500000 0.26938525 0.071258351 2.8943798e-005 -5.505465e-005 0.002144119 -0.028519243 0.10570595 -0.11164971
18233750000 0.13931447 0.16530366 -2.3666635e-005 5.4563034e-006 -0.014096265 0.02055886 0.33365822 -0.14593297
18255000000 -0.0076041156 0.049543731 -8.7095446e-005 4.5354678e-005 0.022192746 -0.016444122 0.44203961 -0.53503358
18276250000 0.15095894 0.01483337 1.0067785e-005 -1.9226934e-005 -0.031379823 0.0013824938 0.15700035 -0.45811173
18297500000 0.052488305 0.18411638 -1.2583778e-005 3.4463221e-005 0.022884538 0.015554059 0.07756421 -0.45623112
18318750000 0.059961002 0.12973972 8.2709867e-006 -5.6271452e-005 -0.01577777 -0.022044363 0.11669086 -0.33181578
18340000000 0.11698952 0.088013537 1.6845693e-006 7.5721211e-005 0.0018301149 0.031403571 0.14279911 -0.23268777
18361250000 -0.14120176 0.095528394 -4.7384092e-005 -9.8099408e-005 0.015927318 -0.025315832 0.3592003 -0.47892097
18382500000 -0.071701564 -0.038376454 -0.00011315292 -0.0001116678 -0.022572819 0.016254341 0.39367187 -0.39961046
18403750000 -1.8414697e-005 -0.011282913 -0.00011825954 1.189005e-005 0.030512504 -0.0039800084 0.27618983 -0.67531735
18425000000 -0.035793066 0.040024567 2.0446998e-005 0.00017245529 -0.029396288 -0.013218001 0.060249593 -0.56327534
18446250000 0.0041101607 -0.13819711 -7.6263947e-005 -0.00011530489 0.016599301 0.028141543 0.50928366 -0.4170455
18467500000 0.018855356 0.018554846 -2.3520033e-005 -0.00015513347 0.0004743863 -0.02753355 0.26628122 -0.55065042
18488750000 -0.22264314 -0.040576208 -2.7240936e-005 -5.7168494e-005 -0.011317788 0.0260063 0.36429596 -0.39569819
18510000000 -0.085406438 -0.16751771 0.00012154629 -0.00024333251 0.029327642 -0.01821126 0.50708675 -0.55788398
18531250000 -0.033657227 0.019070607 -0.00010255919 2.4259393e-006 -0.029091706 -0.0018536316 0.37967905 -0.55116314
18552500000 -0.031963356 -0.21479525 4.8325332e-005 2.5440168e-005 0.024529122 0.0086520771 0.28827998 -0.54045576
18573750000 0.10789283 -0.19758882 -0.00011267437 3.823965e-005 -0.019003706 -0.024296679 0.15763937 -0.19441858
18595000000 0.091539629 -0.087146595 4.9244201e-005 -3.2187265e-005 0.00076484249 0.029164905 0.44743359 -0.10950027
18616250000 0.025699856 -0.1734343 1.2752044e-005 2.2860875e-005 0.011124297 -0.025496876 0.38962314 -0.4755187
18637500000 0.1786404 -0.097307108 4.4188688e-005 -4.4561377e-005 -0.025313316 0.016921401 0.27419668 -0.15522772
18658750000 0.073882967 -0.062089548 7.5938115e-005 -4.7422041e-008 0.031062428 -0.0023242212 0.51243311 -0.49960819
18680000000 0.090540551 -0.2054877 -1.4747911e-005 -0.00012288464 -0.026325254 -0.014119482 -0.028667193 -0.44393125
18701250000 0.25694415 -0.076737456 7.1855327e-005 7.0274245e-006 0.014742917 0.022500189 0.24713787 -0.098752491
18722500000 0.11116032 -0.051399078 -0.00013780144 5.1320745e-005 -0.0047728061 -0.028803883 0.187225 -0.29017237
18743750000 0.23619446 -0.16176525 -5.1740295e-005 -5.6935442e-005 -0.015476523 0.027917592 0.16842318 -0.24939781
18765000000 0.22201152 0.10978516 -3.2229826e-005 3.0426194e-005 0.023175735 -0.014498377 0.19622321 -0.3539319
18786250000 0.088906609 -0.013801528 5.1000028e-005 4.8074995e-005 -0.02845894 0.0070604286 0.055863153 -0.33497626
18807500000 0.27849331 -0.088030934 5.7726058e-005 -1.6750606e-005 0.031470604 0.011497948 0.033107501 -0.42371112
18828750000 0.11642392 -0.056418691 -0.00011082052 -3.4160945e-005 -0.018501539 -0.02534421 -0.02421651 -0.45273319
18850000000 0.12591094 -0.0396128 -6.0330221e-005 4.0164846e-006 0.0050424859 0.030270856 0.10926584 -0.09748996
18871250000 0.24336371 0.13128719 -4.5092558e-005 2.0933419e-005 0.0081370976 -0.029759178 0.12766823 -0.59145623
18892500000 0.13232762 0.28543672 9.5408621e-005 -3.2731117e-005 -0.023177816 0.022327075 0.044089995 -0.42493865
18913750000 0.13757814 0.045661435 -9.3969116e-005 -1.6992468e-005 0.03095302 -0.0059484178 0.2020556 -0.61209553
18935000000 0.094323978 0.0074367332 2.4155834e-005 4.3759781e-005 -0.027436372 -0.0097608492 -0.082297869 -0.68042052
18956250000 -0.07752163 -0.0037905783 -6.492377e-005 -5.7452697e-005 0.021576935 0.022468913 -0.019149715 -0.50135452
18977500000 0.0022776378 -0.066188566 -3.7839152e-005 -9.0126478e-006 -0.0039556669 -0.033431776 0.12646665 -0.41078436
18998750000 0.051064178 0.21160759 0.00015335849 0.00011069653 -0.011480104 0.027815761 0.25576556 -0.53139496
19020000000 -0.041612212 0.15317135 3.7566479e-005 7.3702518e-005 0.021647014 -0.022348434 0.13081539 -0.60238838
19041250000 -0.10482105 -0.031222539 -3.0847114e-005 -1.0893057e-005 -0.032454837 0.0045282901 -0.011256719 -0.49178565
19062500000 -0.16552368 0.083799839 -0.00018722894 0.0002859591 0.027604135 0.011359558 0.29310185 -0.62272501
19083750000 -0.13058177 -0.19571057 4.0077815e-005 1.2454772e-006 -0.018037096 -0.022291943 -0.04122255 -0.61862111
19105000000 0.053550921 -0.015732372 0.00014494489 -4.6801179e-005 0.0041532083 0.032269247 0.02800837 -0.22046228
19126250000 0.056041539 0.082326367 -8.4624888e-005 2.7607253e-005 0.011888813 -0.02998722 0.47423822 -0.57379341
19147500000 -0.063295551 -0.061810974 -4.5950332e-005 1.2777567e-005 -0.023308381 0.016502069 0.10814824 -0.59955615
19168750000 -0.15363179 -0.12029658 6.1646817e-005 -7.0735361e-005 0.025405217 -0.0045594401 0.16328149 -0.47662967
19190000000 -0.20195433 -0.20302585 6.3620598e-007 -9.4114323e-005 -0.028228035 -0.0085675977 0.14646098 -0.48568091
19211250000 -0.14977844 -0.29993784 -4.3745629e-005 -3.1817293e-005 0.017083749 0.026197793 0.21096736 -0.45704228
19232500000 0.16725378 -0.12804255 -2.3853758e-005 -6.9678012e-005 -0.00042023146 -0.027687604 -0.1007882 -0.3359943
19253750000 0.0047918679 -0.13277721 -5.6976081e-005 0.0001176725 -0.011749617 0.029974857 0.32958516 -0.27106723
19275000000 0.06300877 -0.23585849 -0.00012695244 -0.00014908811 0.026451509 -0.018980766 0.19493902 -0.53273106
19296250000 -0.00052505941 -0.15261124 -0.00015377051 -4.2343465e-005 -0.030624298 0.0018788568 0.030239601 -0.395805
19317500000 -0.17144275 -0.25888103 0.00015256589 4.0188403e-005 0.029944824 0.01121791 0.21666193 -0.35665566
19338750000 0.22320892 -0.2853353 -8.3036808e-005 2.8158987e-005 -0.017991964 -0.024690917 -0.12659258 -0.53466785
19360000000 0.20962815 -0.20902458 7.779638e-005 -0.00012846326 0.002265906 0.032561164 -0.10772385 -0.19087625
19381250000 0.18723515 -0.26717463 -7.9564525e-005 -2.2827351e-005 0.014354819 -0.028910486 0.16943793 -0.30417621
19402500000 0.19385923 -0.14571473 0.00015650237 -7.4274947e-005 -0.025010347 0.020105971 -0.053357918 -0.36825275
19423750000 0.0013738443 -0.15918961 6.4822489e-005 9.9013057e-005 0.034865964 -0.0076900516 0.060118839 -0.47716919
19445000000 0.09814927 -0.14314963 -3.5808687e-005 5.3003652e-005 -0.030312166 -0.01632788 -0.22659032 -0.36173949
19466250000 0.29586244 -0.10872721 1.172371e-005 4.8503916e-005 0.018709162 0.0241751 -0.070282198 -0.36250544
19487500000 0.1964473 -0.054426741 3.7433303e-005 -8.2580198e-005 -0.0061499993 -0.034057096 -0.27832988 -0.4798269
19508750000 0.23464869 -0.1865643 -0.00016219416 7.1696137e-005 -0.017042952 0.035620943 -0.20009837 -0.074500769
19530000000 0.1126027 0.049871054 -1.3252724e-005 -1.5919892e-005 0.027090505 -0.022064734 0.13103348 -0.42614046
19551250000 0.019316809 0.015052702 -0.00013694633 6.7285582e-005 -0.033199672 0.0042593023 -0.45524269 -0.74174285
19572500000 0.243488 0.0024015596 -5.5298933e-005 2.6865528e-005 0.032754123 0.013705417 -0.18336751 -0.22571276
19593750000 0.16963097 0.1352521 0.00026948261 -7.8212579e-006 -0.021400841 -0.028978687 -0.1784859 -0.63573623
19615000000 0.09597753 -0.022766886 -4.9605595e-005 -9.3872426e-005 0.00090331543 0.035262287 -0.34447688 -0.41223744
19636250000 0.11425935 0.048486307 -0.00011860669 -3.3937416e-005 0.012650076 -0.032084227 -0.12767088 -0.36439282
19657500000 -0.14507632 0.10198563 0.00011055298 -0.00018634879 -0.029187908 0.021621946 -0.17571951 -0.40730175
19678750000 0.008330049 0.017374765 2.594023e-005 -0.00012645982 0.032255426 0.0018979963 -0.065392986 -0.74995875
19700000000 -0.0059868991 0.091946386 0.00011078819 6.6416265e-005 -0.026904427 -0.013511347 -0.38609684 -0.50309837
19721250000 0.0061604083 0.057575997 -2.8629391e-005 9.4430288e-005 0.023234244 0.028062616 -0.070397399 -0.32209817
19742500000 -0.15712111 -0.06034242 1.2644332e-005 -3.9186954e-005 -0.0031383119 -0.035037279 -0.14309384 -0.70227826
19763750000 -0.17907265 0.024171706 -9.3529212e-005 0.00010139019 -0.013089171 0.030104415 -0.29337713 -0.33355322
19785000000 -0.2319469 0.072761253 3.5484204e-006 0.00028003249 0.025402321 -0.024018588 0.23066986 -0.28213355
19806250000 -0.050646875 -0.085332111 -4.477991e-005 0.00012835776 -0.035214841 0.0043768911 0.016662112 -0.82992858
19827500000 -0.059759673 0.02270849 1.414845e-005 -2.0657008e-006 0.035822537 0.015684897 -0.059460543 -0.35370353
19848750000 -0.22276835 -0.1512446 -6.4971355e-005 -1.4757137e-005 -0.022426261 -0.029687876 0.06307184 -0.41113144
19870000000 -0.13732754 -0.11175466 -3.0717198e-005 -0.00014398819 0.0071423389 0.036753617 -0.025516164 -0.41316941
19891250000 -0.27944422 -0.15526846 4.5331693e-005 6.4465225e-005 0.012494219 -0.037176471 0.13520755 -0.29840428
19912500000 -0.071893796 -0.31577092 5.0536884e-005 -0.00017992972 -0.031330138 0.023703825 0.10679254 -0.008650979
19933750000 0.03126739 -0.11077738 0.00012853219 2.7027388e-006 0.03401354 -0.0056899195 0.26454413 -0.49490613
19955000000 -0.058843356 -0.22482203 0.00019672481 8.332578e-005 -0.03895003 -0.014723149 -0.31988496 -0.37987897
19976250000 -0.13895936 -0.2426867 7.6021774e-005 6.6062021e-005 0.026146213 0.032242313 0.056110322 0.027793696
19997500000 -0.19418 -0.22717953 3.1224899e-005 0.00011852732 -0.0094975 -0.038152993 0.033817023 -0.16836694
20018750000 -0.073966071 -0.25188503 9.0590976e-005 -8.0179387e-005 -0.0087137436 0.040472258 -0.14968292 -0.015800193
20040000000 0.18400465 -0.30260199 0.00024243417 -7.1106741e-005 0.030820662 -0.030675126 0.049023263 0.22591899
20061250000 0.34239304 -0.068360075 0.00023319019 8.4141015e-005 -0.03982373 0.0074400124 0.026662365 -0.28055352
20082500000 0.084498048 -0.069199815 6.2077088e-005 -0.00011110643 0.035535607 0.014075966 -0.34161255 -0.22494707
20103750000 0.14229761 0.0073749246 0.00014889226 -0.00014248953 -0.028597036 -0.026245056 -0.32872924 -0.09967687
20125000000 -0.19831175 0.057920441 3.2545224e-005 -2.7787401e-005 0.010136899 0.041792709 -0.33644485 0.10709268
20146250000 0.047533929 -0.18666634 0.00015511102 6.2960758e-006 0.01266157 -0.03468794 -0.26476043 -0.29780459
20167500000 0.28956434 -0.061116841 -1.0747844e-005 1.121869e-005 -0.028680019 0.026038971 -0.80076814 -0.15901411
20188750000 0.21605581 -0.00090085086 0.00011280507 -3.721294e-005 0.037582166 -0.0096801464 -0.0014603413 -0.11302387
20210000000 0.2329061 0.075695433 -0.00018048761 8.1447593e-005 -0.035078295 -0.016997917 -0.56082451 -0.85164243
20231250000 -0.03963102 0.35142657 -5.7902776e-005 -4.5614703e-005 0.026320862 0.028616201 -0.74356782 -0.13273676
20252500000 -0.18176812 0.16859415 7.7903474e-005 0.0001183131 -0.0091558611 -0.03711009 -0.43440753 -0.42971331
20273750000 0.029502181 0.14147781 -0.00015335612 3.0736781e-005 -0.0096277036 0.036936674 -0.3835392 -0.36702204
20295000000 0.099149555 0.22117101 9.8677854e-005 -1.0413832e-005 0.028971858 -0.024005407 -0.45479366 -0.4668406
20316250000 0.049972199 0.17323022 0.00013864212 4.4194469e-005 -0.03375357 0.010510143 -0.17292431 -0.5427857
20337500000 -0.12687427 0.2312776 -9.904032e-005 0.00022116891 0.03732438 0.010119086 -0.068090871 -0.79194212
20358750000 -0.33266294 0.37537035 0.00013463596 -0.00014662871 -0.026685931 -0.030240353 -0.60039479 -0.68065244
20380000000 -0.32416528 0.073686518 -0.00028998195 7.0344548e-005 0.007687035 0.035772339 -0.32247096 -0.33612549
20401250000 -0.10736181 0.1012183 -6.0366499e-005 -8.322081e-005 0.0084032165 -0.035501201 0.29669845 -0.67131501
20422500000 -0.2092838 0.031279795 -1.0403992e-005 -1.7048358e-005 -0.028692072 0.026898609 -0.21933845 -0.6339854
20443750000 -0.1023422 0.011871622 0.00035067851 7.1418726e-005 0.036587678 -0.0090757124 0.14384548 -0.18387452
20465000000 -0.27639401 0.24497165 -2.1745333e-005 -4.0124974e-005 -0.033049379 -0.014764771 0.39035648 -0.84709066
20486250000 -0.38023239 0.083839409 -0.00018857408 -0.00019080196 0.025444388 0.025744999 -0.34299392 -0.33564577
20507500000 -0.1365691 0.0064215749 0.00013296409 3.0016312e-005 -0.010344127 -0.035964213 0.22696255 -0.11260518
20528750000 -0.11159915 -0.10544082 -8.3290424e-006 -8.8267727e-005 -0.011575723 0.036235612 0.21707116 -0.17859636
20550000000 -0.073887169 -0.3206203 4.8739817e-005 -2.1932696e-005 0.024077104 -0.026079323 0.19178435 -0.074088275
20571250000 -0.13946863 -0.14450108 9.8930694e-005 7.7751058e-005 -0.037243314 0.01345013 -0.023648841 0.027037654
20592500000 -0.14699066 -0.073112041 -0.00016176522 0.00019037176 0.037827022 0.010678496 0.37601259 0.21533188
20613750000 -0.1030371 -0.16809022 -2.0122345e-005 1.1927003e-005 -0.026554042 -0.025955666 -0.23991503 -0.20600016
20635000000 0.31687924 -0.25504178 1.3690224e-005 -0.00012573402 0.015366052 0.038395017 -0.41062269 0.57853377
20656250000 0.085189618 -0.26905501 -4.1536023e-005 7.876959e-005 0.011888905 -0.03650156 0.2608377 0.46708149
20677500000 0.17638949 -0.38343132 -4.0759929e-005 2.5680609e-005 -0.02771336 0.023250788 -0.28349519 0.00014889087
20698750000 0.21380201 -0.053799018 -0.00014087549 1.9233226e-005 0.037238818 -0.0085073709 -0.5352062 0.492919
20720000000 0.07353083 -0.15759572 -9.378908e-005 8.2363265e-005 -0.035904199 -0.0096100904 -0.26019916 0.30125472
20741250000 0.37400386 -0.094597124 -0.00017188709 -0.00011155913 0.032092918 0.027580632 -0.77396232 0.23390989
20762500000 0.35317042 -0.03724004 0.00013291102 4.2104599e-005 -0.0072636404 -0.039692387 -0.67667741 0.30331618
20783750000 0.20836575 -0.096171908 -9.9304443e-006 -0.00011507994 -0.010360895 0.033666071 -0.45994043 0.36369768
20805000000 0.39247754 0.062756129 -6.4948712e-005 4.0328887e-005 0.030387878 -0.028891962 -0.40227029 -0.053765662
20826250000 0.21920747 0.24746606 -1.2084553e-005 -9.5675307e-005 -0.04455296 0.0071013579 -0.91079044 -0.20762669
20847500000 0.22260302 0.073237807 -4.6591785e-007 -0.00021120794 0.039580122 0.013912621 -0.58418173 0.003712639
20868750000 0.30427775 0.12481244 4.2217085e-005 -0.00025486146 -0.031254251 -0.035445493 -0.42439389 -0.72921371
20890000000 0.15271558 0.14763609 -9.7410091e-005 -0.00016214357 0.0049344841 0.045698892 -1.0810947 -0.31702623
20911250000 0.21829237 0.065948382 -0.00018916238 -0.00013416144 0.015185045 -0.039156463 -0.38639286 -0.16602169
20932500000 0.18137476 0.29149267 0.00012900621 -4.6839668e-005 -0.035773642 0.027412241 -0.49016947 -0.74228919
20953750000 -0.087337397 0.35758814 0.00020688841 0.00034371563 0.044876497 -0.0052290065 -0.4657675 -0.6168645
20975000000 0.22778583 0.010240236 -4.8510901e-005 -0.00012971196 -0.040511902 -0.019820582 -0.23552102 -0.54749942
20996250000 0.086323552 0.10329009 2.1721893e-005 -3.2586126e-005 0.02671352 0.036719494 -0.19469664 -0.55630052
21017500000 -0.12429406 -0.039637897 0.00013504855 0.00013668355 -0.0026209743 -0.042489883 -0.17997979 -0.73561871
21038750000 -0.049103357 0.063651867 -1.2591806e-005 0.00010491991 -0.015112307 0.045443173 -0.24789837 0.18377249
21060000000 -0.25947496 0.20014912 -0.00020168957 7.3015115e-005 0.0404546 -0.023797005 0.58214712 -0.3285006
21081250000 -0.199856 -0.035188928 0.00013002308 -7.6013734e-005 -0.043073721 0.0067124157 0.039603516 -0.64685756
21102500000 -0.04347004 -0.07374879 -9.1892616e-006 0.00015021146 0.043321718 0.0121774 0.088043883 0.010407181
21123750000 -0.1034801 -0.13548522 -7.5738302e-005 0.00023769878 -0.029533708 -0.037947178 0.44131583 -0.29072353
21145000000 -0.073280238 -0.36440757 2.1935188e-005 0.00013002877 0.0035683804 0.045955881 -0.093295522 -0.40284023
21166250000 0.019583207 -0.10376476 -6.4319749e-005 3.7344696e-005 0.017083012 -0.041414205 0.1208616 0.36194602
21187500000 -0.045821298 -0.1559467 3.7592567e-005 4.4419667e-005 -0.035089307 0.026838986 0.093770526 0.08301232
21208750000 0.054126564 -0.40938216 7.6801538e-005 -8.3433064e-005 0.043662496 -0.0055295001 0.15936013 0.061253823
21230000000 0.083663844 -0.21928412 -3.1829721e-005 0.00012892534 -0.038738452 -0.015836887 -0.11611533 0.025471125
21251250000 -0.16439849 -0.48799288 -0.00012269015 -0.0002031553 0.025023272 0.029104285 0.0058877114 0.52942663
21272500000 0.15277149 -0.35573193 0.00015065956 0.00011056169 -0.0046255328 -0.040817931 0.17811449 -0.00053696363
21293750000 0.23438881 -0.11922707 -9.9738601e-005 0.00012537833 -0.016682543 0.039500508 -0.71179563 0.3591111
21315000000 0.2638669 -0.30945459 -8.3498882e-005 4.3693995e-005 0.027540272 -0.023696994 -0.046974245 0.54065865
21336250000 0.37608221 -0.3061063 1.529357e-005 -7.9495774e-005 -0.042106453 0.0095618498 -0.22357687 -0.041685235
21357500000 0.2301861 -0.26343673 -3.4662833e-005 4.6408873e-005 0.04332507 0.014866454 -0.64809328 0.29575968
21378750000 0.068650961 -0.34209275 0.00019450067 7.3233794e-005 -0.026005443 -0.032720186 -0.35043016 0.36960524
21400000000 0.31808913 -0.26137489 -7.0971299e-005 0.00018196183 0.010945539 0.042432535 -0.59239137 -0.074762031
21421250000 0.18349907 -0.10597061 0.00013379694 0.00021240827 0.012550159 -0.042575747 -0.72712797 0.14121318
21442500000 0.33644634 -0.2815966 -3.4214467e-005 3.1876887e-005 -0.032112479 0.027603671 -0.59107918 0.19743192
21463750000 0.3753958 -0.062429409 -0.00011435748 7.2896641e-005 0.039466977 -0.0036548092 -0.27741769 0.08413066
21485000000 0.046140581 -0.093234278 -8.405088e-005 -4.5610745e-005 -0.040801339 -0.016837601 -0.64548981 -0.33593786
21506250000 0.21401042 -0.12640634 -2.086007e-005 0.00010929514 0.029151283 0.033993568 -0.53842753 0.10404218
21527500000 0.064668886 0.092271477 0.00014140131 -0.00013901351 -0.0042253034 -0.048356801 0.066625915 -0.23248486
21548750000 0.0406298 -0.093690552 2.2924161e-005 2.2499768e-005 -0.016903361 0.046159707 -0.84500289 -0.51833892
21570000000 0.23841697 -0.10213182 9.1243797e-005 4.327131e-005 0.036126461 -0.028896956 -0.21347749 0.098343968
21591250000 -0.0047796173 -0.050184257 -0.00017415096 5.0316925e-005 -0.05067635 0.0028709034 0.11156762 -0.37358105
21612500000 -0.11266612 -0.17864555 -0.00010189388 3.9718969e-005 0.044432219 0.020996932 -0.32968262 -0.54915863
21633750000 -0.089103311 -0.022321608 0.0001292635 3.8344799e-005 -0.029726233 -0.035171475 -0.18621342 -0.01007629
