!Keysight Technologies,N5242B,MY47200105,A.14.00.23
!Date: Friday, April 26, 2024 11:08:35
!Correction: S11(C  2-Port  ) 
!S21(C  2-Port  ) 
!S12(C  2-Port  ) 
!S22(C  2-Port  ) 
!S2P File: Measurement: :
# Hz S  RI   R 50
7000000000 0.051347665 0.068342477 0.00062738982 -0.0070569995 0.00061857392 -0.0070489631 -0.041894551 -0.011754558
7020000000 0.059636194 0.050720967 -0.0056245085 0.00071922084 -0.0056341426 0.00071625598 -0.058467731 0.016621418
7040000000 0.071732454 0.06001154 0.00055812619 0.0059168972 0.00053381955 0.0059036966 -0.042843401 0.051177181
7060000000 0.060902473 0.066033162 0.0071660271 -0.0024343936 0.0071630012 -0.0024391026 -0.01576448 0.059072152
7080000000 0.095442913 0.067407735 -0.0045607062 -0.0052207378 -0.0045315651 -0.005211527 0.0031796298 0.086047709
7100000000 0.091741182 0.068251468 -0.0047385772 0.0043389443 -0.0047325818 0.0043192543 0.064518273 0.067338668
7120000000 0.090539195 0.045488462 0.0061424775 0.0047493032 0.0061316271 0.0047484203 0.087531321 0.033953186
7140000000 0.10580349 0.059176233 0.0020688311 -0.0080491304 0.0021176422 -0.0080597838 0.084755056 0.0026057602
7160000000 0.10823126 0.06395375 -0.0068767876 -5.0572384e-005 -0.0068739364 -4.34785e-005 0.088257626 -0.043374505
7180000000 0.12446205 0.040553663 0.00049295509 0.0071142609 0.00048161903 0.0071173385 0.037777029 -0.09166687
7200000000 0.12428269 0.053589113 0.0073969387 -0.0030058529 0.0073793288 -0.0030343076 0.0003992951 -0.075630449
7220000000 0.11415207 0.045732778 -0.0047441302 -0.0048193899 -0.0047864174 -0.0048491703 -0.027838575 -0.070964053
7240000000 0.13427116 0.040271465 -0.0035078661 0.0039870478 -0.0034976394 0.0039965347 -0.062617697 -0.039816827
7260000000 0.14593631 0.054055393 0.0045695002 0.0036373602 0.0045508621 0.0036717993 -0.074745268 -0.0053900601
7280000000 0.13333218 0.028255722 0.0018092378 -0.0053141778 0.0018581022 -0.0052730222 -0.06045761 0.041745894
7300000000 0.14707258 0.038410019 -0.0042242757 -0.0012395885 -0.0042230752 -0.0012247409 -0.038283598 0.046490617
7320000000 0.14203741 0.052640755 -0.0016288256 0.0045605833 -0.0015963714 0.0045654457 -0.014463611 0.067675091
7340000000 0.15326503 0.027224455 0.0056374609 0.00043947136 0.0056593763 0.00044655218 0.019316396 0.072093256
7360000000 0.16842845 0.034642678 -0.00039499451 -0.0048197326 -0.00041547747 -0.0048139184 0.047046505 0.050273798
7380000000 0.14938709 0.020657374 -0.0054907738 0.00032436586 -0.0054705427 0.00033913198 0.054186486 0.027022094
7400000000 0.16282962 0.027237589 0.0021261219 0.0065609575 0.0021155355 0.006592127 0.065939046 0.016629314
7420000000 0.18354218 0.026534531 0.0052125035 -0.0045526028 0.0051585613 -0.0044853534 0.06200571 -0.02013509
7440000000 0.16853498 0.010764511 -0.0046854923 -0.0038588194 -0.0046664081 -0.0038509318 0.042836159 -0.037185244
7460000000 0.18485196 0.005095453 -0.0032720407 0.0057329005 -0.0032814555 0.0056763613 0.026682273 -0.040923182
7480000000 0.16383162 0.013574992 0.006566382 0.0011326268 0.0065512443 0.0011469534 0.028997155 -0.045134943
7500000000 0.17690668 0.0085131554 -0.00053357414 -0.0052193119 -0.0005251593 -0.0052723079 0.0045417123 -0.059440494
7520000000 0.20160057 -0.0022080669 -0.0046752864 0.00052491581 -0.0046650264 0.00051648769 -0.011413743 -0.05681058
7540000000 0.16356306 -0.017677443 0.0013606588 0.0046973452 0.001365926 0.0047260998 -0.042826042 -0.062492307
7560000000 0.18034376 -0.012243359 0.0036153775 -0.0018879711 0.0036242942 -0.0019141617 -0.085724503 -0.050277915
7580000000 0.18796822 -0.004999327 -0.0010801581 -0.0033488816 -0.0010563647 -0.0033409945 -0.10552103 0.013003667
7600000000 0.18924275 -0.013066667 -0.0047304276 0.0012682473 -0.0047306512 0.0012572194 -0.080493286 0.071205795
7620000000 0.19130892 -0.039804708 0.003223175 0.004781404 0.0032130934 0.0047683846 -0.034783028 0.1049066
7640000000 0.181751 -0.026176509 0.0039629634 -0.0038938003 0.003954032 -0.0039056749 0.010347767 0.11325053
7660000000 0.18163587 -0.023574164 -0.0048156171 -0.0039250464 -0.0047967834 -0.0039644004 0.075700775 0.093560293
7680000000 0.19969589 -0.037298996 -0.0028580115 0.0066840257 -0.002837955 0.0066850921 0.094431974 0.03168267
7700000000 0.1859742 -0.045016013 0.0068261409 0.00068804173 0.0068458822 0.000701682 0.096131831 0.00063527486
7720000000 0.16901647 -0.05979782 -0.0001341856 -0.0067072134 -0.00015871345 -0.0066881287 0.1007995 -0.043246437
7740000000 0.18903802 -0.027105242 -0.0073833205 0.0017293261 -0.0073901447 0.001734951 0.056319304 -0.086154267
7760000000 0.18815203 -0.046182685 0.0043336446 0.0063138544 0.0042680558 0.0063119479 0.0093870461 -0.081393808
7780000000 0.18435332 -0.065430075 0.0044794199 -0.0046177865 0.004471601 -0.0046072039 -0.01687211 -0.082458094
7800000000 0.18611161 -0.05040234 -0.0049771867 -0.0042063687 -0.0049612331 -0.0042260694 -0.056882001 -0.062424231
7820000000 0.16630897 -0.049884588 -0.0029745472 0.0064216196 -0.0029779398 0.0064095743 -0.07106632 -0.027185014
7840000000 0.19819561 -0.0484014 0.0059991172 0.00080742885 0.0059529631 0.00080051384 -0.068389781 0.006785362
7860000000 0.18686929 -0.056311298 0.00089698128 -0.0052821673 0.00090019271 -0.0052575073 -0.042667031 0.034129094
7880000000 0.16932978 -0.074898161 -0.0061920243 -0.00036587517 -0.0062218863 -0.00039782457 -0.025418302 0.051191252
7900000000 0.1917264 -0.073032759 0.0014478541 0.0061609866 0.0014063464 0.0061834441 0.00050139782 0.056286257
7920000000 0.16961463 -0.056945607 0.0052346895 -0.0017918925 0.0052420772 -0.0017745672 0.03470571 0.045856547
7940000000 0.19052853 -0.081812158 -0.0022649954 -0.0058916919 -0.002246242 -0.0059091663 0.038130194 0.0083015198
7960000000 0.17272066 -0.079052657 -0.0057307458 0.0041859043 -0.0057272534 0.0041964771 0.048517339 0.0067731985
7980000000 0.16302882 -0.079389773 0.0051154317 0.0045190705 0.005138136 0.0045538596 0.048893657 -0.034961935
8000000000 0.18249172 -0.080063216 0.0040351492 -0.0058215242 0.0040696999 -0.0058493265 0.019932237 -0.038003713
8020000000 0.17222013 -0.06420435 -0.0076870304 -0.0029273639 -0.0076773772 -0.0029438613 0.006772269 -0.043322962
8040000000 0.16370566 -0.098058589 -0.00012152199 0.0078507848 -0.00014338108 0.0078345612 -0.0084955776 -0.054530594
8060000000 0.16399735 -0.1031516 0.0071090856 -0.00093836797 0.0070966682 -0.00089214172 -0.049641393 -0.046453264
8080000000 0.15327473 -0.068903103 -0.0020761732 -0.0073386598 -0.0020457166 -0.0073043238 -0.052360661 -0.013835383
8100000000 0.16896743 -0.10956382 -0.0065421518 0.0044798795 -0.0065811565 0.0044592326 -0.059453093 -0.0027256201
8120000000 0.15456596 -0.10565704 0.0049212812 0.0044258283 0.0049256519 0.0044022421 -0.053057216 0.036131822
8140000000 0.14082693 -0.10476535 0.0039845952 -0.0050083087 0.0040026312 -0.0050268471 -0.041589554 0.069867119
8160000000 0.12650464 -0.10626303 -0.0060962895 -0.0029557964 -0.006114197 -0.0029155617 0.011730256 0.087228335
8180000000 0.14473076 -0.086882286 -0.0011826537 0.0059502334 -0.0011670768 0.0059627732 0.037341908 0.068794347
8200000000 0.12400123 -0.12093031 0.0051340489 0.00082716369 0.0051407311 0.00084605208 0.078860007 0.05282516
8220000000 0.11869454 -0.10841324 0.00061950914 -0.0057883658 0.00066150585 -0.0057646381 0.099211641 0.011673195
8240000000 0.10750393 -0.087591387 -0.0060456307 0.00049112266 -0.0060257087 0.00046219275 0.10646753 -0.040860441
8260000000 0.10438546 -0.10741457 0.0012871024 0.0057320497 0.0013044709 0.0057726437 0.072397739 -0.075785711
8280000000 0.12430455 -0.1151197 0.0060986504 -0.0021137802 0.0061018975 -0.0021167167 0.049710069 -0.095420688
8300000000 0.082662478 -0.1013134 -0.003683904 -0.0058633494 -0.0037095076 -0.005891392 -0.00070771819 -0.11150248
8320000000 0.084829412 -0.10598005 -0.0050851954 0.0048852204 -0.005070704 0.0048788162 -0.046818748 -0.10544128
8340000000 0.10447706 -0.096291058 0.0059396601 0.0040739677 0.0059356205 0.004081009 -0.070751816 -0.074313186
8360000000 0.072769687 -0.10245144 0.0027125492 -0.0068876348 0.002684474 -0.0068751378 -0.094053239 -0.051425871
8380000000 0.073778391 -0.1077672 -0.0069330609 -0.00081159954 -0.0068826517 -0.00082559005 -0.10782458 -0.0006004278
8400000000 0.053110521 -0.089547686 0.00024348153 0.0066002817 0.0002237023 0.0065563954 -0.084714107 0.036301769
8420000000 0.056005653 -0.07737238 0.0063277408 -0.0012054442 0.0063456832 -0.001212961 -0.071296081 0.065501258
8440000000 0.0677917 -0.09478917 -0.0023327069 -0.0059967851 -0.0023118462 -0.0059638876 -0.03725278 0.08036489
8460000000 0.047884755 -0.078720666 -0.0052435854 0.0030462085 -0.0052206418 0.0030310221 -0.00094866293 0.089269191
8480000000 0.038619492 -0.083203748 0.0035352341 0.0047459309 0.0034916431 0.0047406321 0.037795633 0.073920749
8500000000 0.051975217 -0.072508305 0.0045401775 -0.004139944 0.0045198402 -0.0041014939 0.062209286 0.04761482
8520000000 0.038861066 -0.059453916 -0.0050121453 -0.0040761214 -0.0049899719 -0.0040758322 0.074933089 0.035908353
8540000000 0.024636671 -0.073965847 -0.0034131808 0.0058632204 -0.0033525145 0.0058564376 0.084109694 -0.013402049
8560000000 0.038095854 -0.061192386 0.0066350452 0.0023461943 0.0066155544 0.0023140013 0.052570984 -0.048835564
8580000000 0.011619155 -0.046521049 0.0012186231 -0.007027809 0.0012229246 -0.0070312149 0.038318932 -0.053778507
8600000000 0.020440621 -0.046822987 -0.007651398 2.1570795e-005 -0.0076981965 -3.3986048e-006 0.020977905 -0.067119502
8620000000 0.028214879 -0.036310133 0.0018652473 0.0078484574 0.0018628755 0.0078506358 -0.014634449 -0.070114277
8640000000 -0.0088763498 -0.045296859 0.0071262904 -0.0036481258 0.007122206 -0.0036174771 -0.038650062 -0.041361086
8660000000 0.015713084 -0.025163276 -0.0045875511 -0.0064412365 -0.0045959544 -0.0064636515 -0.034949575 -0.024425894
8680000000 0.010925633 0.00071673712 -0.0056505213 0.0062939702 -0.0056502763 0.0062726922 -0.041197583 -0.011011177
8700000000 0.0046857493 -0.018170895 0.0075731394 0.0039586993 0.0075564729 0.0039768307 -0.044985719 0.0055366489
8720000000 0.023866946 -0.014292903 0.0019812726 -0.0078316759 0.0019951495 -0.0078030252 -0.014606767 0.024418224
8740000000 -0.021398382 0.021937635 -0.0078488486 -0.00068986346 -0.0078331316 -0.00071481115 -0.0050989059 0.0099541163
8760000000 0.010483163 0.0073196245 0.0010388714 0.0076343101 0.0010480874 0.0076369559 0.0098542189 0.023294646
8780000000 0.014824746 0.02545185 0.00692588 -0.0022914228 0.0069622514 -0.0022304729 0.022280343 0.0069174808
8800000000 -0.0078824833 0.022695646 -0.0030285018 -0.0062043858 -0.0030214619 -0.0062436508 0.023579884 -0.0080187991
8820000000 -0.0047922102 0.029293207 -0.0057766512 0.00403718 -0.0057970192 0.0040577706 0.019531745 -0.020574635
8840000000 -0.00049042038 0.067180485 0.0047355564 0.0047807936 0.0046960977 0.0047899419 0.011021861 -0.0348594
8860000000 0.018724114 0.038547631 0.0042187534 -0.0052432292 0.0042222454 -0.0052045034 -0.0050993375 -0.050129596
8880000000 0.0056021898 0.058368746 -0.0060893348 -0.0036260996 -0.006094717 -0.003618734 -0.018273195 -0.044984892
8900000000 -0.0058045713 0.074160367 -0.0022810418 0.0068682837 -0.0022871983 0.0068628639 -0.04691375 -0.030134935
8920000000 0.013763021 0.069716059 0.0069183144 0.0013051569 0.0069080121 0.0013021496 -0.047928084 -0.011904374
8940000000 0.024779623 0.090132892 0.00013943233 -0.0075966469 0.00019652341 -0.0075745601 -0.069121636 0.0038579057
8960000000 0.015247901 0.075798146 -0.0078118453 0.001669814 -0.0077918549 0.0016646744 -0.054235555 0.037854031
8980000000 0.0076256436 0.0814474 0.0034496451 0.0068251267 0.0034204435 0.0068658185 -0.029971126 0.0447862
9000000000 0.034679905 0.11187754 0.005856622 -0.0041196421 0.0058587147 -0.0041157003 -0.0088034244 0.055062342
9020000000 0.023546576 0.091727369 -0.0051553822 -0.0052877082 -0.0051514814 -0.0052783526 0.0045123664 0.067843989
9040000000 0.036955528 0.10427288 -0.0040847557 0.006184665 -0.0040357974 0.0061630355 0.049890812 0.047719985
9060000000 0.03210054 0.10222743 0.0064085661 0.0024569687 0.0063536931 0.0024292581 0.045732707 0.029302364
9080000000 0.021112295 0.10361189 0.001830548 -0.0063226246 0.0018010092 -0.0063210186 0.065225184 0.017724195
9100000000 0.065024406 0.1254769 -0.0066886917 -0.00069921144 -0.0067186658 -0.00068043114 0.071774885 -0.0070902305
9120000000 0.038465708 0.11588933 0.00033569144 0.0065331436 0.00034483496 0.0065177022 0.062877014 -0.054259241
9140000000 0.04641762 0.10155897 0.0064012213 -0.001096254 0.0063482276 -0.0010683801 0.038560387 -0.047407649
9160000000 0.059049752 0.13607088 -0.0022155778 -0.0065674009 -0.0021986696 -0.0066262954 0.039936882 -0.076425031
9180000000 0.042985365 0.12705667 -0.0057901805 0.0034246107 -0.00574503 0.0034124409 -0.0075844661 -0.081844524
9200000000 0.078106254 0.11582991 0.0039785858 0.0053989408 0.0039668758 0.0053944122 -0.031169219 -0.074565157
9220000000 0.071282528 0.13057797 0.0053097913 -0.0050219153 0.0053488067 -0.004987604 -0.057643067 -0.058222257
9240000000 0.053407472 0.12978898 -0.0068031424 -0.004035926 -0.0067920159 -0.0040762941 -0.071432322 -0.045196019
9260000000 0.07519307 0.13677299 -0.0022645246 0.0068873554 -0.0022747582 0.0068962919 -0.073653743 -0.013461735
9280000000 0.085705593 0.13883869 0.0071776607 0.0015802459 0.0071720202 0.0015128516 -0.073870718 0.01520985
9300000000 0.081004404 0.11920008 0.00016157348 -0.0080149928 0.00018684 -0.0080630584 -0.058916129 0.043828901
9320000000 0.085811876 0.14415641 -0.0075697359 0.0022007064 -0.0076031513 0.0021943783 -0.051174387 0.045937076
9340000000 0.078233935 0.13366205 0.0030054348 0.00630236 0.0029956787 0.0062615825 -0.022557162 0.065592498
9360000000 0.10297389 0.14036314 0.0061815865 -0.0038217823 0.0061764 -0.0038721825 0.0056079663 0.053335994
9380000000 0.11155941 0.1517811 -0.0053893561 -0.0050775679 -0.0053566908 -0.0050902534 0.010421641 0.050122723
9400000000 0.081950746 0.13086039 -0.0033588971 0.0055251871 -0.0033885662 0.0055749514 0.037182234 0.044453237
9420000000 0.10774916 0.13895078 0.0051702233 0.0031246056 0.0051821149 0.0031211409 0.039297704 0.017200146
9440000000 0.1252766 0.16384029 0.0024988123 -0.0064252168 0.0025231179 -0.0064199055 0.036799774 0.0037195836
9460000000 0.10362589 0.13359669 -0.0063317586 -0.00099162175 -0.0063070827 -0.00093616149 0.028777173 -0.0068086125
9480000000 0.13168846 0.13319768 -0.00064570026 0.0059287134 -0.00069718662 0.0059000463 0.034185514 -0.014703515
9500000000 0.10188378 0.14753556 0.0071489383 0.00041486835 0.0071222065 0.00045521042 0.0080293622 -0.024459815
9520000000 0.1350771 0.14987366 -0.0019469049 -0.0074327355 -0.001948876 -0.0074487487 -0.00074873568 -0.015398407
9540000000 0.14649647 0.13598229 -0.006541308 0.0029662538 -0.0066059148 0.002991514 0.0070127225 -0.0054381075
9560000000 0.10966278 0.13615163 0.0037146746 0.0067419205 0.0037004198 0.0067618154 0.0039982605 -0.0084634991
9580000000 0.13653724 0.12568064 0.0064806221 -0.0064892052 0.0064518885 -0.0064952709 -0.011879327 0.0054703709
9600000000 0.14771834 0.16491906 -0.0074825152 -0.0035524075 -0.007426756 -0.0035789837 0.016007243 0.0053673959
9620000000 0.13488425 0.12933972 -0.0024952861 0.0072484533 -0.0024843572 0.0072466158 0.01586026 -0.0096726324
9640000000 0.14534664 0.11517993 0.0081038419 0.0016050405 0.0080823693 0.0016249075 0.024360148 -0.015569122
9660000000 0.1305687 0.15246922 -0.0013848003 -0.0084201433 -0.0013261996 -0.0084245773 0.0254602 -0.03228597
9680000000 0.14614686 0.12472124 -0.0066416641 0.0023991726 -0.0066406848 0.0024929175 0.015301563 -0.041144129
9700000000 0.15863626 0.11486986 0.0028491863 0.0063517774 0.002886483 0.0063811429 -0.019465011 -0.063865058
9720000000 0.14811829 0.12726925 0.0060829851 -0.0044761007 0.006088207 -0.0044810628 -0.044204403 -0.062895671
9740000000 0.15156215 0.098561093 -0.0052733268 -0.003859401 -0.0052442639 -0.0038797753 -0.064563505 -0.05377356
9760000000 0.14604646 0.14068881 -0.0035010753 0.0044662417 -0.0035570948 0.0044555832 -0.096166298 -0.02611243
9780000000 0.16139781 0.098776773 0.0056134774 0.0035678209 0.0055964203 0.0036271564 -0.10572125 0.021851733
9800000000 0.1596314 0.10018694 0.0019160302 -0.0066107693 0.0019011208 -0.0066093858 -0.093683727 0.044456176
9820000000 0.15765689 0.11703902 -0.005899881 -0.00069577526 -0.0058902744 -0.00067414559 -0.090019375 0.094671875
9840000000 0.13555215 0.087785661 -0.00073089619 0.0061747744 -0.00072943355 0.0062081954 -0.04312586 0.12414463
9860000000 0.18703684 0.10444439 0.0070035448 -0.0010253486 0.0070460732 -0.00093305629 0.0011849068 0.1330899
9880000000 0.16356757 0.08868207 -0.0025348016 -0.0060385191 -0.0024826315 -0.0060456288 0.045301389 0.11916556
9900000000 0.1573035 0.070576295 -0.0053599966 0.0028087413 -0.0053264215 0.0027857104 0.095190629 0.09633705
9920000000 0.15915729 0.079216547 0.0039569507 0.0055945129 0.0039223465 0.0055670552 0.128656 0.047966886
9940000000 0.15682879 0.096827887 0.0040259138 -0.0054400009 0.0040326486 -0.0054461798 0.1277288 -0.011921579
9960000000 0.18811409 0.0536699 -0.005151697 -0.0026593143 -0.0051408042 -0.0026725004 0.10360201 -0.045704994
9980000000 0.15807135 0.058100604 -0.0024557519 0.0051321234 -0.0024500911 0.005135884 0.076923482 -0.074501351
10000000000 0.13764721 0.063006476 0.0062571573 0.0014140229 0.0062454119 0.0014528319 0.043405239 -0.12422332
10020000000 0.18151383 0.055811509 -5.2729894e-005 -0.0055105449 9.0840313e-006 -0.0054439292 -0.010948988 -0.11111361
10040000000 0.15843827 0.045275513 -0.0052556307 -3.3074134e-006 -0.0052221413 3.1444833e-005 -0.038331989 -0.092088677
10060000000 0.1452577 0.026454004 0.00059443188 0.0060371002 0.00060821214 0.0060130144 -0.064411983 -0.085262462
10080000000 0.16030154 0.036020651 0.0055287112 -0.0024079154 0.005508401 -0.002399344 -0.11340412 -0.048909862
10100000000 0.14986002 0.050219957 -0.0021602612 -0.0046703736 -0.0021456166 -0.0046563181 -0.10365427 -0.01221014
10120000000 0.15265243 0.0083711799 -0.0057294019 0.0026708615 -0.0057305717 0.0027040548 -0.11138308 0.0090092951
10140000000 0.14891703 0.020465095 0.0051797731 0.0054189702 0.0051998962 0.0053953049 -0.095903054 0.057660971
10160000000 0.13310722 0.01034743 0.0033040212 -0.0057491227 0.0032812627 -0.0057086791 -0.075382702 0.081546172
10180000000 0.12526195 0.014488809 -0.0056592692 -0.0032706354 -0.0056950869 -0.0032989033 -0.050784439 0.095960006
10200000000 0.1532329 0.021647621 -0.00244419 0.0077541578 -0.0023704544 0.0077434904 -0.014101855 0.11516055
10220000000 0.11972981 -0.0085125016 0.0079996269 -0.00056712353 0.0079371082 -0.00054007041 0.030034088 0.092546329
10240000000 0.1325075 -0.0065251281 -0.0018966181 -0.0066991099 -0.0019096177 -0.0067519383 0.034493592 0.085978933
10260000000 0.10598188 0.0060647358 -0.0068081347 0.0026641332 -0.0067001861 0.0026227431 0.072033189 0.053608201
10280000000 0.094905771 0.0010661448 0.0050025601 0.0057264855 0.0049638529 0.0056588752 0.063921243 0.016454589
10300000000 0.12328015 -0.010503053 0.0035202533 -0.0050811837 0.0035410132 -0.0050897896 0.064776376 0.014270001
10320000000 0.077777877 -0.0059566754 -0.0046129446 -0.0028782075 -0.0045959097 -0.0029475617 0.057127398 -0.020322872
10340000000 0.073976971 -0.027366802 -0.0024038509 0.0055298032 -0.0024475532 0.0055385679 0.028604645 -0.010627549
10360000000 0.090959951 0.00056251214 0.0048182369 0.00061395927 0.004855203 0.0006215772 0.02965739 -0.028418457
10380000000 0.060341008 -0.006527747 0.0014227071 -0.0039638928 0.001441026 -0.003928015 0.017381938 -0.044589512
10400000000 0.066007547 -0.02987545 -0.0054232762 -0.0017399277 -0.0053746602 -0.0016906076 -0.0040687229 -0.040974863
10420000000 0.052739035 -0.0067497268 0.00042267062 0.0062596984 0.00044918654 0.0062197568 0.003464943 -0.03456023
10440000000 0.030049371 -0.010872303 0.0051801489 -0.0009213661 0.0051111225 -0.0008885006 -0.022571893 -0.047211215
10460000000 0.062239032 -0.012402806 -0.001027583 -0.0060251933 -0.0010237861 -0.0060029519 -0.057637941 -0.028293218
