!Keysight Technologies,N5242B,MY47200105,A.14.00.23
!Date: Friday, April 26, 2024 11:19:46
!Correction: S11(C  2-Port  ) 
!S21(C  2-Port  ) 
!S12(C  2-Port  ) 
!S22(C  2-Port  ) 
!S2P File: Measurement: :
# Hz S  RI   R 50
7000000000 0.059971765 0.071041867 -0.0034381093 -0.0004689779 -0.003443368 -0.00045128638 -0.048310693 0.0021533272
7020000000 0.085944295 0.043301504 -0.0008077051 0.0037668452 -0.00077788054 0.0037568626 -0.048054114 0.021133173
7040000000 0.09053421 0.03993671 0.0054449388 -0.00081630284 0.0054194964 -0.00081722764 -0.046160702 0.036862005
7060000000 0.066046149 0.045522146 -0.0031852107 -0.0039719753 -0.0032137455 -0.0039343205 -0.02771233 0.074466355
7080000000 0.10123391 0.066901393 -0.0027666267 0.0029398478 -0.0027741236 0.0029244379 0.019444756 0.091318585
7100000000 0.11482977 0.062795036 0.0036687232 0.0031241681 0.0036437244 0.0030992064 0.060871556 0.055466119
7120000000 0.11614499 0.027558083 0.0013104192 -0.0052922517 0.0013097072 -0.0052660946 0.07794103 0.048608184
7140000000 0.1105399 0.034232236 -0.004282793 0.00024308413 -0.0042793797 0.00024688494 0.10605389 0.0071345656
7160000000 0.11176779 0.059715074 0.00028241338 0.0041403407 0.00027863434 0.0041388203 0.087124728 -0.061551392
7180000000 0.1432793 0.040452529 0.0049943291 -0.0019960904 0.0049774162 -0.0020021675 0.026286528 -0.080428816
7200000000 0.15313917 0.037950784 -0.0035737702 -0.0026904861 -0.0035294816 -0.002695896 0.020174757 -0.071927629
7220000000 0.12383961 0.017934216 -0.0016618645 0.0026039835 -0.0016375878 0.0026192432 -0.029421916 -0.089000568
7240000000 0.13614282 0.030483266 0.0026809222 0.0020965568 0.0026451265 0.0021051173 -0.075475313 -0.034016874
7260000000 0.15934874 0.05262395 0.00076501805 -0.0037218644 0.00078069646 -0.0037126259 -0.060477179 -0.0012127254
7280000000 0.16057073 0.013935479 -0.0024547654 3.2300388e-005 -0.0024483919 6.3853084e-005 -0.06104013 0.02527749
7300000000 0.15989535 0.012806465 -0.00069955736 0.0023783615 -0.0007045907 0.002396018 -0.052899726 0.047852706
7320000000 0.14406392 0.034828879 0.0033201608 -0.00010267651 0.0033239892 -9.1638634e-005 -0.0068685813 0.077821329
7340000000 0.16147305 0.028315879 -0.00085366343 -0.0022814954 -0.00088666048 -0.0023256938 0.020316379 0.058595639
7360000000 0.19381592 0.025580915 -0.0025855771 5.5888973e-005 -0.0026031034 5.6501023e-005 0.032510258 0.051437568
7380000000 0.16924599 -0.0021607624 0.0011902764 0.0038613935 0.0011962351 0.0038518335 0.056570239 0.038980484
7400000000 0.16831662 0.0040557454 0.0027348881 -0.0030601018 0.0027538994 -0.0030524123 0.07101737 0.0085776076
7420000000 0.18762085 0.023594907 -0.0028346546 -0.0017636482 -0.0028301456 -0.0017699115 0.048425689 -0.017165547
7440000000 0.19060212 0.0030965311 -0.001712953 0.0034550009 -0.0017318297 0.0034280473 0.047708511 -0.025037058
7460000000 0.2086181 -0.016109733 0.0044914228 -0.00024042162 0.0045262412 -0.00024451507 0.036215611 -0.046380606
7480000000 0.16694821 -0.015357009 -0.0018598408 -0.0025306474 -0.0018011905 -0.002585113 0.017378274 -0.04618736
7500000000 0.17660354 0.0031879251 -0.0016274275 0.0010014884 -0.0016305601 0.0010191164 0.0091401814 -0.045641795
7520000000 0.21730267 -0.0047210734 0.0014213376 0.0018824008 0.0014276254 0.0019316634 -0.0007884957 -0.064328931
7540000000 0.19264552 -0.033912249 0.00022873856 -0.0015881491 0.00022554384 -0.0015986052 -0.05256778 -0.06813316
7560000000 0.18725282 -0.040860884 0.00038047414 -0.00013646463 0.00040398477 -0.00010632158 -0.084698759 -0.035590049
7580000000 0.18698604 -0.015100729 -0.0020194985 -0.00076915225 -0.0020185704 -0.00082028168 -0.090794265 0.0081671802
7600000000 0.20093991 -0.013439888 0.0005662656 0.002548828 0.00054239057 0.0025151544 -0.088149898 0.061380904
7620000000 0.21916296 -0.051898293 0.0025848974 -0.00068499584 0.0025984433 -0.00065990165 -0.036795571 0.11655398
7640000000 0.19356328 -0.054169971 -0.0017384002 -0.0034948154 -0.0017123376 -0.0034978499 0.024129981 0.11057387
7660000000 0.18128148 -0.041704796 -0.0028789609 0.003891119 -0.0028678523 0.0039164494 0.072410703 0.076762505
7680000000 0.20439708 -0.036110055 0.0041050222 0.00094509294 0.0040982133 0.00098201202 0.084048703 0.041390818
7700000000 0.20890006 -0.053598512 0.00062917231 -0.0041007237 0.00065141037 -0.0041122399 0.10854883 0.0008445445
7720000000 0.18541874 -0.081367411 -0.0051594782 0.00051794044 -0.0051580747 0.00049763959 0.096550189 -0.057321839
7740000000 0.18928416 -0.048922725 0.0029394038 0.0042524934 0.0029347104 0.004299548 0.042781081 -0.078455754
7760000000 0.18965718 -0.04435249 0.0027645307 -0.0028933985 0.002767782 -0.0029150904 0.021279896 -0.076273158
7780000000 0.20557903 -0.06766063 -0.0032268148 -0.0028558599 -0.0031809458 -0.0028471644 -0.018824669 -0.096219517
7800000000 0.208674 -0.070322521 -0.0015325146 0.0047720899 -0.0015403304 0.0047527086 -0.072028652 -0.056066915
7820000000 0.16843326 -0.076893814 0.0035961508 -0.00037006184 0.0035804447 -0.00038293321 -0.062012672 -0.019199155
7840000000 0.19371298 -0.050768666 0.00016418021 -0.002843892 0.00014827139 -0.0028664111 -0.071698964 -0.0033744972
7860000000 0.20194165 -0.053397078 -0.0038699831 9.2633338e-005 -0.0038535569 0.00012629898 -0.054371461 0.044255748
7880000000 0.19752294 -0.089429282 0.0019635872 0.0030696443 0.001937038 0.0030718783 -0.013408326 0.062920965
7900000000 0.19658408 -0.0998322 0.0019423473 -0.0010588939 0.0019435444 -0.0010696717 0.003246939 0.045037821
7920000000 0.16537091 -0.06358248 -0.00078145636 -0.0030259176 -0.00077955314 -0.003070941 0.023541681 0.050555144
7940000000 0.19896477 -0.076685272 -0.0033848097 0.002657556 -0.0033810057 0.0026980333 0.051337406 0.022239169
7960000000 0.20106925 -0.089101575 0.0028692281 0.0019153382 0.0028523121 0.001902289 0.054401588 -0.0071104728
7980000000 0.17158845 -0.10304721 0.0022881106 -0.0028829896 0.0023022338 -0.002890083 0.036679301 -0.032439664
8000000000 0.17697546 -0.094173931 -0.0046481756 -0.0018523331 -0.0046052383 -0.0018631786 0.031090207 -0.023538798
8020000000 0.17413953 -0.05703979 0.00045217312 0.0047375704 0.00040632597 0.0047206455 0.020076755 -0.059309587
8040000000 0.18967548 -0.09994188 0.0038917984 -0.00094346469 0.0039121825 -0.00096058432 -0.022354221 -0.059134182
8060000000 0.17809413 -0.12481649 -0.0015227475 -0.0044075008 -0.001549616 -0.0043626186 -0.044109505 -0.035822149
8080000000 0.14993511 -0.086469702 -0.003562198 0.0036622304 -0.0035650269 0.0036656645 -0.040485039 -0.027388088
8100000000 0.16709155 -0.1010363 0.0033689898 0.0013881836 0.0033285376 0.001350964 -0.077675819 -0.012385243
8120000000 0.17744416 -0.10264128 0.0013931362 -0.0025739749 0.0014428183 -0.0025927459 -0.057685528 0.048363131
8140000000 0.16224751 -0.12315144 -0.0037074916 -0.0013143708 -0.0037221815 -0.0013472424 -0.030560302 0.066564359
8160000000 0.1245032 -0.12840031 0.00066957483 0.0033105093 0.00067228882 0.0032932288 -0.00017845028 0.077023104
8180000000 0.13790829 -0.082905844 0.0018495159 -2.4341914e-005 0.0019161053 -3.3792159e-005 0.030239711 0.084640741
8200000000 0.13964996 -0.11111734 0.00044842021 -0.0029927979 0.00042103016 -0.0030005518 0.093375377 0.051929962
8220000000 0.14282453 -0.11781812 -0.0031382123 0.0013486882 -0.0031845144 0.0013320656 0.08816544 0.0022958408
8240000000 0.10917395 -0.11065667 0.0010161476 0.0018587674 0.001014942 0.0018597592 0.10195366 -0.026959641
8260000000 0.098367482 -0.10270115 0.0028057012 -0.00063286064 0.002760554 -0.00062840653 0.085180409 -0.075209804
8280000000 0.13488707 -0.098997742 -0.0022129146 -0.0030924585 -0.0022160481 -0.0030904566 0.041717906 -0.10551589
8300000000 0.11311947 -0.10869426 -0.0017516982 0.0025172005 -0.0018026948 0.0025277364 -0.0064801523 -0.097087018
8320000000 0.091670804 -0.12534302 0.002421584 0.0019791459 0.0024272117 0.0019892242 -0.033883229 -0.10481248
8340000000 0.098167092 -0.1000355 0.0016713047 -0.0036544153 0.0016615953 -0.0036359569 -0.075030476 -0.082972646
8360000000 0.077542275 -0.086587876 -0.003838958 9.2428963e-005 -0.0038360923 9.4629548e-005 -0.10165638 -0.039624207
8380000000 0.10035253 -0.1057644 0.0003167963 0.0028612977 0.00029384287 0.0028022239 -0.092519969 0.004728552
8400000000 0.0679534 -0.10439277 0.0033567019 -0.00036446247 0.0033339981 -0.00037430495 -0.082403295 0.02410581
8420000000 0.050392266 -0.085600317 -0.0016709309 -0.0033446467 -0.0016736599 -0.0033269466 -0.080505289 0.070174731
8440000000 0.067318849 -0.075405076 -0.0020562604 0.002064968 -0.0020548461 0.0021000933 -0.023537148 0.087320812
8460000000 0.074417077 -0.068008006 0.0014121594 0.0021366936 0.0014286935 0.0021273284 0.0034455878 0.072250433
8480000000 0.060922589 -0.092760585 0.0024416239 -0.0023253795 0.0024261924 -0.0022896563 0.025189884 0.071913369
8500000000 0.048830859 -0.083081663 -0.0027564229 -0.0014522932 -0.0027613067 -0.0014515581 0.063355513 0.057327107
8520000000 0.037475836 -0.044510681 -0.0014475231 0.0022426378 -0.0014431166 0.0022386643 0.085925825 0.024878614
8540000000 0.050026994 -0.05595706 0.0032493777 0.0018730363 0.0032533822 0.0018914486 0.068763971 -0.020889517
8560000000 0.064430967 -0.067195244 0.00047983546 -0.0040849769 0.0005015026 -0.0041024485 0.050887268 -0.03443718
8580000000 0.015072484 -0.062225394 -0.0036328763 0.00014867276 -0.0036211219 0.0001458581 0.047428317 -0.060804889
8600000000 0.016293596 -0.035412207 0.0003549114 0.0041085496 0.0003467577 0.0041305558 0.0074824858 -0.074379995
8620000000 0.04364571 -0.014065592 0.0046621757 -0.0018709358 0.0046420558 -0.0018384519 -0.018311035 -0.054875243
8640000000 0.023630308 -0.042914238 -0.0030699985 -0.0035552697 -0.0031094265 -0.0035758726 -0.02594574 -0.04423444
8660000000 0.023828344 -0.03607386 -0.003083657 0.0035131609 -0.0030987081 0.0034860324 -0.047044005 -0.031059736
8680000000 0.0090449154 0.0085481126 0.0047269282 0.002427794 0.0046807667 0.0024641461 -0.042590812 0.0026189277
8700000000 0.020707428 0.0082005719 0.00055213174 -0.0052911569 0.00054642494 -0.0052584666 -0.036029018 0.0049061733
8720000000 0.058250953 -0.00730384 -0.0043420093 0.00069712638 -0.0043327119 0.00068313815 -0.022348182 0.016541485
8740000000 -0.0032168312 0.009751197 0.0010608927 0.0040928903 0.0010284781 0.0040866835 -0.01075646 0.025542181
8760000000 0.01035199 0.0068535702 0.0037735379 -0.0021769218 0.0037785505 -0.0021441989 0.025451619 0.027060604
8780000000 0.023733556 0.051734079 -0.002639005 -0.0025326798 -0.0026706844 -0.0025126841 0.019669123 -0.0050681536
8800000000 0.024645491 0.034375977 -0.0021350009 0.0021807768 -0.0021311939 0.0021288341 0.017851019 0.0068001822
8820000000 0.023894837 0.020963872 0.0026031279 0.0022462786 0.0025905638 0.0022723628 0.040322375 -0.020309146
8840000000 -0.0013099905 0.062757716 0.001493447 -0.0030003339 0.0014960231 -0.0030336343 0.0096506355 -0.054141656
8860000000 0.02339201 0.062450506 -0.0026823001 -0.0011202812 -0.002653969 -0.001148244 -0.016844569 -0.041588888
8880000000 0.037051689 0.079652138 -0.0014052461 0.0032298826 -0.0014006339 0.003245818 -0.0020691957 -0.043617584
8900000000 0.02993617 0.073389068 0.0039544799 0.0004840183 0.0039556068 0.00048655548 -0.049766831 -0.04949357
8920000000 0.022298634 0.061123982 -0.00049902831 -0.003662511 -0.00047510929 -0.0036368198 -0.064143784 -0.0094391713
8940000000 0.031409323 0.10560279 -0.003674662 0.0006682697 -0.0036840779 0.00065505173 -0.061850552 0.013558737
8960000000 0.041951697 0.097191349 0.0018463616 0.0039862106 0.0018282196 0.0039809989 -0.052786704 0.026094403
8980000000 0.048278149 0.079799332 0.002939034 -0.0029461521 0.0029300391 -0.0029091781 -0.04650702 0.045676898
9000000000 0.044186879 0.099379845 -0.0027839167 -0.0020469448 -0.0027798084 -0.0020539367 -0.0037533669 0.067433827
9020000000 0.02595799 0.10236765 -0.002104447 0.0030684283 -0.002086896 0.0030357791 0.012877946 0.060183965
9040000000 0.059544161 0.1308441 0.0038927812 0.0011456512 0.003895758 0.0011408027 0.035019405 0.043921407
9060000000 0.073868833 0.10877793 7.8164448e-005 -0.0033477952 4.8195703e-005 -0.0033954475 0.046406556 0.0436414
9080000000 0.040595308 0.091706969 -0.0029019907 -0.00014851727 -0.0028858404 -0.00011923889 0.071018964 0.011501978
9100000000 0.068002276 0.12889569 0.00013595815 0.0033615043 0.00015181178 0.0033597969 0.061693426 -0.0059608761
9120000000 0.057730336 0.14189032 0.0030429431 -0.00092123391 0.0031129217 -0.00093677506 0.063717335 -0.04185294
9140000000 0.08573506 0.11292242 -0.00087092281 -0.0029034228 -0.0008126492 -0.0029159486 0.050596278 -0.048642755
9160000000 0.088252649 0.12524118 -0.0033927681 0.0012571891 -0.0033827845 0.0012647799 0.031840462 -0.081138611
9180000000 0.04903014 0.12078178 0.0023422567 0.0033205361 0.0022978799 0.0032770557 -0.0046878955 -0.068661027
9200000000 0.089772955 0.1383543 0.0026750872 -0.0025856267 0.0027092772 -0.0025818143 -0.017514713 -0.080721065
9220000000 0.10683557 0.14669891 -0.0032368177 -0.0028866143 -0.0032491914 -0.002878224 -0.06367261 -0.066426359
9240000000 0.08913181 0.11987354 -0.0021361909 0.0046097478 -0.0021843009 0.0046461667 -0.073383085 -0.034890234
9260000000 0.081980921 0.12771438 0.0051484453 0.00052438432 0.0050902218 0.00053860148 -0.058858626 -0.017241655
9280000000 0.091522999 0.15763925 -0.00035651508 -0.004843316 -0.00037418073 -0.0048178323 -0.080565415 -6.0293751e-005
9300000000 0.11163986 0.14298281 -0.0050878329 0.0015468252 -0.0050462824 0.0015275005 -0.067235373 0.051921409
9320000000 0.12825149 0.13810405 0.0030291525 0.004208752 0.0030082595 0.0041854903 -0.041016582 0.046248294
9340000000 0.089825951 0.12221268 0.0030439468 -0.0036354526 0.0030474174 -0.0035903575 -0.025237625 0.054007132
9360000000 0.10671975 0.15057161 -0.003800767 -0.0021256225 -0.0037834984 -0.0021264129 -0.0091274334 0.05529204
9380000000 0.13747449 0.17522182 -0.0012242679 0.0039004388 -0.0012051663 0.0039726673 0.018384207 0.060386151
9400000000 0.12439254 0.12841301 0.0035084477 0.00047721353 0.00353012 0.00046739593 0.041046996 0.030712541
9420000000 0.12498222 0.1274472 0.00014696603 -0.0032440478 0.0001480838 -0.003210044 0.023646563 0.02021228
9440000000 0.1275828 0.16608061 -0.0030197049 -2.4794523e-005 -0.0029862244 -4.5841498e-006 0.039796904 0.015815707
9460000000 0.12584157 0.15802185 4.6334699e-005 0.0030063679 5.1114912e-006 0.0030113843 0.035224527 -0.013228573
9480000000 0.1699321 0.13489018 0.0036016952 -0.00021794646 0.0035735711 -0.00019047686 0.021854825 -0.019475063
9500000000 0.12495941 0.13555636 -0.00097761035 -0.004069183 -0.0010007136 -0.0040679998 0.0076091313 -0.009677018
9520000000 0.13563178 0.14420107 -0.0040380238 0.0021371183 -0.0040212609 0.0021067397 0.0065286192 -0.019928355
9540000000 0.15799117 0.15971163 0.003213773 0.0036036607 0.0032194562 0.0036189677 -0.00042192449 -0.0068760007
9560000000 0.14657998 0.15010376 0.0027562098 -0.0040805661 0.0027470789 -0.0040788283 0.0020019459 0.0053040399
9580000000 0.16897893 0.11529178 -0.0048454353 -0.0015722653 -0.0048582098 -0.0015877058 0.0033790122 0.0057995263
9600000000 0.15237021 0.15214188 -0.00030729294 0.004799373 -0.00025422694 0.0047761993 0.011394524 -0.0041616717
9620000000 0.141927 0.14740536 0.0043523279 -0.00086201733 0.0043851291 -0.00086547201 0.016103379 0.0049419827
9640000000 0.1775341 0.13351423 -0.001305265 -0.0038238426 -0.0013223073 -0.0037738264 0.040041525 -0.022815308
9660000000 0.16484605 0.13958259 -0.0032743905 0.0019973377 -0.0033480858 0.0020117997 0.016244778 -0.045179222
9680000000 0.15054311 0.11119965 0.0022662992 0.0027341852 0.0022130958 0.002788181 0.0098367687 -0.029772127
9700000000 0.16065644 0.12807974 0.0021199342 -0.0023651076 0.0021241552 -0.0023838959 -0.0025058317 -0.067119718
9720000000 0.17316769 0.14939034 -0.0022637942 -0.0021702929 -0.0022623881 -0.0021624116 -0.052831318 -0.077768385
9740000000 0.1852383 0.092573233 -0.0019590957 0.0026515739 -0.0019577106 0.0026311236 -0.07408116 -0.045255937
9760000000 0.15715632 0.13051884 0.0032233612 0.0017983846 0.0032022356 0.0017750572 -0.083332255 -0.026402721
9780000000 0.15968877 0.10595096 0.001178777 -0.0034331933 0.0011437999 -0.003408052 -0.11195853 0.0041467533
9800000000 0.18179549 0.12425208 -0.0038891989 -0.00070745422 -0.0038793404 -0.00067054783 -0.11193241 0.051894616
9820000000 0.19097443 0.11721177 4.2616135e-005 0.0041500139 5.1838929e-006 0.0041554719 -0.082042277 0.10777561
9840000000 0.1556906 0.075316548 0.0043541044 -0.0011293757 0.0043661436 -0.0011466607 -0.042914722 0.11173604
9860000000 0.18103459 0.10173802 -0.0021297312 -0.0039017494 -0.0021355639 -0.003921689 -0.011998073 0.13778764
9880000000 0.17253707 0.1096579 -0.0031145751 0.0029965341 -0.003157668 0.0030275721 0.0505758 0.13126208
9900000000 0.1861795 0.079676382 0.0033732473 0.002269485 0.0033569559 0.0022274156 0.10240641 0.09061376
9920000000 0.18167549 0.068240292 0.0014391904 -0.0035039135 0.001478551 -0.0034844868 0.1208581 0.048142586
9940000000 0.15146838 0.0902275 -0.0032544518 -0.00085702678 -0.0032717104 -0.0008285467 0.12804756 -0.005179021
9960000000 0.18981659 0.075455539 -0.00043415613 0.003173524 -0.00047806109 0.0032316879 0.10821716 -0.045444291
9980000000 0.1816484 0.078134619 0.0031775786 0.00020863615 0.0032055797 0.00014546757 0.07400801 -0.076825365
10000000000 0.16706914 0.056418054 -0.00044486034 -0.0031200128 -0.00047367738 -0.0031655852 0.043298673 -0.11524764
10020000000 0.17935446 0.045741484 -0.0028104316 0.0004668365 -0.0027519069 0.00049935642 0.0015903597 -0.11056671
10040000000 0.15591785 0.061957408 0.00062664435 0.0030396983 0.00062568416 0.0030828402 -0.040049218 -0.0973709
10060000000 0.16386919 0.047851421 0.0033280537 -0.001160018 0.0033415407 -0.0011717111 -0.060489792 -0.084693559
10080000000 0.18537448 0.031579453 -0.0018456769 -0.003178498 -0.0018529935 -0.0031358837 -0.10585328 -0.055188902
10100000000 0.14865853 0.038304396 -0.0032817069 0.0025211123 -0.0032289953 0.002549988 -0.11122075 -0.024839612
10120000000 0.14180785 0.019420598 0.0033183126 0.0026450313 0.0033019611 0.0026228589 -0.12134694 0.017423177
10140000000 0.15754405 0.049360804 0.0021519761 -0.0040769791 0.0020981026 -0.0040434948 -0.086172566 0.057948042
10160000000 0.15749834 0.016782589 -0.0046623666 -0.0013268595 -0.0046518533 -0.0013023985 -0.078190707 0.072174668
10180000000 0.13253981 0.0061861309 8.8434259e-005 0.005153358 7.0918475e-005 0.0051950156 -0.059909064 0.098855004
10200000000 0.1392438 0.028580042 0.0045327921 -0.0013941494 0.0045030932 -0.0013751687 -0.0067897323 0.12124109
10220000000 0.12297686 0.018806715 -0.0020093794 -0.0041157464 -0.0020399031 -0.004084385 0.028085064 0.076054655
10240000000 0.15442991 0.0058079869 -0.0036228285 0.002855652 -0.0036289247 0.0028817339 0.013540529 0.093804806
10260000000 0.11533865 -0.0023083144 0.0036166154 0.0026126569 0.0036362563 0.0026430343 0.079566449 0.06865263
10280000000 0.081289366 0.0035709795 0.001488767 -0.003340611 0.0015245005 -0.0033837243 0.070524864 0.011927024
10300000000 0.11876774 0.016096635 -0.0032795137 -0.0014696951 -0.0032501933 -0.0015048456 0.056011032 0.013704448
10320000000 0.094010703 0.013782205 -0.00092271279 0.0036829696 -0.00090139592 0.0036135293 0.060496718 -0.0093768211
10340000000 0.090660803 -0.027312027 0.0034728351 0.00016132956 0.0034946324 0.00018200834 0.039157089 -0.01770772
10360000000 0.077306047 0.00044609772 0.00019054157 -0.0031952718 0.00015194852 -0.003207458 0.020045793 -0.035239153
10380000000 0.051113661 0.017112436 -0.0038536959 0.00034880242 -0.0038820812 0.00040151196 0.012472859 -0.033008981
10400000000 0.077269085 0.0030849013 0.0011234044 0.0035907263 0.0011354075 0.0035944879 0.0068119541 -0.037403289
10420000000 0.072767228 -0.0043672766 0.0034497918 -0.0016402052 0.0034709948 -0.0016413189 0.0013512217 -0.041898176
10440000000 0.023474101 -0.013490413 -0.0023862342 -0.0036159672 -0.0024008497 -0.003637149 -0.026052425 -0.036023472
