!Keysight Technologies,N5242B,MY47200105,A.14.00.23
!Date: Friday, April 26, 2024 11:26:00
!Correction: S11(C  2-Port  ) 
!S21(C  2-Port  ) 
!S12(C  2-Port  ) 
!S22(C  2-Port  ) 
!S2P File: Measurement: :
# Hz S  RI   R 50
7000000000 0.050600722 0.064134404 -0.0031787015 -0.0028835062 -0.0032077087 -0.0028702922 -0.0461918 0.0086359242
7020000000 0.078206278 0.051608615 -0.0032091744 0.0044030799 -0.003233453 0.004432349 -0.042191833 0.011824463
7040000000 0.098638058 0.048124366 0.0061735846 0.00097375759 0.006186306 0.00098523137 -0.057990458 0.037727248
7060000000 0.075403497 0.037875172 -0.00077418034 -0.0051540341 -0.00076973543 -0.0051408801 -0.019931914 0.08208742
7080000000 0.094225623 0.057346091 -0.0050682514 0.0010929555 -0.0050293175 0.0010951363 0.020229939 0.083727367
7100000000 0.10446237 0.067533836 0.0029195941 0.0054345918 0.0029227403 0.0054394295 0.053841263 0.057844497
7120000000 0.12024356 0.037867267 0.0033391942 -0.0043920972 0.0033320733 -0.0043324111 0.08414112 0.053852707
7140000000 0.12103528 0.030617131 -0.0040178914 -0.0024886194 -0.0040047099 -0.0025146997 0.10722917 -0.0002741045
7160000000 0.10841803 0.048731171 -0.0022450169 0.0048613874 -0.0022081812 0.0049013044 0.078582965 -0.057773717
7180000000 0.13132687 0.041747432 0.0056267572 -0.00021735825 0.0056315907 -0.00016719244 0.037092 -0.076695606
7200000000 0.1529143 0.050148439 -0.0011773488 -0.0037956808 -0.0011697487 -0.0038175646 0.018867876 -0.07890372
7220000000 0.1351776 0.019725706 -0.0035235703 0.00088997011 -0.0035505225 0.00087860384 -0.035942942 -0.088200644
7240000000 0.13861592 0.01986485 0.0017715269 0.0038796624 0.0017842611 0.0039272509 -0.070593163 -0.026169028
7260000000 0.14959721 0.049984168 0.0025161805 -0.002395689 0.002514042 -0.0024076523 -0.055057809 -0.011527196
7280000000 0.15728226 0.024168493 -0.0017558455 -0.0024474394 -0.0017497669 -0.0024521148 -0.072100326 0.026646642
7300000000 0.17038336 0.016663324 -0.0030906559 0.0026460097 -0.0030947323 0.0026248654 -0.049353287 0.057042252
7320000000 0.14963649 0.023776624 0.0035753693 0.0017086428 0.0035494091 0.0017200594 -9.7555901e-005 0.069324672
7340000000 0.15111832 0.021190047 0.0015426289 -0.0028571137 0.001574918 -0.0028731071 0.011724381 0.056013107
7360000000 0.18483166 0.034405723 -0.0041813888 -0.0020115091 -0.004168205 -0.0020050141 0.03326951 0.061633706
7380000000 0.17648803 0.006911613 5.1757965e-005 0.0054163216 1.4249757e-005 0.0054426482 0.064647026 0.034606438
7400000000 0.17747028 -0.0026673824 0.0042832498 -0.0016503116 0.0043377611 -0.001679568 0.064855479 0.0034150465
7420000000 0.18103901 0.014902879 -0.002006588 -0.0039003608 -0.0019756728 -0.0039051659 0.046530146 -0.011188753
7440000000 0.18026401 0.0086714821 -0.0035635 0.0033587199 -0.0035797942 0.0033082541 0.053880595 -0.02485762
7460000000 0.21282512 -0.0047435439 0.0039605568 0.0015062283 0.0039388882 0.001505749 0.031438854 -0.052438315
7480000000 0.17845225 -0.018431531 0.00078449183 -0.002677687 0.00076438236 -0.0026920855 0.016304659 -0.039095227
7500000000 0.17471555 -0.0071665705 -0.0027781131 -0.00099816651 -0.0027759026 -0.0010386744 0.014055621 -0.046911024
7520000000 0.20750415 -0.0035678805 -1.6204269e-005 0.0028007217 3.5315727e-005 0.0028363713 -0.0034102104 -0.069502011
7540000000 0.19282331 -0.024324154 0.0014920884 0.00037926796 0.001514942 0.00036589324 -0.054461572 -0.060190909
7560000000 0.19822568 -0.040809069 0.0015842448 -0.0022903695 0.0016018569 -0.002262092 -0.077373348 -0.039833188
7580000000 0.18779564 -0.026816765 -0.0039155139 -0.0010264361 -0.0039021329 -0.0010267867 -0.095697232 0.0045146868
7600000000 0.18883501 -0.016388007 0.00015260713 0.003932945 0.00012248168 0.0039512902 -0.089356206 0.068721727
7620000000 0.21382013 -0.041093763 0.0044641676 -0.00042324953 0.0044474802 -0.00041155179 -0.031556178 0.11508837
7640000000 0.20240319 -0.047906552 -0.0021546381 -0.0053049694 -0.0021713355 -0.0053099985 0.022423137 0.1031305
7660000000 0.18740794 -0.050033651 -0.0041090804 0.0043181032 -0.004079618 0.0042893058 0.064434759 0.08367952
7680000000 0.195391 -0.041231889 0.0044872449 0.0026935451 0.0044865347 0.0026823787 0.093928657 0.044193756
7700000000 0.20314364 -0.044218324 0.0023066239 -0.0053058993 0.0022584775 -0.0052640932 0.1061999 -0.0068507409
7720000000 0.19400115 -0.073662423 -0.006359206 -0.00035904735 -0.0063137137 -0.0003691708 0.088113867 -0.054604024
7740000000 0.19973631 -0.056931224 0.0016493077 0.0053086951 0.0016306685 0.0052972697 0.051261231 -0.068986468
7760000000 0.18306574 -0.055322487 0.0046492042 -0.0018356955 0.0045907097 -0.0018046943 0.02413376 -0.085650943
7780000000 0.19500557 -0.063348457 -0.0030278156 -0.0048649353 -0.0030532689 -0.0048284177 -0.028537542 -0.096773416
7800000000 0.21097417 -0.060390364 -0.0029407688 0.0044899201 -0.0029663646 0.0045032641 -0.066146635 -0.049074855
7820000000 0.17866153 -0.079726674 0.0035155523 0.0017566524 0.0034922862 0.0018066178 -0.057843108 -0.024750203
7840000000 0.19074814 -0.061106026 0.002140722 -0.0037493652 0.0021139297 -0.0037483324 -0.078657292 -0.0071779238
7860000000 0.1899474 -0.051384162 -0.0047137225 -0.0010977545 -0.0047533312 -0.0010696254 -0.053703345 0.052361295
7880000000 0.19736339 -0.077361226 0.00012934665 0.003849488 0.00012539788 0.003872388 -0.0089762639 0.05694015
7900000000 0.20792964 -0.098122753 0.0038470638 0.00040565428 0.0038355035 0.00039986669 -0.0032340728 0.043516193
7920000000 0.1683792 -0.073845737 -0.00039750285 -0.0049185227 -0.00039042509 -0.0049077678 0.025715675 0.058357231
7940000000 0.1893879 -0.0796085 -0.0045220847 0.0020507926 -0.0045476323 0.0020533716 0.056631915 0.013286991
7960000000 0.19711062 -0.079069465 0.0021138394 0.0039612367 0.0021390412 0.0039570313 0.046279397 -0.0037494649
7980000000 0.1820545 -0.098619334 0.0046398342 -0.0032900968 0.004656944 -0.0032910553 0.042517237 -0.026817473
8000000000 0.18403587 -0.10404731 -0.0054253205 -0.0032098454 -0.0054260246 -0.0032078598 0.034257207 -0.030537335
8020000000 0.16496131 -0.065483965 -0.001280112 0.005047597 -0.0012564978 0.0050354679 0.011465634 -0.059549719
8040000000 0.18106791 -0.092546746 0.0051009436 0.00095710834 0.0050928104 0.00094077393 -0.019625029 -0.05128127
8060000000 0.183938 -0.11658113 -0.00048022566 -0.0059847785 -0.00046122936 -0.0060335868 -0.034972198 -0.041577488
8080000000 0.15841493 -0.092684872 -0.0047833053 0.0025428603 -0.0048096199 0.0026007432 -0.049543187 -0.031914085
8100000000 0.16003954 -0.11011229 0.0024053957 0.0033542768 0.0023942702 0.0033675106 -0.079787485 -0.0051282994
8120000000 0.16636148 -0.095334649 0.0036321497 -0.0024895796 0.0036503992 -0.0024776873 -0.045905985 0.050108969
8140000000 0.16642901 -0.11042968 -0.0038971186 -0.0027653195 -0.0038576121 -0.0027897654 -0.038100645 0.054871462
8160000000 0.1380941 -0.12989421 -0.0014300698 0.003177705 -0.0015140579 0.0031990344 -0.006850556 0.090032779
8180000000 0.13876317 -0.094406575 0.0031794365 0.0021739968 0.003168334 0.0021585173 0.041596975 0.084460102
8200000000 0.12951963 -0.11239335 0.0014117861 -0.0045451568 0.0014146704 -0.0045344164 0.089780189 0.042582419
8220000000 0.14195442 -0.10862149 -0.0039762086 7.007402e-005 -0.0039695268 4.557713e-005 0.082359917 0.0090972446
8240000000 0.11927633 -0.11023737 -0.00036077495 0.003800381 -0.00034392736 0.0037691821 0.10825956 -0.024991365
8260000000 0.099993005 -0.11478335 0.0048615378 -0.00049550849 0.0048920852 -0.00047804345 0.084987722 -0.082066834
8280000000 0.12183089 -0.10340387 -0.0022365393 -0.0043504015 -0.0022178409 -0.0043472429 0.037379898 -0.10043941
8300000000 0.10619431 -0.096423395 -0.0035255058 0.0023147978 -0.003516108 0.0023198698 -0.0021272942 -0.096810661
8320000000 0.10143244 -0.11739788 0.0030525224 0.0037238155 0.0030153526 0.0037070587 -0.033335011 -0.10881683
8340000000 0.10672299 -0.10831712 0.0027770002 -0.0043571205 0.0027541644 -0.0043498469 -0.077597871 -0.080732681
8360000000 0.069133952 -0.094584242 -0.0043569752 -0.0013522099 -0.0043255868 -0.0013437165 -0.097716153 -0.037375703
8380000000 0.092549622 -0.096604958 -0.0010266152 0.0041163308 -0.0010083549 0.0040712175 -0.093735389 -0.0013870238
8400000000 0.076345704 -0.095588915 0.0047115744 0.00029534163 0.0047129607 0.00025663117 -0.08771719 0.026974116
8420000000 0.060769003 -0.093185551 -0.00094187056 -0.0042636497 -0.00091866165 -0.0042597339 -0.073228784 0.073932871
8440000000 0.062235069 -0.087163776 -0.0036917436 0.0011556384 -0.0036781849 0.0011827593 -0.023464356 0.079272889
8460000000 0.063190453 -0.063713528 0.0015190251 0.0039489488 0.0015250019 0.0039513903 -0.0029981234 0.075519308
8480000000 0.063700579 -0.082336605 0.0034689065 -0.0025502983 0.0034816172 -0.0025842409 0.028261391 0.079482272
8500000000 0.059978448 -0.086774178 -0.0025486534 -0.0029107295 -0.0025473805 -0.0029220863 0.071983032 0.050176639
8520000000 0.034737702 -0.0569048 -0.0033348931 0.0029703688 -0.0033024207 0.0030194169 0.072256312 0.021668581
8540000000 0.035984941 -0.054883782 0.0044308058 0.0028893303 0.0044155694 0.0028643708 0.072035283 -0.0092582274
8560000000 0.062778354 -0.0536566 0.001286483 -0.00474075 0.0013107542 -0.0047174753 0.058766138 -0.041772362
8580000000 0.027322697 -0.060028594 -0.0047119753 -0.0011529326 -0.0046832971 -0.0011503457 0.0398928 -0.065556847
8600000000 0.019129712 -0.045701046 -0.00020109036 0.0057214997 -0.00021312614 0.0057051554 0.0056703947 -0.065427862
8620000000 0.033719726 -0.016906777 0.0057763606 -0.0015726269 0.0057848198 -0.0015638632 -0.00940214 -0.054404467
8640000000 0.020441437 -0.031525794 -0.0026294431 -0.0049450411 -0.0025981478 -0.0049753296 -0.032006979 -0.053083479
8660000000 0.036874119 -0.032329161 -0.0046681999 0.0035135169 -0.0046657184 0.0035141811 -0.048140917 -0.025870649
8680000000 0.016041936 -0.003818094 0.004895845 0.003768276 0.0048997481 0.0037694054 -0.040757969 0.0051704729
8700000000 0.0098732971 -0.0021221668 0.0021368589 -0.0054971091 0.0021392275 -0.0054616719 -0.03317846 -0.0035021729
8720000000 0.047852065 0.0011682403 -0.0054174159 -0.00096302142 -0.0054455241 -0.00094957883 -0.030191604 0.021056613
8740000000 0.0031977959 0.018744446 0.00017550234 0.0053937878 0.00014379971 0.0054103006 -0.0017285376 0.02932195
8760000000 0.018317116 0.00014720221 0.0046854564 -0.0012345467 0.0046474072 -0.0012482631 0.023424752 0.020890363
8780000000 0.016365515 0.042144995 -0.0014954638 -0.0041716886 -0.0014898793 -0.0041903835 0.013928705 0.001643331
8800000000 0.013915563 0.042108748 -0.004216732 0.0019962308 -0.0042096502 0.0019957162 0.026773408 0.0043262574
8820000000 0.028624268 0.033838537 0.0029941634 0.0036265019 0.0030041684 0.0036660689 0.037452441 -0.026248977
8840000000 0.012241442 0.059957203 0.0028839803 -0.002996305 0.0028648789 -0.0030071884 0.0028561021 -0.044399161
8860000000 0.023408629 0.049623009 -0.003185194 -0.0030213071 -0.0031959752 -0.0030160705 -0.0047330367 -0.0429621
8880000000 0.026152704 0.079164229 -0.0027804249 0.0044770911 -0.0027753031 0.0044405633 -0.0051942961 -0.048608344
8900000000 0.029400902 0.08386042 0.0050969897 0.0013960156 0.0050842185 0.0013977002 -0.057517432 -0.046565618
8920000000 0.033536926 0.059796371 0.0004377554 -0.0049735699 0.00048500727 -0.005006263 -0.05468471 -0.0019202634
8940000000 0.031865008 0.093332954 -0.0053259889 0.00025341433 -0.0053061098 0.00024256733 -0.060820788 0.001087308
8960000000 0.029338336 0.093995944 0.0017410836 0.0052704704 0.0017339959 0.0052571725 -0.063083775 0.027317476
8980000000 0.041924618 0.091958195 0.0044809519 -0.0027383489 0.0045355177 -0.0027610594 -0.041039106 0.05662667
9000000000 0.054972202 0.10502232 -0.0033994508 -0.0036896938 -0.0034635623 -0.0037499145 0.0038240831 0.059578612
9020000000 0.03264071 0.093195044 -0.0029806464 0.0039765262 -0.0029757647 0.0039145029 -0.0010925598 0.055761974
9040000000 0.049360003 0.12389108 0.0042475681 0.0019461617 0.0042340579 0.0019879772 0.038729768 0.055776332
9060000000 0.065188646 0.11829127 0.0014294981 -0.0041863546 0.0014555195 -0.0041739377 0.053102944 0.036991876
9080000000 0.050085481 0.10134483 -0.0044419728 -0.00081093406 -0.0044401176 -0.00083397923 0.066987686 0.0093639791
9100000000 0.078464575 0.1219001 0.00021703099 0.0043746103 0.00016078207 0.004370023 0.057354521 -0.0027436835
9120000000 0.051669635 0.13012835 0.0038049659 -0.0005834265 0.0037968052 -0.00054749288 0.071656123 -0.039642941
9140000000 0.075433888 0.11721828 -0.00059957791 -0.0041435319 -0.00054773485 -0.0041931025 0.047000267 -0.053468373
9160000000 0.092007414 0.13596918 -0.0044935169 0.0016627481 -0.004537438 0.0016300066 0.030667029 -0.075229876
9180000000 0.060404669 0.11605557 0.0026281287 0.0039593549 0.0026317653 0.0039930465 -0.001475298 -0.071843483
9200000000 0.085842103 0.12561022 0.003521712 -0.0028858173 0.0035371084 -0.0028885533 -0.018946093 -0.082546189
9220000000 0.093868822 0.14757574 -0.003851162 -0.0035643815 -0.0038393175 -0.0035864622 -0.065410681 -0.062713996
9240000000 0.087267272 0.13252512 -0.0026478188 0.0050184769 -0.0026689654 0.0049872911 -0.067611881 -0.035895992
9260000000 0.092368707 0.12971078 0.0056610163 0.0012805668 0.0056631374 0.0013354125 -0.065277711 -0.022321783
9280000000 0.092934377 0.14739634 -2.9182567e-005 -0.0057052849 -6.6417393e-005 -0.0057395557 -0.079497993 0.008032511
9300000000 0.10226621 0.14065543 -0.0055400403 0.0014428624 -0.0055384268 0.0014423586 -0.062784038 0.049072076
9320000000 0.12401057 0.149893 0.0023957216 0.0047236136 0.0023997789 0.0047139199 -0.043216191 0.040998008
9340000000 0.10079057 0.12688759 0.0041292049 -0.003265776 0.004116484 -0.0033058594 -0.032585066 0.057426888
9360000000 0.11418615 0.14042304 -0.0038966706 -0.0029477426 -0.0039340556 -0.0029875727 -0.00031924318 0.064034067
9380000000 0.12936458 0.16704276 -0.0018529004 0.0037428483 -0.0018617716 0.0037415647 0.017801907 0.049216695
9400000000 0.11551621 0.13554002 0.003566317 0.001605329 0.0035371939 0.0016551546 0.031095557 0.03520105
9420000000 0.1317865 0.13459475 0.0011378727 -0.0038110579 0.001144177 -0.0037799985 0.030676624 0.026052333
9440000000 0.13704245 0.15802781 -0.0035785548 -0.00071218715 -0.0035234981 -0.00074083341 0.04574725 0.0080664111
9460000000 0.11667909 0.14593828 -0.00084500032 0.003757217 -0.00083275524 0.0038146228 0.026287671 -0.019971484
9480000000 0.15572922 0.14157245 0.004517633 0.00036021846 0.0045622252 0.00031942103 0.02140859 -0.0059044017
9500000000 0.1280973 0.14893652 -0.00065362634 -0.0049440251 -0.00067985745 -0.0049356506 0.014913108 -0.014840678
9520000000 0.14835565 0.14383718 -0.00510862 0.0017539389 -0.0051065627 0.001759347 0.0024631256 -0.02294603
9540000000 0.15629733 0.14881371 0.0034026457 0.0048056561 0.0033701384 0.0048223939 -0.0074808551 0.0009444647
9560000000 0.13560461 0.15227717 0.003652402 -0.0045154775 0.0036690265 -0.0044754995 0.011492192 0.0062003476
9580000000 0.17205198 0.12778942 -0.0050154082 -0.002370104 -0.0050088679 -0.0023659847 -2.0410773e-005 -0.0028335366
9600000000 0.1656245 0.15155169 -0.0014143343 0.0053801532 -0.0014311676 0.0053403289 0.0093175052 0.0060052429
9620000000 0.14396909 0.13286866 0.0054123504 -0.00023930395 0.0053853714 -0.0002664029 0.022913253 -0.0012685808
9640000000 0.16528614 0.12770922 -0.0011221542 -0.0045320657 -0.0010994168 -0.0045493413 0.03608742 -0.022452207
9660000000 0.158601 0.14944041 -0.0040119095 0.00148867 -0.0040678023 0.0014656307 0.016184915 -0.04405861
9680000000 0.15814345 0.11629277 0.002068076 0.004025612 0.0020943552 0.0040629338 0.01597371 -0.029433649
9700000000 0.16386688 0.11871514 0.0030530614 -0.0025860136 0.0031058625 -0.0026569029 -0.011003793 -0.071122102
9720000000 0.16207813 0.14422904 -0.0026044725 -0.0027711864 -0.0025976892 -0.0028403343 -0.051794477 -0.072310172
9740000000 0.17765662 0.10500018 -0.0028615515 0.0029327185 -0.0029002223 0.0029508863 -0.067265764 -0.045460768
9760000000 0.16643485 0.14124316 0.0039874353 0.0022875222 0.0039769867 0.0022705179 -0.08729554 -0.034869421
9780000000 0.17155772 0.098614082 0.0013894988 -0.0039521097 0.0014314997 -0.0039915098 -0.1222252 0.010630868
9800000000 0.17612776 0.11286946 -0.0044125961 -0.0010634507 -0.0044114375 -0.0010062332 -0.0988288 0.057668038
9820000000 0.18115747 0.12236863 -8.3991035e-005 0.0049155294 -0.00012497419 0.0048774602 -0.083841696 0.093043685
9840000000 0.16044967 0.084266372 0.0047964803 -0.0011745869 0.0048031183 -0.0011625094 -0.052619439 0.12060659
9860000000 0.19214164 0.095885247 -0.0019114813 -0.004269362 -0.0019050589 -0.0042532068 -0.0069903834 0.14462496
9880000000 0.1676598 0.096810363 -0.0038502952 0.0029682028 -0.0038726297 0.0029377919 0.057362296 0.12147776
9900000000 0.17304371 0.081547752 0.003624483 0.0027844217 0.0035851919 0.0027367608 0.090983301 0.0942121
9920000000 0.18074982 0.079847038 0.0016248283 -0.0035523656 0.0016780869 -0.0035427613 0.12222504 0.052058782
9940000000 0.16162373 0.091508441 -0.0031849432 -0.0014169044 -0.0031825609 -0.0014158299 0.13400781 -0.0047497894
9960000000 0.19016811 0.065507226 -0.0009538788 0.003726565 -0.00095930725 0.003660012 0.10457974 -0.052867524
9980000000 0.16990542 0.076140478 0.0034616247 0.00023681755 0.0034676979 0.00023089237 0.07022731 -0.069374993
10000000000 0.16325431 0.068346411 -1.3036767e-005 -0.0030986287 1.7602597e-005 -0.0030719349 0.051714733 -0.11327127
10020000000 0.1903182 0.052972417 -0.0035018073 -0.00010621531 -0.0033609958 -0.00010943172 -0.0033194332 -0.1146571
10040000000 0.16375172 0.052864499 0.00080543256 0.0035345142 0.00076798978 0.0035992879 -0.03928617 -0.096955739
10060000000 0.1574941 0.038959503 0.0034666774 -0.0011292896 0.003494781 -0.0010088918 -0.059956536 -0.081877753
10080000000 0.17909014 0.03785209 -0.0014671662 -0.0037536288 -0.0014762074 -0.0037044673 -0.10445971 -0.060441054
10100000000 0.15634175 0.044977132 -0.0039333473 0.0028175209 -0.0039152019 0.0028047634 -0.11301591 -0.018880023
10120000000 0.14984581 0.0093381889 0.0035824159 0.0028344311 0.0035890026 0.0028774799 -0.11722597 0.013056607
10140000000 0.14829373 0.036875792 0.0024385119 -0.0039480114 0.0024360516 -0.0039934088 -0.090946414 0.059363827
10160000000 0.14298543 0.023170007 -0.0049542063 -0.0018413449 -0.0049508442 -0.0018057455 -0.079489112 0.073602475
10180000000 0.13539548 0.020319095 -0.00016700961 0.0053277323 -0.00016298327 0.0053408081 -0.055480294 0.099844038
10200000000 0.15126912 0.027402248 0.0047393125 -0.0010259522 0.0047271065 -0.00098999334 -0.010334673 0.1122775
10220000000 0.1210535 0.0081996182 -0.0017257232 -0.0045921649 -0.0017121953 -0.0045380201 0.019262627 0.085365027
10240000000 0.14414251 0.009468887 -0.0038760297 0.0029163393 -0.0039293966 0.0029535729 0.024975065 0.093756162
10260000000 0.11889473 0.010504162 0.0033450103 0.002723238 0.0033271206 0.0026907756 0.074977785 0.060521916
10280000000 0.096354418 0.0025901964 0.0022382222 -0.0029440343 0.002261665 -0.0029315513 0.0661432 0.011828403
10300000000 0.12111081 0.0015879832 -0.0037749314 -0.0020886539 -0.0037760041 -0.0020328441 0.058387585 0.026050713
10320000000 0.081461839 0.0090573626 -0.00079755916 0.003707618 -0.00073674327 0.0037385218 0.068764493 -0.017913342
10340000000 0.086400419 -0.017071489 0.0031826857 0.00050808681 0.0032232658 0.00058266218 0.028130436 -0.021967823
10360000000 0.088088639 0.003713147 0.0008058807 -0.0036606675 0.00088122353 -0.0036672691 0.019364489 -0.024195587
10380000000 0.05441628 0.0047841226 -0.004167818 0.00046265865 -0.0041247769 0.0005042855 0.023826247 -0.035777293
10400000000 0.063870199 -0.0041717286 0.00084971264 0.0035744 0.00086667301 0.0036045501 -0.00070370646 -0.046439923
10420000000 0.062817372 0.0074501 0.0038609835 -0.0012345999 0.0038779948 -0.0011684377 -0.0050066067 -0.030863876
10440000000 0.032357763 -0.0007223927 -0.0025628936 -0.0039483639 -0.002601458 -0.0039652404 -0.013866869 -0.038443968
10460000000 0.058297757 0.0022272461 -0.002752716 0.0032428871 -0.0027401873 0.0032366482 -0.047469232 -0.034782957
