!Keysight Technologies,N5242B,MY47200105,A.14.00.23
!Date: Friday, April 26, 2024 11:31:11
!Correction: S11(C  2-Port  ) 
!S21(C  2-Port  ) 
!S12(C  2-Port  ) 
!S22(C  2-Port  ) 
!S2P File: Measurement: :
# Hz S  RI   R 50
7000000000 0.0513824 0.052592691 -0.00036066206 -0.012296448 -0.00037138481 -0.012264733 -0.041321117 -0.0020989636
7020000000 0.071123578 0.053712688 -0.011502432 0.0030300731 -0.011467898 0.0030142225 -0.055242687 0.013152741
7040000000 0.095716983 0.052457068 0.0049485792 0.010608 0.0049238079 0.010587581 -0.048148815 0.047652401
7060000000 0.08497633 0.043915533 0.0095885294 -0.0072266273 0.0095923338 -0.0072367261 -0.016720152 0.067872263
7080000000 0.095025286 0.047487039 -0.0088937115 -0.0074581499 -0.0088686254 -0.0074414071 0.0077228178 0.085183956
7100000000 0.10060954 0.066471465 -0.0058911289 0.0095222853 -0.005910622 0.0095195882 0.06115118 0.06872014
7120000000 0.11353096 0.042345632 0.011019347 0.0045811292 0.011011974 0.0045626215 0.088894717 0.039874215
7140000000 0.13015988 0.036616914 0.0016827048 -0.01222321 0.0016979715 -0.012231673 0.092895202 0.00087086676
7160000000 0.1098908 0.043100074 -0.011855214 0.000963912 -0.011860143 0.00096002116 0.084874161 -0.045537602
7180000000 0.13075054 0.037015732 0.0031809502 0.011498533 0.0031532145 0.011515383 0.041965906 -0.088849284
7200000000 0.14477733 0.054977216 0.010793453 -0.0056707859 0.010794307 -0.0056603709 0.0058245044 -0.078075655
7220000000 0.14165002 0.024061637 -0.007962496 -0.0087341024 -0.0079127615 -0.008743329 -0.031473812 -0.075432435
7240000000 0.14157473 0.01880827 -0.006935739 0.0090572145 -0.0069583235 0.0090435576 -0.062725842 -0.03602054
7260000000 0.15015009 0.04249632 0.010378348 0.0046643559 0.010363806 0.0046934797 -0.066782735 -0.011083795
7280000000 0.15072303 0.02781998 0.0017933463 -0.010491217 0.0018433285 -0.010465263 -0.067424402 0.036791041
7300000000 0.17227212 0.019449413 -0.0093441335 6.399699e-006 -0.0093896119 2.4245863e-005 -0.041952815 0.050557744
7320000000 0.15451002 0.026751149 0.00091679237 0.0088534663 0.00092533568 0.0088753458 -0.0083165132 0.066989526
7340000000 0.15208176 0.013109961 0.0084423292 -0.002065795 0.0084627625 -0.0020474447 0.013339955 0.064505354
7360000000 0.18057235 0.036524195 -0.0029895534 -0.0080929184 -0.0030134611 -0.0080982558 0.041918293 0.057633247
7380000000 0.17375641 0.0086433096 -0.0079711331 0.0039443211 -0.0079369443 0.0039326157 0.058585312 0.028487068
7400000000 0.18385696 0.0029306794 0.0056603043 0.007550193 0.0056355479 0.007541365 0.063909158 0.012230817
7420000000 0.1823927 0.0083825951 0.0065309061 -0.0070546586 0.0065388572 -0.0070376517 0.055984933 -0.013742157
7440000000 0.17875205 0.007929733 -0.0083568972 -0.0053206435 -0.0083414586 -0.0053598164 0.04762451 -0.034605879
7460000000 0.20704535 -0.003078694 -0.0037432483 0.0097471904 -0.0037567047 0.0097571481 0.027295986 -0.043240655
7480000000 0.18484761 -0.013478423 0.010621926 0.0011618808 0.010596006 0.0011920501 0.026336886 -0.041175865
7500000000 0.17610992 -0.010480982 -0.0014976052 -0.010072323 -0.0014615895 -0.010068062 0.0081126569 -0.057792351
7520000000 0.2079134 -0.0074911653 -0.0087176058 0.003248448 -0.0087046186 0.0032222643 -0.010333309 -0.059693079
7540000000 0.18656981 -0.021896556 0.0041156537 0.0075133704 0.0040861042 0.0075014904 -0.044123709 -0.061151858
7560000000 0.2021852 -0.037638899 0.0065634102 -0.0045960443 0.006541892 -0.0046313582 -0.083584651 -0.047860887
7580000000 0.18949907 -0.026274199 -0.0050575077 -0.0062780045 -0.0050198031 -0.0062723546 -0.10294576 0.011228673
7600000000 0.19001153 -0.021099474 -0.0059708073 0.0061051296 -0.0059483326 0.0060421806 -0.080678202 0.071819209
7620000000 0.20984797 -0.038947474 0.0074241813 0.0052982122 0.0074354098 0.0052925409 -0.032598268 0.10682733
7640000000 0.20364195 -0.047270603 0.0038641156 -0.0085884808 0.0038853686 -0.0085440706 0.013110338 0.1083378
7660000000 0.18912837 -0.046313405 -0.0095031727 -0.0024990945 -0.0095149707 -0.002497908 0.072786711 0.089660875
7680000000 0.19800489 -0.045866039 -0.00056584744 0.01008144 -0.00056087627 0.010073456 0.094596989 0.035929389
7700000000 0.20148061 -0.043723281 0.010311994 -0.0014259114 0.010315398 -0.0013999066 0.097835511 -0.0046875491
7720000000 0.19173418 -0.07496386 -0.0032323846 -0.0099147325 -0.0032807684 -0.0099352775 0.094627135 -0.045910049
7740000000 0.20154324 -0.051159751 -0.0096286051 0.0053101662 -0.0096229725 0.0053330027 0.055059563 -0.077942736
7760000000 0.18515955 -0.058552034 0.0075688967 0.0083481837 0.0076003196 0.0083062546 0.015645623 -0.084248513
7780000000 0.19609337 -0.064103343 0.006499995 -0.00926538 0.0065243007 -0.0092693456 -0.022933226 -0.08842171
7800000000 0.20582932 -0.062392075 -0.010153539 -0.0044571077 -0.010131063 -0.0044711293 -0.060371704 -0.056926593
7820000000 0.18056236 -0.074497849 -0.0022364845 0.011033642 -0.0022404091 0.011061694 -0.067146376 -0.026123853
7840000000 0.19202867 -0.061011601 0.010865548 -0.00022849291 0.010882542 -0.00020630672 -0.075140238 0.0028645804
7860000000 0.19420825 -0.054154266 -0.0023079454 -0.010372435 -0.0023159985 -0.01039748 -0.045161132 0.042491563
7880000000 0.19208406 -0.078825608 -0.0091927433 0.0040977737 -0.009196992 0.0041061011 -0.019878058 0.054633547
7900000000 0.20841892 -0.095670849 0.0053703953 0.0081298854 0.0053848126 0.0081484634 -0.00050319545 0.053556487
7920000000 0.1692033 -0.070338652 0.0070094243 -0.006061702 0.0070411931 -0.0060151676 0.034846317 0.050687861
7940000000 0.19457167 -0.083698571 -0.0071900124 -0.0061356761 -0.0072296327 -0.0061266497 0.044492479 0.0084645897
7960000000 0.19285485 -0.080339558 -0.0050257747 0.0077716615 -0.0050182668 0.0078235501 0.047218207 0.0059174676
7980000000 0.18049628 -0.098704897 0.0087520266 0.003925751 0.0087312404 0.0039379029 0.051564246 -0.032556079
8000000000 0.18404494 -0.098066188 0.0028705783 -0.0095888032 0.0029076934 -0.009571882 0.024768423 -0.038026989
8020000000 0.1704718 -0.068716787 -0.010637389 -0.0010515897 -0.01064331 -0.0010797863 0.008457562 -0.048020802
8040000000 0.1797211 -0.09372469 0.0012089785 0.011082275 0.0012308812 0.011089771 -0.010304011 -0.05364551
8060000000 0.1804989 -0.11928486 0.010814548 -0.0038220524 0.010873735 -0.0037911932 -0.043531321 -0.050345175
8080000000 0.15849258 -0.085499167 -0.0061087399 -0.0099352198 -0.0060689468 -0.0099533247 -0.053557638 -0.020812809
8100000000 0.16412427 -0.11159533 -0.008098823 0.0083115092 -0.0081582051 0.0082898084 -0.069664247 -0.0046949466
8120000000 0.16879933 -0.097169228 0.0097456425 0.0060061673 0.009732659 0.0060028299 -0.051616475 0.04138412
8140000000 0.16088857 -0.11454258 0.003398048 -0.010347045 0.0034489343 -0.010350785 -0.042220529 0.065806322
8160000000 0.13759416 -0.1247335 -0.010242006 -0.0012275409 -0.010221199 -0.0012187542 0.0034424872 0.089017935
8180000000 0.14061204 -0.092351675 0.0005608506 0.0096302191 0.00053863716 0.0095871119 0.038711648 0.077010997
8200000000 0.13527738 -0.11471155 0.0088061634 -0.0020868143 0.0088189924 -0.002057984 0.084709808 0.049083199
8220000000 0.13610008 -0.11256013 -0.0029263552 -0.0077831629 -0.0028939547 -0.0078135552 0.091845028 0.010365397
8240000000 0.1176101 -0.10771147 -0.0073510506 0.0033343513 -0.0073303943 0.0033334726 0.10550268 -0.034504425
8260000000 0.10092051 -0.10830411 0.004145755 0.0074216826 0.0041841245 0.0074335225 0.078935437 -0.076990351
8280000000 0.12889622 -0.10664853 0.0071054585 -0.0057179839 0.007043195 -0.0056610918 0.045363083 -0.098135255
8300000000 0.10329081 -0.099753127 -0.0069718175 -0.0063408669 -0.0069497935 -0.0063300151 -0.003640617 -0.10486571
8320000000 0.097054332 -0.11791143 -0.0052620857 0.0084700845 -0.0052728779 0.0084403558 -0.041008338 -0.10615273
8340000000 0.10720216 -0.1005506 0.0098070949 0.0036224644 0.0098095937 0.003609088 -0.072715312 -0.074987873
8360000000 0.075460158 -0.09621384 0.001307043 -0.010473493 0.0013110823 -0.010465412 -0.095281765 -0.045624696
8380000000 0.092896193 -0.1010285 -0.010488004 0.00081913063 -0.010493034 0.00081032066 -0.10236315 -0.00034324382
8400000000 0.07012286 -0.097973585 0.0030543653 0.010013924 0.0030380359 0.010031952 -0.084841482 0.035850663
8420000000 0.059971433 -0.085609823 0.0088567249 -0.0050455402 0.0088680349 -0.0050079059 -0.067831591 0.067135662
8440000000 0.067534246 -0.085530162 -0.0061830021 -0.007181739 -0.0061685201 -0.0071898918 -0.032678567 0.077590086
8460000000 0.066858731 -0.068799809 -0.006009704 0.0068096775 -0.0060254247 0.0068039796 -0.0011125747 0.083785892
8480000000 0.056676883 -0.085586525 0.007255666 0.0046688356 0.0072771502 0.0046603424 0.036509182 0.075042658
8500000000 0.057377163 -0.081156701 0.0037690562 -0.00757804 0.0037808926 -0.0075614443 0.063396126 0.046279967
8520000000 0.039075162 -0.051683385 -0.007837465 -0.0030171867 -0.0079022003 -0.0030526193 0.0735576 0.030091377
8540000000 0.041754723 -0.059728812 -0.002281599 0.0087548019 -0.0022919006 0.0087578902 0.078295834 -0.012320231
8560000000 0.057827879 -0.058554593 0.0093312766 0.00086063537 0.0093086027 0.00089197455 0.054437593 -0.045689575
8580000000 0.022351431 -0.056675568 -0.00049415667 -0.010040289 -0.00049220491 -0.010029444 0.037322436 -0.05952869
8600000000 0.021917714 -0.038133159 -0.010489443 0.0024711029 -0.010468647 0.0024896304 0.013499084 -0.065486871
8620000000 0.041207299 -0.021048183 0.0051018228 0.010383415 0.0051195063 0.010361345 -0.012028345 -0.063113011
8640000000 0.017370475 -0.037161548 0.0092174551 -0.0073068496 0.0091934688 -0.0073143016 -0.036059074 -0.046134718
8660000000 0.029256329 -0.031142762 -0.009454703 -0.0075890515 -0.009475179 -0.007624812 -0.039764103 -0.025175532
8680000000 0.017880833 0.0054551177 -0.0053213527 0.011122009 -0.0053209965 0.011125038 -0.041695859 -0.0049417205
8700000000 0.017205309 -0.0035444531 0.011785705 0.0022865413 0.011743866 0.0022973234 -0.043882698 0.0036607408
8720000000 0.048242215 -0.0056969556 0.00010726058 -0.01142637 0.00017461355 -0.011413882 -0.018705659 0.022854334
8740000000 -0.0055667013 0.018261151 -0.011176725 0.0018638342 -0.011196689 0.0018603723 -0.0058486708 0.017284796
8760000000 0.019179666 0.0088309962 0.0042223688 0.010581406 0.0042023663 0.010582454 0.01424594 0.028645333
8780000000 0.02314161 0.042917702 0.0087837018 -0.0059593804 0.0087691937 -0.0059556672 0.02445432 0.0050982228
8800000000 0.01734877 0.03453137 -0.0068151685 -0.0076000388 -0.0067235609 -0.0076455716 0.023124212 -0.0054997904
8820000000 0.019393608 0.031865813 -0.0063673579 0.0079531623 -0.0063999328 0.0078952201 0.027718421 -0.020470388
8840000000 0.010218247 0.066670865 0.0088040102 0.0046904851 0.0087759132 0.0047274693 0.011022938 -0.039667796
8860000000 0.029061386 0.054163285 0.0032625627 -0.00898227 0.0032684302 -0.0089884819 -0.0050458806 -0.049813103
8880000000 0.031362902 0.072979122 -0.0094247935 -0.0020505993 -0.0094501022 -0.00208993 -0.011651041 -0.04587049
8900000000 0.022217371 0.080507487 -0.00064299017 0.0098835509 -0.00065224041 0.0099320188 -0.053549591 -0.038601741
8920000000 0.029364817 0.064198397 0.009884676 -0.0011909816 0.009883252 -0.0012356924 -0.049768671 -0.0085349698
8940000000 0.036566161 0.10096958 -0.0026990133 -0.0096547464 -0.0026766416 -0.0096372999 -0.067328505 0.00076099153
8960000000 0.036603339 0.088533208 -0.0092910286 0.0045471159 -0.0092949122 0.0045418683 -0.061553128 0.035919137
8980000000 0.037990242 0.08687935 0.0064531867 0.0083027994 0.0064580715 0.0082904017 -0.033294562 0.050561193
9000000000 0.047806863 0.10639716 0.0067203715 -0.0077651064 0.0067318217 -0.0077326279 -0.0031532974 0.056086525
9020000000 0.035870843 0.10231655 -0.0088872975 -0.005476037 -0.0088661257 -0.0054249475 0.0012722675 0.064282767
9040000000 0.056551944 0.12159657 -0.0031007305 0.0096608922 -0.0031013817 0.0096521433 0.046382666 0.050304461
9060000000 0.064366981 0.11121389 0.0094021093 0.0014714056 0.0093926806 0.0014378536 0.046871111 0.033415847
9080000000 0.040681761 0.10168469 0.00029275799 -0.0093094148 0.00032487218 -0.0092757773 0.067530327 0.015979776
9100000000 0.080541514 0.13112634 -0.0094398269 0.0013554584 -0.0094810193 0.0013521089 0.064698935 -0.0074329106
9120000000 0.058775697 0.13116705 0.0027968097 0.0086836703 0.0028057382 0.0086638201 0.063857026 -0.046083223
9140000000 0.078056976 0.10836722 0.0082196938 -0.0038283281 0.0082124453 -0.0038258855 0.047523957 -0.046710566
9160000000 0.082146414 0.13475114 -0.0049165823 -0.0079291491 -0.0049084062 -0.0079348646 0.035885289 -0.078935154
9180000000 0.059964214 0.12393394 -0.0071011013 0.0067205187 -0.0070136846 0.0066958428 -0.0067941793 -0.077126309
9200000000 0.092315622 0.12980758 0.0074908175 0.0058296164 0.0074772174 0.0058893878 -0.023436135 -0.077871755
9220000000 0.098016791 0.13840325 0.0048461263 -0.0086486982 0.0048854887 -0.0086291032 -0.060482029 -0.061570551
9240000000 0.079216376 0.13127582 -0.0099621387 -0.003316374 -0.0099951439 -0.003309442 -0.069275357 -0.041830596
9260000000 0.088448137 0.13572718 -0.00095651933 0.010393797 -0.00096875092 0.010390175 -0.071527049 -0.017943166
9280000000 0.10008276 0.15464912 0.010384886 -0.00080605398 0.01037902 -0.00074078597 -0.074892037 0.013169745
9300000000 0.10731363 0.1321567 -0.003067364 -0.010271139 -0.003028451 -0.010218183 -0.059822593 0.043256417
9320000000 0.11967967 0.14693908 -0.0090033831 0.0050543463 -0.0090319021 0.0050754054 -0.052230325 0.041808836
9340000000 0.093662821 0.13001968 0.0063391034 0.0074731503 0.0063546482 0.0074639157 -0.026821399 0.066246025
9360000000 0.12021177 0.1488726 0.0063081193 -0.0071889502 0.0063327374 -0.0072352183 0.0034479259 0.056540191
9380000000 0.13441686 0.16173622 -0.0080996696 -0.0047193947 -0.0081465309 -0.0046931338 0.011078206 0.049245439
9400000000 0.11403306 0.12992924 -0.0029579301 0.0080157947 -0.0029756527 0.0080214348 0.035844035 0.042708997
9420000000 0.12171682 0.13749647 0.0077662361 0.0022827666 0.0077478942 0.0022912063 0.035933398 0.021011995
9440000000 0.14199682 0.16579615 0.0017675415 -0.0084355641 0.0017666791 -0.0084228497 0.039898813 0.0054953024
9460000000 0.12234277 0.14547263 -0.0089178365 -0.00013468854 -0.0089390054 -0.00012571884 0.027941598 -0.012558817
9480000000 0.15698448 0.13361372 0.00092258636 0.0087284734 0.00092203688 0.0087252147 0.027256293 -0.012244025
9500000000 0.11860607 0.15065819 0.0091806818 -0.0021422813 0.009187391 -0.0021340533 0.0093718274 -0.01723244
9520000000 0.15002541 0.1499384 -0.0042202082 -0.0093007917 -0.0042174812 -0.0092895357 0.002695214 -0.018116793
9540000000 0.16342367 0.1517227 -0.0080601778 0.0062720459 -0.0080688521 0.0062640393 -0.00065118825 -0.0027127143
9560000000 0.1383087 0.14246681 0.0074446015 0.0071552522 0.007476869 0.0070852973 0.0056432486 0.0018067043
9580000000 0.1629238 0.12822315 0.005667835 -0.0090159802 0.0056416187 -0.0089613553 -0.0023000678 0.0029921462
9600000000 0.1638234 0.15719052 -0.010289088 -0.0037074776 -0.010234988 -0.0037093149 0.01620971 0.0030600601
9620000000 0.1508832 0.138863 -0.0014719148 0.010367642 -0.001479669 0.010376915 0.017745189 -0.0060895989
9640000000 0.1683002 0.11871985 0.010712905 -0.00039935712 0.010701051 -0.00038962474 0.031954341 -0.018224958
9660000000 0.15259486 0.14857428 -0.002669228 -0.010220814 -0.0026070236 -0.010166163 0.022806186 -0.04019516
9680000000 0.15344457 0.12093919 -0.009070321 0.0044354438 -0.009078417 0.0044561154 0.01327685 -0.039336808
9700000000 0.17085165 0.12577289 0.0053522214 0.0079851318 0.0053559938 0.0080344994 -0.018107185 -0.063219614
9720000000 0.16622326 0.13701212 0.0072627654 -0.0070243324 0.0071863355 -0.0070226369 -0.044010706 -0.067607582
9740000000 0.17500341 0.10110617 -0.007901147 -0.0051752022 -0.0079227565 -0.0052019251 -0.066528566 -0.05449798
9760000000 0.15789902 0.14480017 -0.0038410099 0.008241144 -0.0038548631 0.0082207518 -0.094546087 -0.028539082
9780000000 0.17777425 0.10603504 0.0084246993 0.0029624347 0.0084142499 0.0029504355 -0.11238399 0.015375401
9800000000 0.18029279 0.10935017 0.0011259088 -0.0094062807 0.0011227641 -0.0093465913 -0.098535202 0.049556818
9820000000 0.18083441 0.11596692 -0.0088092769 0.00048196519 -0.0088224318 0.00049477402 -0.088209242 0.097170345
9840000000 0.1503661 0.087577999 0.0017346338 0.0084074317 0.0017714031 0.0083598783 -0.047826886 0.12069727
9860000000 0.19675091 0.1022562 0.0083610276 -0.0028450347 0.0083299447 -0.002791492 -0.0053585484 0.13993658
9880000000 0.1723974 0.096964449 -0.0046425587 -0.0072918241 -0.0046212813 -0.0072873333 0.053154856 0.12130606
9900000000 0.17474698 0.073858224 -0.0062752319 0.0050263163 -0.0062962207 0.0050319065 0.09175463 0.093797259
9920000000 0.17185524 0.081735961 0.0057270159 0.0056920554 0.0057047354 0.0057775807 0.12349746 0.05070217
9940000000 0.16316874 0.096657224 0.005037087 -0.0069551412 0.0051127118 -0.0069611589 0.1304584 -0.0078726569
9960000000 0.19514982 0.069040813 -0.007609067 -0.0034246943 -0.0076928376 -0.0033268386 0.10320994 -0.047120698
9980000000 0.17295992 0.067607924 -0.0023804938 0.0079960702 -0.0023585532 0.007982444 0.074028656 -0.07105986
10000000000 0.1559671 0.068929926 0.008121077 0.0009137296 0.0081140092 0.0009719716 0.04708736 -0.11680295
10020000000 0.18760982 0.056430485 -0.0002339248 -0.0081257736 -0.00017952878 -0.0081138052 -0.0036148238 -0.10838808
10040000000 0.16947652 0.05911243 -0.0077424897 0.0012598415 -0.0077655134 0.0012383942 -0.034189932 -0.098017618
10060000000 0.15975556 0.030941738 0.0022014522 0.0080325436 0.0022088201 0.0080728708 -0.063677371 -0.086361304
10080000000 0.17558244 0.03607427 0.0074509922 -0.0035151658 0.0075044073 -0.0035314632 -0.10784237 -0.053040095
10100000000 0.15036714 0.048943892 -0.0045257406 -0.0070631974 -0.0045263576 -0.0070614642 -0.10626607 -0.019273287
10120000000 0.1556596 0.015923882 -0.0070095323 0.0054437332 -0.0069901976 0.0054106498 -0.11933381 0.008752062
10140000000 0.15141036 0.031805445 0.0077130692 0.006318673 0.0077162078 0.0063448772 -0.093569063 0.063055195
10160000000 0.14234997 0.01835461 0.0043760329 -0.0087838639 0.00440777 -0.0087394621 -0.073323742 0.077640906
10180000000 0.12701356 0.024272066 -0.0095269112 -0.0028568869 -0.0095520811 -0.0029096047 -0.054136023 0.093502581
10200000000 0.15607822 0.032825649 -0.0012160238 0.0104337 -0.0012771676 0.010383108 -0.014265168 0.11433391
10220000000 0.12451965 0.0062154261 0.010744277 -0.001615088 0.010683405 -0.0016154619 0.024017774 0.089418449
10240000000 0.14464669 0.002151309 -0.0035040434 -0.0094167721 -0.0035238327 -0.0094627645 0.028751748 0.089578182
10260000000 0.11024778 0.014599902 -0.0085265897 0.0051801489 -0.0085434392 0.0052164313 0.071620584 0.057375584
10280000000 0.098731644 0.0065135006 0.0065986412 0.0073041264 0.0065727187 0.0073163505 0.066254348 0.018508362
10300000000 0.12541488 0.0035812345 0.0051915296 -0.0075608203 0.0051826085 -0.0075653535 0.064072445 0.018375959
10320000000 0.08365199 0.0011494296 -0.0073883808 -0.0039505716 -0.0074050231 -0.0039931098 0.062974066 -0.020248968
10340000000 0.07968691 -0.014084427 -0.0028240143 0.0076912236 -0.0028980775 0.0077458723 0.029083779 -0.017653907
10360000000 0.087380029 0.0056865811 0.0079022888 0.0019243846 0.0078863418 0.0019468582 0.022842506 -0.028411411
10380000000 0.059443388 0.0092749652 0.00089505984 -0.0077111367 0.00083908986 -0.0077310116 0.016442297 -0.038008697
10400000000 0.06514515 -0.012550745 -0.0082873339 -0.00037583776 -0.0082054557 -0.00039520548 -0.00030815892 -0.041894898
10420000000 0.058811389 0.0083233844 0.0011667775 0.0085938144 0.0011560187 0.008608304 -0.00193079 -0.032594103
10440000000 0.027386509 0.00198384 0.0085598296 -0.0027654883 0.0085485792 -0.0027305763 -0.019382413 -0.039785288
10460000000 0.064533845 0.0076943305 -0.0039704344 -0.0079112593 -0.0039924225 -0.0079253344 -0.046365492 -0.03002256
10480000000 0.031185405 0.015865216 -0.0078897532 0.0056123817 -0.0078486977 0.0056005074 -0.059582733 -0.022658847
