!Keysight Technologies,N5242B,MY47200105,A.14.00.23
!Date: Friday, April 26, 2024 11:31:47
!Correction: S11(C  2-Port  ) 
!S21(C  2-Port  ) 
!S12(C  2-Port  ) 
!S22(C  2-Port  ) 
!S2P File: Measurement: :
# Hz S  RI   R 50
7000000000 0.056317117 0.045915525 0.0009290257 -0.012252297 0.00094392692 -0.012256669 -0.040783778 0.0027668455
7020000000 0.065006353 0.048188973 -0.013067187 0.0012196588 -0.013052208 0.0011993953 -0.055647466 0.014611794
7040000000 0.089341037 0.058647987 0.0049113319 0.013097506 0.0049160174 0.013086412 -0.047848843 0.045611341
7060000000 0.090849511 0.050106738 0.011039844 -0.0081781559 0.011037128 -0.0081961835 -0.020214809 0.069171853
7080000000 0.10217621 0.042720307 -0.0096914722 -0.008964696 -0.009700276 -0.0089561846 0.017263768 0.088641718
7100000000 0.096087627 0.059041098 -0.0070144287 0.011778375 -0.0069759265 0.011749276 0.055532057 0.063794285
7120000000 0.10617813 0.046954721 0.013178166 0.0035320662 0.013150856 0.0035311594 0.089751348 0.043716904
7140000000 0.13378254 0.044119678 0.00053114374 -0.012528505 0.00053537195 -0.01251552 0.096867323 -0.0012412739
7160000000 0.11770526 0.040383466 -0.012381921 0.001463026 -0.012361944 0.0014799961 0.086628288 -0.051721454
7180000000 0.12869163 0.029022124 0.0045796074 0.011595804 0.0045610084 0.011589174 0.034345537 -0.082519025
7200000000 0.1369105 0.056541003 0.0092671569 -0.0061681829 0.0092390394 -0.0061769709 0.011808248 -0.079339243
7220000000 0.14277434 0.032314714 -0.0066369809 -0.008040268 -0.0066200951 -0.0080525028 -0.037357014 -0.078146219
7240000000 0.14936255 0.018651085 -0.0073315063 0.0081927944 -0.0073221377 0.0081908992 -0.061637565 -0.035241675
7260000000 0.15100336 0.034653567 0.0092705004 0.0049762144 0.0092949159 0.004993923 -0.067325361 -0.0084097041
7280000000 0.14253089 0.026429659 0.0036239389 -0.0091604209 0.0036441081 -0.0091368416 -0.064456351 0.033308189
7300000000 0.1707325 0.02723521 -0.0099153686 -0.0027280017 -0.0099251559 -0.0027337228 -0.04689673 0.049906138
7320000000 0.16230349 0.029444888 -0.00074335939 0.010760959 -0.00073709677 0.010754146 -0.0082319519 0.06890139
7340000000 0.15546216 0.0058434773 0.01050011 -0.0011459461 0.01050192 -0.0011359756 0.015499799 0.062850885
7360000000 0.17350316 0.032806344 -0.0028699185 -0.010786634 -0.002876129 -0.010841027 0.039040681 0.054714646
7380000000 0.16928035 0.015295683 -0.01034766 0.0056306985 -0.010355867 0.0056011574 0.058617089 0.035472911
7400000000 0.19076987 0.0080304053 0.007970497 0.0083122561 0.0079493094 0.0083037866 0.065016598 0.0090878103
7420000000 0.18796058 0.0022444811 0.0064491509 -0.0087903934 0.0064253798 -0.0087793469 0.050732099 -0.014003803
7440000000 0.17324907 0.0018121857 -0.0099805882 -0.0045396974 -0.0099926488 -0.0045187916 0.05195627 -0.033908948
7460000000 0.20027398 0.0021518443 -0.0020641882 0.010150864 -0.002075589 0.010190183 0.029128697 -0.043586403
7480000000 0.18995576 -0.006346432 0.0095273452 0.00036768612 0.0095299669 0.00037370215 0.022334855 -0.040857006
7500000000 0.18370949 -0.014857504 -0.00086734217 -0.0092877923 -0.00087399397 -0.0093124127 0.0095902896 -0.054318048
7520000000 0.20422472 -0.015314591 -0.0085739717 0.0024484626 -0.0085559916 0.0024850883 -0.010752012 -0.063203968
7540000000 0.17860401 -0.018719595 0.0029221158 0.0076367552 0.0029444501 0.0076361638 -0.044093989 -0.06146618
7560000000 0.20529036 -0.029133053 0.0078011137 -0.0032990738 0.0077642864 -0.0032803328 -0.08425241 -0.043971092
7580000000 0.19797774 -0.028049169 -0.004782591 -0.0083495313 -0.004740844 -0.0083368141 -0.10024127 0.011438404
7600000000 0.18883745 -0.030414406 -0.0076654428 0.0068383822 -0.0076242061 0.0068121115 -0.082357816 0.06773366
7620000000 0.20093411 -0.037547447 0.008352749 0.0067061516 0.0083743706 0.0066692308 -0.032880232 0.10679407
7640000000 0.20415983 -0.038610704 0.0051871222 -0.010258038 0.0051977225 -0.01022929 0.018351108 0.1104035
7660000000 0.19832025 -0.045963079 -0.011770031 -0.0027434146 -0.011765614 -0.0027654383 0.073596247 0.084324501
7680000000 0.19868261 -0.054994803 6.0234361e-005 0.011849605 2.4668418e-005 0.011860872 0.088188082 0.039248679
7700000000 0.19291428 -0.044516511 0.011776105 -0.0023210822 0.011788595 -0.0023090297 0.1027144 -0.0074664638
7720000000 0.18974638 -0.066774957 -0.0049461955 -0.010944161 -0.0049716546 -0.010952292 0.093567468 -0.048655324
7740000000 0.21016714 -0.048496578 -0.0094417753 0.0070260931 -0.0094293924 0.0069948705 0.051953495 -0.08127141
7760000000 0.18843491 -0.066203907 0.0083010029 0.0076208147 0.0082906811 0.0076044644 0.018342355 -0.080911808
7780000000 0.18832767 -0.067683749 0.0061273314 -0.0094979694 0.0060992339 -0.0094749872 -0.024914313 -0.090118751
7800000000 0.2015387 -0.054941189 -0.010181205 -0.0039190138 -0.010196401 -0.0039470675 -0.063726515 -0.055872511
7820000000 0.18762533 -0.069740884 -0.0021543228 0.010271261 -0.0021654826 0.01031419 -0.068632543 -0.027016224
7840000000 0.19771223 -0.067296222 0.010355623 0.00084936939 0.010342997 0.00085452746 -0.071005121 0.0053964714
7860000000 0.18800542 -0.059991397 -0.00090913946 -0.010923564 -0.00094970467 -0.010909786 -0.048438463 0.043366205
7880000000 0.18582125 -0.073231444 -0.010262283 0.0030030839 -0.010230769 0.0029753654 -0.020777939 0.059557628
7900000000 0.21372773 -0.08878988 0.0044542709 0.0098870331 0.0044755079 0.009900664 0.0013817269 0.052353058
7920000000 0.17655495 -0.074639946 0.0095201675 -0.0061082873 0.0094955303 -0.0060291612 0.032979302 0.04820748
7940000000 0.19050604 -0.09128134 -0.0086002136 -0.0083583109 -0.0086161504 -0.0083418041 0.044957977 0.017944392
7960000000 0.18460143 -0.076471083 -0.0064259684 0.0099128466 -0.0064410693 0.0098645724 0.052650567 -0.0017156431
7980000000 0.18426079 -0.090717122 0.011344774 0.0044145938 0.011388968 0.0044500348 0.043139633 -0.03214068
8000000000 0.19207977 -0.10026315 0.0020938851 -0.011995705 0.0020852434 -0.012019289 0.029940745 -0.036396764
8020000000 0.16844293 -0.077497162 -0.0121466 0.00071059051 -0.012121295 0.00063804368 0.010407811 -0.051591139
8040000000 0.17106417 -0.091793537 0.0028859805 0.011509646 0.0028624241 0.011539564 -0.013859891 -0.054982796
8060000000 0.18194371 -0.11083703 0.010588923 -0.005245409 0.010618956 -0.0052167098 -0.043946639 -0.044520415
8080000000 0.16662511 -0.085955843 -0.0069086831 -0.009025936 -0.0068964432 -0.0090484526 -0.05347776 -0.026080841
8100000000 0.16453643 -0.1197184 -0.0071584419 0.0079324329 -0.0071520386 0.0079205688 -0.070589676 -0.0037355584
8120000000 0.16076349 -0.097704992 0.0087828981 0.0060804058 0.0087940553 0.0060904888 -0.052863814 0.036720976
8140000000 0.15948626 -0.10669613 0.0042192088 -0.0097199408 0.0042764102 -0.0097361365 -0.038680263 0.070542045
8160000000 0.14533247 -0.12269233 -0.010017551 -0.0025962705 -0.010019843 -0.0026026771 0.0065130452 0.082602844
8180000000 0.14336769 -0.10000508 -0.0012475895 0.010281985 -0.0013006803 0.010292222 0.032259837 0.077885143
8200000000 0.12797736 -0.11754302 0.010781183 -0.00053687388 0.010765685 -0.00057646527 0.086100884 0.050195049
8220000000 0.13212518 -0.10571176 -0.002586989 -0.010393844 -0.0025808038 -0.01040874 0.0937659 0.0065199677
8240000000 0.12490337 -0.1036557 -0.0099030547 0.0042644632 -0.0099042077 0.0041986522 0.1004558 -0.032948263
8260000000 0.10526753 -0.11429911 0.0060599004 0.0090913465 0.0061325645 0.0090415152 0.081985608 -0.070703678
8280000000 0.12330994 -0.11147223 0.0078981537 -0.0078056762 0.0078759752 -0.0077799866 0.041457437 -0.1046281
8300000000 0.097442888 -0.094500214 -0.0090407804 -0.0062989253 -0.009045084 -0.0062805028 -0.0038148614 -0.10077114
8320000000 0.10294823 -0.11196136 -0.0042474964 0.010315936 -0.0043003247 0.010307462 -0.038510993 -0.10415974
8340000000 0.11292311 -0.10523438 0.010345411 0.002076633 0.010373265 0.0020700553 -0.072868206 -0.078381017
8360000000 0.071327478 -0.10227347 0.00049108826 -0.01032997 0.00051052996 -0.010350229 -0.099346541 -0.043040197
8380000000 0.086201034 -0.097328916 -0.010321157 0.0011961889 -0.010311305 0.0011892084 -0.09898863 -0.00018687782
8400000000 0.073564254 -0.091286041 0.003228476 0.0096933171 0.0032376342 0.0097164046 -0.085473292 0.033639003
8420000000 0.067062527 -0.08823739 0.008698931 -0.0042745313 0.0087228548 -0.00426732 -0.070516996 0.068365425
8440000000 0.065179296 -0.091952279 -0.0054231887 -0.0080184406 -0.0054056738 -0.0080176676 -0.033095933 0.081894264
8460000000 0.060089801 -0.06742648 -0.0073526124 0.006584859 -0.0073372638 0.0066239112 0.003742246 0.079391211
8480000000 0.05774916 -0.078599691 0.0076558096 0.0062202467 0.0076704896 0.0062016067 0.031883061 0.071689144
8500000000 0.064553104 -0.081298113 0.0053575104 -0.0088099092 0.005365551 -0.0087577784 0.063566446 0.047232978
8520000000 0.038769275 -0.058544096 -0.0099160261 -0.0038147266 -0.0099199247 -0.0038125594 0.082208753 0.028614191
8540000000 0.035692595 -0.060205061 -0.0021811761 0.010692642 -0.0021652868 0.010712096 0.071741864 -0.016101362
8560000000 0.055614088 -0.051656794 0.011096095 0.00023388854 0.011076921 0.00028551524 0.052771542 -0.038030274
8580000000 0.029720295 -0.054764766 -0.0018019545 -0.011764618 -0.0017605569 -0.011746952 0.03919236 -0.062534675
8600000000 0.023996728 -0.044474196 -0.01099968 0.004532713 -0.011011389 0.0045182328 0.010118295 -0.069103844
8620000000 0.035227276 -0.023639522 0.0062709386 0.010010985 0.0062682689 0.010011815 -0.011775604 -0.060507655
8640000000 0.013814323 -0.030889966 0.0091811465 -0.0082236547 0.0091606388 -0.0081559354 -0.031072833 -0.043117434
8660000000 0.035467025 -0.027512414 -0.010718505 -0.0070929253 -0.010669253 -0.0070623383 -0.046167258 -0.027070917
8680000000 0.022052579 -0.00026771176 -0.0041702534 0.011098507 -0.0042303917 0.011070153 -0.039155118 -0.0032112652
8700000000 0.011505063 -0.0073130382 0.011393164 0.0024831265 0.011399616 0.0024684137 -0.043857448 0.0037252754
8720000000 0.043418761 -0.00084591482 0.00041981615 -0.011872205 0.00044895572 -0.011826925 -0.018872125 0.02294635
8740000000 -0.00077795505 0.023327682 -0.011315711 0.0020485418 -0.011340619 0.0019982106 -0.010244249 0.02010704
8760000000 0.024274839 0.0046188515 0.0033300861 0.010604824 0.003329424 0.010555252 0.01824346 0.02616227
8780000000 0.019026229 0.038459178 0.010317576 -0.0050775683 0.010330332 -0.0050505502 0.024189916 0.00099812972
8800000000 0.012305307 0.037710834 -0.0073042125 -0.0093443301 -0.0073038028 -0.0093280338 0.023716848 -0.00043460453
8820000000 0.02191185 0.037283879 -0.0075159925 0.0087471809 -0.0074749626 0.0087192617 0.030105576 -0.0229137
8840000000 0.01652536 0.06458623 0.0099887252 0.0061595449 0.0099397525 0.0061587617 0.01010792 -0.043084573
8860000000 0.026803909 0.048487939 0.0039732559 -0.011261104 0.0039542913 -0.011290315 -0.0083986185 -0.048055612
8880000000 0.025490152 0.074447997 -0.011455108 -0.0013702044 -0.011481268 -0.0013470656 -0.012679896 -0.051633365
8900000000 0.02313395 0.08621376 0.00041771814 0.011139928 0.00042742991 0.011108802 -0.049099259 -0.039202306
8920000000 0.034812242 0.064463407 0.010872967 -0.0024799183 0.010959315 -0.0024797418 -0.053918958 -0.013012267
8940000000 0.037009727 0.094772048 -0.0044748425 -0.0097200153 -0.004443727 -0.0097018247 -0.068013936 0.0067674005
8960000000 0.0303501 0.088634603 -0.0083924541 0.0053812303 -0.0083753457 0.0054004439 -0.060143795 0.035123643
8980000000 0.037407883 0.092522018 0.0064557628 0.0078512952 0.0064339265 0.0078960769 -0.037071966 0.044712037
9000000000 0.05294371 0.1085289 0.0065698791 -0.0079262145 0.0065157423 -0.007936595 -0.008514774 0.060309947
9020000000 0.038459107 0.096065983 -0.0084303953 -0.0049746428 -0.0084440513 -0.0049530268 0.013930879 0.065937273
9040000000 0.050846141 0.11993425 -0.0039919219 0.0088852393 -0.0039756629 0.0088637369 0.035944462 0.048866369
9060000000 0.061874066 0.11669349 0.009918483 0.0027686891 0.0098944232 0.0027607691 0.047499683 0.03818664
9080000000 0.045588668 0.10488477 0.00077084097 -0.010258919 0.0007811127 -0.010235758 0.067492209 0.01130951
9100000000 0.083939053 0.12571494 -0.010164136 0.00076625403 -0.010168752 0.00077294646 0.065800294 -0.0066674454
9120000000 0.053941727 0.12857218 0.0023218705 0.010167675 0.0022835992 0.010182129 0.06280946 -0.044208527
9140000000 0.074265487 0.11307109 0.010063541 -0.0044040419 0.010055146 -0.0043729846 0.048732441 -0.048307691
9160000000 0.086389042 0.13821572 -0.0061380523 -0.0088073593 -0.0061157653 -0.0088067055 0.035128415 -0.078097619
9180000000 0.064169571 0.12074354 -0.0078422651 0.007625204 -0.0078776367 0.0076643531 -0.0029429058 -0.078507029
9200000000 0.089117922 0.12557799 0.0090440381 0.0062705316 0.009021963 0.0063331295 -0.025925077 -0.07647711
9220000000 0.093581565 0.14220573 0.0042891228 -0.010079795 0.0043127863 -0.010070986 -0.055117883 -0.062212732
9240000000 0.081889145 0.13506544 -0.010413717 -0.0025524483 -0.010348504 -0.002607645 -0.075685345 -0.040461231
9260000000 0.092901252 0.13404617 -0.00068228471 0.010857007 -0.00063569238 0.010847742 -0.066977933 -0.0169362
9280000000 0.098491691 0.14978172 0.010632163 -0.0015867375 0.010674974 -0.0015567653 -0.072705738 0.0077983369
9300000000 0.10236119 0.1347068 -0.0032708964 -0.0095643876 -0.0032673881 -0.0095555484 -0.062937424 0.0417598
9320000000 0.12082392 0.15081362 -0.0088946782 0.0041021975 -0.0089432541 0.0041509778 -0.048261434 0.048912324
9340000000 0.098082639 0.13024315 0.0058548292 0.0084100151 0.0058986843 0.0084324488 -0.024825172 0.059642527
9360000000 0.11997559 0.14414965 0.0068539972 -0.0071226796 0.0068132649 -0.0070890393 -0.0061242487 0.052669767
9380000000 0.13035114 0.16178432 -0.0075218328 -0.0056521813 -0.0075091026 -0.0056505371 0.017476847 0.051825292
9400000000 0.11396462 0.13470997 -0.0051179188 0.0084112855 -0.0051054815 0.0084325382 0.039567903 0.039643664
9420000000 0.12539816 0.13853969 0.0096855322 0.0034525765 0.0096460618 0.0034691652 0.031291161 0.020969087
9440000000 0.14344889 0.16141441 0.0019282328 -0.0097079864 0.0019039483 -0.0097108502 0.037801422 0.012667947
9460000000 0.11812998 0.14380549 -0.010255296 -0.00076861249 -0.010303282 -0.00079433795 0.028934374 -0.015615975
9480000000 0.1556771 0.13802776 0.0014270599 0.011105913 0.0014116208 0.011093885 0.026692305 -0.016867055
9500000000 0.12140231 0.15256895 0.010234959 -0.0039973469 0.010205674 -0.0039809952 0.0088262782 -0.014386278
9520000000 0.15303868 0.14681244 -0.0051806616 -0.0091975452 -0.0051421737 -0.0092553096 0.0040079276 -0.017890804
9540000000 0.1600183 0.14889431 -0.0084471442 0.0068509891 -0.0084546078 0.0068914639 0.0017924114 -0.0059988941
9560000000 0.13567874 0.14666949 0.0085052121 0.0070759966 0.0085385544 0.0070582256 0.0012626676 0.0031865437
9580000000 0.16555916 0.13045286 0.0051089413 -0.009011643 0.0050743832 -0.0090112025 0.0028841358 0.0051499014
9600000000 0.16719219 0.15469693 -0.0098358653 -0.0041567041 -0.0097853299 -0.0042075068 0.013759627 -0.002055391
9620000000 0.14908735 0.13606006 -0.002365116 0.010885255 -0.0024207933 0.010878327 0.017627642 0.0034586242
9640000000 0.1645707 0.12066936 0.011002052 0.00016406372 0.011079242 0.0001149578 0.031862576 -0.021728238
9660000000 0.15435851 0.15200137 -0.0013102902 -0.010826205 -0.0012854574 -0.010834096 0.02019505 -0.042767227
9680000000 0.15644503 0.11904483 -0.011265265 0.0035393208 -0.01126793 0.0035260678 0.013982117 -0.040756609
9700000000 0.17076826 0.12267013 0.0060780495 0.0099157207 0.0060651479 0.0099086845 -0.010429719 -0.061994702
9720000000 0.16232695 0.138111 0.0083774962 -0.0075621204 0.0083875787 -0.0075003589 -0.05020814 -0.066944994
9740000000 0.17576195 0.10463274 -0.0087010413 -0.0072415574 -0.0086679189 -0.0071099363 -0.06747105 -0.053842027
9760000000 0.16074705 0.14448397 -0.0050501563 0.01053869 -0.00509845 0.010524265 -0.095762998 -0.029183226
9780000000 0.17874663 0.10290341 0.010335334 0.0026567571 0.010304241 0.0025882965 -0.10351273 0.012168884
9800000000 0.17711373 0.10905261 0.00098674104 -0.01032858 0.00093994726 -0.01037067 -0.10625512 0.052131612
9820000000 0.18052486 0.11903004 -0.010536794 0.00053736556 -0.010485757 0.00053040101 -0.087687649 0.10208675
9840000000 0.15301482 0.088858679 0.0030210181 0.0096399393 0.0029995556 0.0096855816 -0.045374285 0.11659426
9860000000 0.1979637 0.09970019 0.0083171818 -0.0037784094 0.0082809525 -0.003861144 -0.002876112 0.13312425
9880000000 0.17019068 0.094830632 -0.0045551187 -0.0075010811 -0.0045818645 -0.0074757761 0.051913891 0.12772511
9900000000 0.17273726 0.07697691 -0.0070139244 0.005589115 -0.0070365905 0.005611829 0.1002689 0.08664161
9920000000 0.17430161 0.08358141 0.0061284355 0.0056960881 0.0061067045 0.0056786924 0.1200799 0.054880843
9940000000 0.16552776 0.095189281 0.0056789117 -0.0065742251 0.0056925681 -0.0065317871 0.12840068 -0.013264477
9960000000 0.19382764 0.06682121 -0.0079131667 -0.0049150637 -0.0079281516 -0.0049027428 0.10472883 -0.04129912
9980000000 0.17018107 0.069332108 -0.0032996647 0.0092137074 -0.0033246898 0.0091779549 0.077837937 -0.077954166
10000000000 0.15706858 0.071857415 0.0090773022 0.0018594201 0.0090659373 0.0018842337 0.040911939 -0.11329691
10020000000 0.19066493 0.05507106 0.00074440113 -0.010041099 0.00075081055 -0.010022574 0.0026408413 -0.11124036
10040000000 0.16927846 0.056960866 -0.010283361 0.0014885258 -0.010283744 0.0014430038 -0.039964527 -0.096639596
10060000000 0.15618859 0.031524729 0.0033834628 0.0096673174 0.0033914607 0.0096065775 -0.064923987 -0.091252178
10080000000 0.17572553 0.039807983 0.0089514805 -0.0043328376 0.0090378467 -0.0043269973 -0.10278696 -0.047088392
10100000000 0.1535131 0.04852014 -0.0064894892 -0.0085631553 -0.0064468752 -0.0085441722 -0.11137427 -0.023762595
10120000000 0.15630987 0.013387614 -0.0069833542 0.0075723506 -0.0069270628 0.0075990218 -0.12155145 0.016253086
10140000000 0.14828828 0.031298045 0.008638381 0.0057669133 0.0086460961 0.0057653724 -0.087191857 0.051850997
10160000000 0.1414389 0.022002572 0.0046804789 -0.0097649861 0.0047384906 -0.009848061 -0.076580279 0.079982162
10180000000 0.13006476 0.025169047 -0.010860061 -0.0021857745 -0.010841293 -0.0022051251 -0.048811246 0.09336172
10200000000 0.15730701 0.029944269 -0.00058357808 0.010519138 -0.00056235999 0.0104419 -0.012979236 0.11779905
10220000000 0.12102499 0.0041790078 0.010794117 -0.0010023741 0.01081635 -0.0010215631 0.022206061 0.085815422
10240000000 0.14276056 0.005826368 -0.0031419578 -0.011013451 -0.0031734055 -0.010901629 0.029367307 0.092361949
10260000000 0.11288984 0.015838752 -0.0095575405 0.0055891392 -0.0095383916 0.0056180307 0.07323885 0.055200331
10280000000 0.10065613 0.004475547 0.0065410836 0.0085644387 0.0065235714 0.0085671777 0.066615768 0.028628126
10300000000 0.1228116 0.0016997175 0.007315415 -0.008253756 0.0073348167 -0.0081731379 0.067298636 0.012071124
10320000000 0.081137739 0.0030811145 -0.0095541254 -0.0053268583 -0.0095055494 -0.0052779536 0.052606255 -0.017620478
10340000000 0.081868745 -0.010889518 -0.0034256021 0.0093905581 -0.0034275386 0.0093245264 0.038585532 -0.013527656
10360000000 0.089631833 0.002897114 0.0099886591 0.0026079281 0.010018392 0.0026221625 0.026122406 -0.035641752
10380000000 0.05869158 0.0074587888 0.00047516782 -0.010429731 0.00040638944 -0.010454047 0.010423893 -0.035036523
10400000000 0.061379638 -0.01135463 -0.010024284 0.0012834368 -0.0099351015 0.0012987708 0.0075623319 -0.036313657
10420000000 0.059796136 0.010920359 0.0023723035 0.0094742626 0.0023368245 0.0094663799 -0.0030124555 -0.044079158
10440000000 0.029826371 0.00045399548 0.0095276022 -0.0039459504 0.0095200483 -0.003948153 -0.023876797 -0.034419261
10460000000 0.064495035 0.005183633 -0.0055522542 -0.0084063169 -0.0055747638 -0.0083934097 -0.036897168 -0.033923578
10480000000 0.027522812 0.016695438 -0.007537473 0.0066393288 -0.0074974452 0.006643665 -0.064201862 -0.018011168
10500000000 0.024049353 -0.020031517 0.0075715361 0.0067367307 0.0075646495 0.0067678234 -0.05939715 0.004130872
