!Keysight Technologies,N5242B,MY47200105,A.14.00.23
!Date: Friday, April 26, 2024 11:21:09
!Correction: S11(C  2-Port  ) 
!S21(C  2-Port  ) 
!S12(C  2-Port  ) 
!S22(C  2-Port  ) 
!S2P File: Measurement: :
# Hz S  RI   R 50
7000000000 0.072402745 0.045096006 -0.0047003888 -0.0025831729 -0.0046614399 -0.0026176595 -0.042127151 -0.0095810164
7020000000 0.059835378 0.028262107 -0.00080798398 0.004744444 -0.00080452487 0.0047367672 -0.061709128 0.018228482
7040000000 0.074128777 0.064778224 0.0047656167 0.00017602176 0.0047431025 0.00018539533 -0.042209059 0.053361218
7060000000 0.088854253 0.064000547 -0.0013240728 -0.0055040396 -0.001320519 -0.0055653579 -0.015925599 0.060545027
7080000000 0.12190129 0.046309065 -0.0040727765 0.0032222059 -0.0040746946 0.0032158261 0.0018676714 0.089345768
7100000000 0.095228285 0.040299203 0.0030742404 0.0029755419 0.003049016 0.0029930912 0.066955373 0.073086277
7120000000 0.091695756 0.045491628 0.0030007793 -0.0036085085 0.0029840898 -0.0036210208 0.091160476 0.034080155
7140000000 0.12633614 0.059517577 -0.0049041654 -0.0015827083 -0.0048597655 -0.0016112407 0.088079505 0.0042744894
7160000000 0.13776729 0.046667166 -0.00025302239 0.0040222351 -0.00025357935 0.0040111351 0.091263033 -0.043551322
7180000000 0.13262194 0.012718346 0.0040748911 0.00017857603 0.004065665 0.00021369754 0.042710997 -0.09366937
7200000000 0.12519121 0.046623986 -0.00097846834 -0.0046266215 -0.0009846139 -0.0046638357 0.0010885213 -0.077467583
7220000000 0.13005655 0.04693621 -0.0033068629 0.0024511772 -0.0033061882 0.0024483674 -0.025830228 -0.073046423
7240000000 0.16499989 0.026357627 0.0016536621 0.0025837573 0.0016524529 0.0026278098 -0.061413065 -0.042688448
7260000000 0.15861981 0.024407297 0.0033799808 -0.0022728983 0.0033574637 -0.0023048064 -0.074506782 -0.010626874
7280000000 0.13194303 0.012070352 -0.0038905002 -0.0022257264 -0.0038500321 -0.0022430066 -0.062536635 0.040917691
7300000000 0.15511931 0.041660868 -0.00089358247 0.0032666721 -0.00093081768 0.0032409648 -0.039625678 0.043119095
7320000000 0.17200096 0.042646226 0.0030007863 0.0010976791 0.0030466965 0.0010755276 -0.017419949 0.066725224
7340000000 0.17154686 0.0011988257 0.00046005336 -0.0038158302 0.00044273818 -0.0037977097 0.016061876 0.072353229
7360000000 0.1675632 0.013301411 -0.0034200242 0.00055005134 -0.0033769961 0.00055795384 0.045222759 0.050190583
7380000000 0.15429935 0.023516642 0.00055130356 0.0032859247 0.00052513392 0.0032590146 0.049723968 0.027449384
7400000000 0.19252402 0.021293191 0.0038317416 -0.0014227208 0.0038578964 -0.0014114041 0.064747244 0.02053673
7420000000 0.20755357 0.001374962 -0.0027899707 -0.0028641836 -0.0027933158 -0.0028720549 0.061320368 -0.017244909
7440000000 0.16978465 -0.018298421 -0.0018864734 0.0025801708 -0.0018860325 0.0025795335 0.042128198 -0.035561223
7460000000 0.18467666 0.0034813948 0.0027629684 0.0019298121 0.0027677917 0.0019117527 0.026909241 -0.036334962
7480000000 0.18439156 0.010062738 0.00091166783 -0.0035435588 0.00094513415 -0.0035304725 0.031479232 -0.043088857
7500000000 0.20257564 -0.012248983 -0.0027119992 5.4039028e-005 -0.0027045086 1.7343722e-005 0.0056705987 -0.058572099
7520000000 0.20474887 -0.031453408 -0.00020112831 0.0024739099 -0.00020305987 0.0024599282 -0.010037222 -0.055577587
7540000000 0.1631429 -0.022884516 0.0027287821 -0.00016348324 0.0027400116 -0.00012991136 -0.039850757 -0.061618749
7560000000 0.19649386 -0.010530947 -0.00053182367 -0.0021124405 -0.00052013359 -0.0021438007 -0.084398344 -0.049845513
7580000000 0.21690896 -0.021960968 -0.0023206838 -0.00019886295 -0.0023031067 -0.00021504708 -0.1029674 0.013181177
7600000000 0.19726564 -0.042196881 0.00010500814 0.0036375888 0.00014524491 0.0035665762 -0.07781174 0.071442567
7620000000 0.18939963 -0.051278181 0.0038517464 -0.0018101465 0.0038238862 -0.0018224006 -0.03254725 0.10264744
7640000000 0.19255896 -0.02356096 -0.0025377448 -0.002917242 -0.0025414741 -0.0029379253 0.010834789 0.11075169
7660000000 0.21053247 -0.038172353 -0.0029509095 0.0029115593 -0.0029374126 0.002903044 0.077829488 0.090853624
7680000000 0.21021585 -0.063743263 0.004361209 0.0024563668 0.0043754517 0.0024804841 0.093774825 0.028241139
7700000000 0.18178566 -0.062648654 0.00071812631 -0.0047625625 0.00069461256 -0.0048042079 0.092699751 -0.0009731272
7720000000 0.17318872 -0.055021137 -0.0044097113 1.7314716e-005 -0.0043569836 8.6762484e-006 0.10008111 -0.043300129
7740000000 0.21418709 -0.03397271 0.0006942561 0.0048241001 0.00071952655 0.0048630917 0.054792292 -0.087411262
7760000000 0.20623684 -0.067880206 0.0045012175 -0.002516906 0.0045341072 -0.0025155011 0.0068973401 -0.081318937
7780000000 0.18424354 -0.086134769 -0.0028333173 -0.0032926444 -0.002833277 -0.0032673341 -0.01751028 -0.082566835
7800000000 0.18705748 -0.050128553 -0.003267315 0.0032102575 -0.0032726512 0.0032352421 -0.058880813 -0.064150184
7820000000 0.18744044 -0.053125475 0.0045631365 0.0024457416 0.0045672148 0.0024696053 -0.075775281 -0.025018942
7840000000 0.21880074 -0.067687936 0.00057970086 -0.0044149924 0.00058169314 -0.0043870783 -0.071538724 0.010004156
7860000000 0.18793225 -0.07916183 -0.0036866195 -0.00061319949 -0.0037122359 -0.0006322593 -0.042083316 0.038502298
7880000000 0.16971976 -0.077453613 -8.2542399e-005 0.0046303817 -0.0001166841 0.0045892014 -0.025505465 0.053587418
7900000000 0.20609725 -0.070927359 0.0043974607 -0.0016481464 0.0043642414 -0.0016313696 0.0018737807 0.059868712
7920000000 0.19469002 -0.071548991 -0.0018539741 -0.0031650355 -0.0017800697 -0.0031465983 0.03793785 0.047970928
7940000000 0.19470492 -0.10591084 -0.0035087171 0.0017737364 -0.0034802302 0.0017628579 0.041252293 0.008553437
7960000000 0.17033857 -0.086507834 0.0031020732 0.0034814919 0.0030693999 0.0034611579 0.048243482 0.0095977644
7980000000 0.17159982 -0.072584897 0.0021590348 -0.0036794567 0.0021551647 -0.003680049 0.053878993 -0.034054842
8000000000 0.20800522 -0.090592265 -0.0034543232 -0.0017857992 -0.0034702409 -0.0017815058 0.023799952 -0.038850382
8020000000 0.1803104 -0.08667504 -0.0016513669 0.0042592161 -0.0016695582 0.0042212284 0.0095828017 -0.044809598
8040000000 0.15977234 -0.10811577 0.004785601 6.258428e-005 0.0047718417 5.3693642e-005 -0.0054938057 -0.056445885
8060000000 0.1681136 -0.0959346 -0.0006108493 -0.0041571963 -0.00059947319 -0.0041280002 -0.047096301 -0.052624922
8080000000 0.17852016 -0.072186589 -0.0044878456 0.0010018782 -0.0044748392 0.0010079149 -0.054177847 -0.017064519
8100000000 0.18282068 -0.12867358 0.0027621377 0.0043945462 0.0027481676 0.0044351011 -0.06261199 -0.0072521213
8120000000 0.15148787 -0.1198822 0.002829435 -0.003314862 0.002766666 -0.003281242 -0.057426255 0.034987934
8140000000 0.14231665 -0.09913522 -0.0031322264 -0.0026739382 -0.0031189765 -0.0026702245 -0.045608573 0.071260512
8160000000 0.14771135 -0.10575226 -0.0022618384 0.0044033797 -0.0022597427 0.0044287285 0.01082683 0.088344291
8180000000 0.16159235 -0.10291351 0.0045843376 0.00029393038 0.0046050698 0.00030199421 0.033872671 0.06991601
8200000000 0.12122165 -0.13589153 -0.00018609068 -0.0035219502 -0.0001861718 -0.0035118083 0.079120785 0.055849772
8220000000 0.11640116 -0.10108326 -0.0038788056 0.00021323733 -0.0038757289 0.00017582851 0.098080598 0.013803008
8240000000 0.12307057 -0.081479207 0.0015879124 0.0037200334 0.0015790486 0.0037038804 0.1055948 -0.040703315
8260000000 0.12696983 -0.11493699 0.0024076924 -0.0016348597 0.0024751145 -0.0016318532 0.071972437 -0.073028736
8280000000 0.12648821 -0.12924942 -0.0011878884 -0.0028665932 -0.0011856093 -0.0028336209 0.050336469 -0.093416952
8300000000 0.081806161 -0.10051788 -0.0031783062 0.002170509 -0.00321259 0.0021554097 -0.00058038224 -0.110131
8320000000 0.095910348 -0.094438836 0.0028151295 0.0022843038 0.0028096652 0.0023568224 -0.046451431 -0.10351381
8340000000 0.13021097 -0.10080919 0.0021748487 -0.002774823 0.002199078 -0.0027659561 -0.069231898 -0.071880944
8360000000 0.078710519 -0.1182715 -0.003702481 -0.0020576571 -0.0036677162 -0.002036046 -0.092948169 -0.049431514
8380000000 0.069419406 -0.10873035 -0.00088410883 0.0041908845 -0.00087470311 0.0042241635 -0.10472144 0.00052987499
8400000000 0.060975358 -0.074091867 0.0040372484 0.00018999301 0.0040224073 0.00018771988 -0.081383869 0.03658418
8420000000 0.080208346 -0.075761236 -0.00030779187 -0.0044394643 -0.00030097921 -0.0044615073 -0.068083249 0.064848587
8440000000 0.079621278 -0.10563216 -0.0044479822 0.0018493737 -0.0044359467 0.0018404565 -0.034038801 0.077818133
8460000000 0.045290541 -0.080742523 0.0026071486 0.0033072347 0.0025833715 0.0033274728 -0.0002570014 0.085294813
8480000000 0.044015616 -0.066733435 0.0028141094 -0.0024908911 0.0028521868 -0.0024498834 0.037760291 0.071459837
8500000000 0.075158551 -0.064349845 -0.0032789987 -0.0028409818 -0.0032966065 -0.0028673618 0.059292689 0.045080665
8520000000 0.058792692 -0.068127155 -0.0016789904 0.0038178011 -0.001675063 0.0038389245 0.074355654 0.034483545
8540000000 0.02556888 -0.078761242 0.0034105165 0.0012225453 0.0034129778 0.0012377957 0.08237385 -0.015718563
8560000000 0.041131232 -0.046742219 0.0011419506 -0.0038087023 0.0011265234 -0.0038026054 0.048934069 -0.049561802
8580000000 0.034070585 -0.035766248 -0.0043824082 -0.0005107132 -0.0043119439 -0.00048540608 0.035562638 -0.052584998
8600000000 0.043060564 -0.052213237 0.0003947301 0.0043808529 0.00034855437 0.0043639373 0.019364225 -0.066786498
8620000000 0.029093152 -0.043375827 0.0046261162 -0.00095100491 0.0046369014 -0.0009932674 -0.016927799 -0.067880452
8640000000 -0.006303465 -0.03063882 -0.0021392258 -0.0047448017 -0.0021304346 -0.0047661401 -0.040256958 -0.039865956
8660000000 0.033907462 -0.0062978114 -0.0041629788 0.003389088 -0.0041590161 0.0033655122 -0.03451718 -0.022212859
8680000000 0.039683159 0.0025654153 0.0042251665 0.0034923546 0.0042554406 0.0035194564 -0.04174614 -0.0099535482
8700000000 0.016153289 -0.024383726 0.002430334 -0.0053021517 0.0024700484 -0.005274523 -0.047989286 0.0073386016
8720000000 0.027239179 -0.0057209861 -0.0056358986 -0.00071073242 -0.0056514922 -0.00069196994 -0.014612186 0.028402528
8740000000 -0.0045926101 0.041691586 0.00045488167 0.0051016021 0.00051765237 0.0050952076 -0.0030580342 0.012692559
8760000000 0.041364945 0.01133887 0.0048410161 -0.0010439657 0.0048264149 -0.001018978 0.010224761 0.027740719
8780000000 0.030670207 0.01962956 -0.0022412643 -0.0047373748 -0.0022512281 -0.0047251289 0.027378883 0.01021158
8800000000 -0.0054252218 0.026071616 -0.0036146089 0.003198093 -0.0035897598 0.0032212618 0.028237026 -0.0086625572
8820000000 0.010854895 0.050515093 0.0031144121 0.0026666108 0.0031392749 0.0026835895 0.023494696 -0.022348408
8840000000 0.027726844 0.0771164 0.0025200504 -0.0033460734 0.0024971338 -0.0033657975 0.014192816 -0.036923781
8860000000 0.040431153 0.034357332 -0.0039212219 -0.0017115875 -0.0038891395 -0.0017506622 -0.0025959292 -0.054739881
8880000000 0.010527607 0.061444931 -0.0010272175 0.003705665 -0.0010371712 0.0036897196 -0.017629463 -0.047800045
8900000000 0.0088611944 0.098089062 0.0037875178 0.00092560943 0.0037958189 0.0009756895 -0.049617108 -0.034614619
8920000000 0.046302166 0.082988404 0.00027833207 -0.0042695538 0.0002862823 -0.0042819125 -0.04988138 -0.015388943
8940000000 0.055228833 0.084866293 -0.0042483443 0.00045949972 -0.0042727278 0.00047433001 -0.074061915 0.0020532473
8960000000 0.022630451 0.071365975 0.0011789423 0.0042150277 0.0011746086 0.0042351093 -0.057412781 0.039235014
8980000000 0.018932737 0.097663283 0.0042762184 -0.0020154549 0.0042385482 -0.0019834803 -0.03229649 0.04568363
9000000000 0.061040133 0.12782533 -0.0031169553 -0.003762603 -0.0031000841 -0.0037579115 -0.010284368 0.056128092
9020000000 0.054836228 0.090915069 -0.0029929292 0.0035470969 -0.0029816669 0.0035111401 0.002368456 0.070085362
9040000000 0.048891198 0.10053167 0.0041790544 0.0024228601 0.0042357375 0.0023680779 0.048962578 0.047777791
9060000000 0.042399429 0.1160099 0.0012777495 -0.004759646 0.0012239463 -0.0047251284 0.042867016 0.030382136
9080000000 0.047021419 0.12339529 -0.0043057823 -0.00014220495 -0.0043129674 -0.00011738439 0.0625531 0.021061717
9100000000 0.099035837 0.12706606 0.00014448319 0.0041500675 0.00017927044 0.0041581294 0.071692742 -0.0028114987
9120000000 0.056925915 0.10994111 0.0043264739 -0.00091186445 0.004289736 -0.00088073744 0.063950755 -0.052191403
9140000000 0.054772496 0.11010817 -0.0018124274 -0.0039089555 -0.0018270717 -0.0039170585 0.040365376 -0.042355515
9160000000 0.082328275 0.15686041 -0.0032024307 0.0020295444 -0.0032213407 0.0020341671 0.04290149 -0.07340125
9180000000 0.079125673 0.12932058 0.0023330858 0.0034330403 0.0023052872 0.00338824 -0.0038381119 -0.081926845
9200000000 0.099768654 0.10868806 0.0030603828 -0.0031218191 0.0030925206 -0.0031550673 -0.028171156 -0.076297745
9220000000 0.07803762 0.1332082 -0.003676495 -0.002462677 -0.003692247 -0.0024407629 -0.055404175 -0.058442663
9240000000 0.072938278 0.14899631 -0.0020736104 0.004021402 -0.0020696516 0.0040515945 -0.067860208 -0.046495553
9260000000 0.10836305 0.14484115 0.0048189322 0.001398185 0.0048550866 0.001407744 -0.072555691 -0.017315453
9280000000 0.1103854 0.13274062 0.00024182563 -0.0052056382 0.00022785741 -0.0051790774 -0.074106939 0.012494181
9300000000 0.08907377 0.12116219 -0.0052924897 0.00093303859 -0.005248046 0.00093078584 -0.059608601 0.041247271
9320000000 0.10389332 0.16141482 0.0021761239 0.004969765 0.002184212 0.0049675242 -0.052847035 0.041847717
9340000000 0.10961174 0.14599621 0.0040770485 -0.0033518281 0.0041026589 -0.0033087996 -0.026085807 0.065641597
9360000000 0.13213468 0.13350876 -0.0037328671 -0.0031692418 -0.0037496781 -0.0031959766 0.0034749515 0.053277906
9380000000 0.12224075 0.14862928 -0.0024404787 0.0043632723 -0.0024821458 0.0043416116 0.0084479284 0.04997538
9400000000 0.094852984 0.14179206 0.0045074583 0.0011115595 0.0044852444 0.0011787156 0.034968413 0.043877408
9420000000 0.13591246 0.1552335 0.00033016002 -0.0039412221 0.00035498478 -0.0039168936 0.036892712 0.019598575
9440000000 0.1578812 0.15930045 -0.0036903878 -0.00020498337 -0.0037609767 -0.00019069649 0.035522155 0.0039708083
9460000000 0.11924455 0.12754032 0.00026143869 0.0037671062 0.00025979892 0.0038040695 0.026447136 -0.0062414911
9480000000 0.13965751 0.13778627 0.0036365483 -0.00042308765 0.0036291336 -0.0004439092 0.032439191 -0.012775639
9500000000 0.1241571 0.16509537 -0.00085606356 -0.0041093994 -0.00077007239 -0.0041464721 0.0068033193 -0.022015944
9520000000 0.16570054 0.14894751 -0.0042948127 0.0019224136 -0.0043116617 0.0019182474 -0.0029300193 -0.012481604
9540000000 0.16325246 0.13061659 0.0030598745 0.0038873395 0.0030361689 0.0038475574 0.0070760865 0.00030793046
9560000000 0.11679145 0.14147407 0.0032397839 -0.0035708137 0.0031994316 -0.0035852096 0.0052457927 -0.005189545
9580000000 0.1580255 0.14448147 -0.0045304545 -0.0026869916 -0.0044830889 -0.0027247288 -0.008386015 0.0077740625
9600000000 0.1805428 0.16739383 -0.0013452482 0.0051698647 -0.001384307 0.0051829666 0.021301854 0.0072689061
9620000000 0.15772483 0.11993486 0.005053645 -7.8124349e-006 0.0049869255 3.3005155e-005 0.020965595 -0.010764092
9640000000 0.15133458 0.11481769 -0.00060767669 -0.0046906639 -0.00062624388 -0.0047090882 0.026429038 -0.018583683
9660000000 0.14449935 0.16566521 -0.0044984198 0.0016521685 -0.0045629777 0.0016631454 0.025721854 -0.035127759
9680000000 0.17371218 0.1338128 0.0024155602 0.0039154817 0.0024253801 0.0038942792 0.016308211 -0.042834226
9700000000 0.1831328 0.10569003 0.0031552508 -0.0028298458 0.0032032626 -0.0027717897 -0.019689847 -0.067229852
9720000000 0.15245685 0.12515277 -0.0031834319 -0.0028473374 -0.0032722093 -0.002910519 -0.04430449 -0.064861439
9740000000 0.15953164 0.11090562 -0.0020232673 0.003487967 -0.0020055545 0.0035214387 -0.065034054 -0.057031944
9760000000 0.17128831 0.15835334 0.0036975206 0.0017413319 0.0036222746 0.0017696535 -0.097479112 -0.030289067
9780000000 0.18775967 0.093017861 0.0010641376 -0.0040352615 0.0010778438 -0.0040623229 -0.1127102 0.017994361
9800000000 0.16998506 0.096058279 -0.0043341811 -0.00031087123 -0.0042775823 -0.00023264706 -0.099074088 0.045670941
9820000000 0.16242726 0.12608181 0.00035793503 0.003993412 0.00043354311 0.0039615654 -0.093710311 0.097777635
9840000000 0.15904003 0.10404862 0.0040759989 -0.00088469521 0.004084962 -0.00082469976 -0.046148319 0.12576711
9860000000 0.21187115 0.10007246 -0.0017549278 -0.0041342536 -0.0017170613 -0.0041739 -0.0017219487 0.13662057
9880000000 0.17204094 0.080668114 -0.0034532852 0.002938133 -0.0033888312 0.0029546036 0.046206117 0.1221579
9900000000 0.15711863 0.076887868 0.0030387819 0.0023672555 0.0030229683 0.0023527634 0.095286079 0.10077053
9920000000 0.17492461 0.096586905 0.0021250716 -0.003001166 0.0021142731 -0.0029821806 0.12922139 0.048970178
9940000000 0.17974879 0.099263094 -0.0035279258 -0.0018512842 -0.0034672632 -0.0018766916 0.12703077 -0.011096754
9960000000 0.19905315 0.0481904 -0.00092383276 0.0038845495 -0.00090294966 0.0039153751 0.10254661 -0.042756617
9980000000 0.15526806 0.064766429 0.0035496734 0.0003573687 0.0035611708 0.00033701249 0.079337232 -0.071252801
10000000000 0.14996988 0.08122088 3.0133124e-005 -0.0037690154 -1.1549521e-005 -0.0037962149 0.047122184 -0.12159792
10020000000 0.20373614 0.064671233 -0.0037466993 0.00069462188 -0.0037958398 0.00065995683 -0.0071646054 -0.10902954
10040000000 0.17481376 0.038998872 0.0013629855 0.0033648098 0.001385956 0.0034270361 -0.03364392 -0.09269695
10060000000 0.14267828 0.026068658 0.0032131001 -0.0014849048 0.0032596595 -0.0014921088 -0.057935011 -0.090922914
10080000000 0.16270815 0.050605852 -0.0020963496 -0.0031086169 -0.0021390163 -0.0031007261 -0.11355167 -0.057388149
10100000000 0.16547205 0.064345017 -0.0029585804 0.0025806895 -0.0029253603 0.0025836844 -0.10789366 -0.015001798
10120000000 0.16805577 0.0035321568 0.003097245 0.002606682 0.0030562535 0.0025630516 -0.11389098 0.0085258596
10140000000 0.14471672 0.02218092 0.0021472059 -0.003890546 0.0021169784 -0.003929724 -0.097799391 0.056226805
10160000000 0.12986423 0.027218919 -0.0041807718 -0.001180462 -0.0041610287 -0.001211966 -0.07735052 0.082035057
10180000000 0.14011608 0.034011338 -0.00075848011 0.0044508008 -0.00074504333 0.0043980237 -0.050600749 0.093626417
10200000000 0.16937385 0.023085468 0.0050225202 -8.2285522e-005 0.0049877767 -0.00012436823 -0.017502178 0.11114161
10220000000 0.1191577 -0.010642926 -0.0018699479 -0.0048375377 -0.001803414 -0.0048428355 0.02318198 0.091064721
10240000000 0.12623429 0.0065211495 -0.0036845698 0.0025152124 -0.0036833042 0.0024318132 0.028340785 0.090248339
10260000000 0.11295742 0.027462127 0.0026780674 0.0035221784 0.0026651232 0.0035934306 0.070022911 0.058571752
10280000000 0.11054599 0.0081570512 0.0032265787 -0.003868714 0.003188665 -0.0038930089 0.064911582 0.021548517
10300000000 0.12585711 -0.011286667 -0.0043749926 -0.0016645197 -0.004433027 -0.0016539628 0.066746473 0.017899653
10320000000 0.066452913 0.0047264751 -0.00083161966 0.0037381256 -0.00076677254 0.0037970177 0.060487017 -0.021019567
10340000000 0.078657754 -0.001337029 0.0041230423 0.00072506903 0.0041052564 0.00080263556 0.028698409 -0.012650182
10360000000 0.10394083 0.014663043 -0.00048841519 -0.0041378909 -0.00042824791 -0.0041669663 0.028183246 -0.027744249
10380000000 0.067308791 -0.0060601677 -0.0034642697 0.0010298581 -0.0034908548 0.0010745761 0.016250974 -0.0425587
10400000000 0.055194709 -0.016495703 0.00096085755 0.0034290554 0.00095816061 0.0034435692 -0.0039800606 -0.037429418
10420000000 0.053290315 0.016738515 0.0034252228 -0.0018857615 0.0034591451 -0.0018885452 0.005941642 -0.031612314
10440000000 0.041937854 0.008503451 -0.0021549179 -0.0029082505 -0.0021524536 -0.0029430105 -0.01868608 -0.045878153
