!Keysight Technologies,N5242B,MY47200105,A.14.00.23
!Date: Friday, April 26, 2024 11:29:56
!Correction: S11(C  2-Port  ) 
!S21(C  2-Port  ) 
!S12(C  2-Port  ) 
!S22(C  2-Port  ) 
!S2P File: Measurement: :
# Hz S  RI   R 50
7000000000 0.062028654 0.059683453 0.0013810123 -0.010934166 0.0013891332 -0.010945042 -0.042404469 0.0031172705
7020000000 0.076987989 0.043777969 -0.012613388 0.001008363 -0.01260086 0.0010369123 -0.049728222 0.011302242
7040000000 0.087632664 0.045415249 0.0051649911 0.01170306 0.0051632482 0.011697196 -0.052881189 0.044576284
7060000000 0.075645998 0.051325321 0.0095708501 -0.0069749421 0.0095579475 -0.0069299089 -0.017731838 0.073272943
7080000000 0.10368564 0.056559894 -0.0085216248 -0.0086823665 -0.0085303094 -0.008678359 0.013826203 0.084363572
7100000000 0.10891224 0.05953978 -0.0065428596 0.011147285 -0.0065246755 0.011112973 0.056416571 0.06409207
7120000000 0.10804355 0.032407474 0.011687844 0.0031150789 0.011733073 0.0031041494 0.088029265 0.04623425
7140000000 0.11892073 0.042621672 0.0011097464 -0.011496618 0.0010929699 -0.011492007 0.098676696 -0.00078643236
7160000000 0.11553124 0.05299357 -0.011979159 0.0013350608 -0.011957848 0.001297396 0.081553899 -0.050361589
7180000000 0.14054005 0.033252042 0.0044837422 0.010689571 0.0044925977 0.010661031 0.039676145 -0.083350576
7200000000 0.1421614 0.043355815 0.0087533789 -0.005505573 0.0087877279 -0.0055025271 0.012099282 -0.079311565
7220000000 0.13030566 0.027729683 -0.0066543664 -0.0080682356 -0.006651693 -0.0080350144 -0.035115127 -0.079714879
7240000000 0.14376327 0.028556526 -0.0063493238 0.0084421067 -0.006338065 0.00846384 -0.064794481 -0.031950299
7260000000 0.16074647 0.042830437 0.00866431 0.0041975565 0.0086543625 0.0041835676 -0.062354527 -0.010799702
7280000000 0.15002885 0.015996588 0.0031458666 -0.0089077149 0.0031789958 -0.0088842148 -0.06927032 0.031970117
7300000000 0.16239575 0.01935409 -0.0097385254 -0.0014450934 -0.0097574703 -0.0014823454 -0.044977471 0.054311268
7320000000 0.15244228 0.03642166 0.00041968751 0.0092437724 0.00039064183 0.0092193978 -0.0043460163 0.067833081
7340000000 0.16279066 0.01614566 0.0091161672 -0.0012438864 0.0091123795 -0.0012188203 0.012813978 0.060344812
7360000000 0.1826621 0.026360771 -0.0031099124 -0.0097398181 -0.0030598212 -0.0097383643 0.037625086 0.060368981
7380000000 0.16509482 0.0049309032 -0.0086134207 0.0056880154 -0.00864112 0.0056882822 0.062800489 0.030059759
7400000000 0.17827825 0.011677258 0.0068765292 0.0068943487 0.0068465876 0.0068890313 0.063325457 0.0083569763
7420000000 0.19205582 0.01371068 0.0057992884 -0.0079593603 0.0058422866 -0.0079404935 0.052189767 -0.011912966
7440000000 0.18358615 2.1343149e-005 -0.0093530715 -0.0038427338 -0.0093154488 -0.0038616336 0.050911009 -0.031740576
7460000000 0.20025392 -0.0098621119 -0.0015346808 0.009093035 -0.0015748839 0.0091364319 0.027967067 -0.047217146
7480000000 0.17685792 -0.0060841534 0.0089185601 0.00037139907 0.0089115845 0.0003197456 0.022546984 -0.039890446
7500000000 0.18342796 -0.0031845584 -0.001554157 -0.0088954642 -0.0016025046 -0.0088887727 0.010700256 -0.054242346
7520000000 0.2154495 -0.012991166 -0.0074123461 0.0031555369 -0.0074358126 0.0031327801 -0.0088786157 -0.063490413
7540000000 0.18114085 -0.03130053 0.0031119804 0.0064912806 0.0030852265 0.0064446321 -0.04759074 -0.061064608
7560000000 0.19352101 -0.031943388 0.006777531 -0.0035776137 0.0068021999 -0.0035743567 -0.081839614 -0.044711247
7580000000 0.19370501 -0.017703775 -0.005000961 -0.0066006095 -0.0050145201 -0.0065852441 -0.099963918 0.0091502583
7600000000 0.19982211 -0.024506489 -0.0058355266 0.0060233171 -0.0058542783 0.0060113347 -0.084197447 0.069824621
7620000000 0.20556042 -0.049061105 0.007284699 0.0055179703 0.0072796009 0.0055178329 -0.032781336 0.11097205
7640000000 0.19472583 -0.043930918 0.0041606557 -0.0092395172 0.004158956 -0.0092314659 0.017263578 0.10585368
7660000000 0.19075927 -0.037308704 -0.010187352 -0.0017500891 -0.010179434 -0.0017516728 0.069391176 0.086693034
7680000000 0.20802724 -0.046896856 0.00023817107 0.010194012 0.00022651152 0.010160569 0.093439408 0.040526863
7700000000 0.19959284 -0.05330012 0.010459186 -0.0023437766 0.01047365 -0.0023592692 0.1024987 -0.0064730607
7720000000 0.18337704 -0.074224629 -0.0049353661 -0.009544163 -0.0049096951 -0.0095591489 0.090611339 -0.049125403
7740000000 0.20072201 -0.042771738 -0.0080347639 0.0064420458 -0.0079760551 0.0064208806 0.053941391 -0.074123651
7760000000 0.19425955 -0.057178065 0.0078230537 0.0067629972 0.007813951 0.0067633223 0.019835198 -0.084658824
7780000000 0.19715616 -0.072701141 0.0049284133 -0.009209468 0.0049257535 -0.0092287483 -0.026070688 -0.092124283
7800000000 0.19843982 -0.064403445 -0.0094817979 -0.0025159209 -0.0095163221 -0.0025241051 -0.062709861 -0.052138466
7820000000 0.17716444 -0.066941001 -0.001193544 0.0092267757 -0.0011784117 0.0092192441 -0.06250114 -0.026922701
7840000000 0.19955793 -0.05802701 0.0095704077 -0.00038504376 0.0095281731 -0.00038560046 -0.077150799 -0.00091244507
7860000000 0.19786619 -0.060427781 -0.0022830954 -0.0091468105 -0.0023003949 -0.0091274241 -0.047766447 0.046968799
7880000000 0.18573803 -0.083987273 -0.0080038998 0.00350921 -0.0079824114 0.0034953463 -0.014785511 0.05500355
7900000000 0.20318669 -0.088908426 0.0043354915 0.0078995395 0.0043327617 0.0079678632 -0.0030071749 0.049500413
7920000000 0.17455579 -0.065552115 0.0073178587 -0.0059135989 0.00729333 -0.0058933259 0.032560624 0.053590104
7940000000 0.20089415 -0.087850519 -0.007380174 -0.0060777753 -0.0073771328 -0.0060724998 0.048694193 0.010173942
7960000000 0.18781741 -0.087751493 -0.0049187336 0.0081019904 -0.004909507 0.0081507694 0.047221545 0.0016042134
7980000000 0.17420684 -0.093589507 0.0096918503 0.0036144631 0.0096869553 0.0035807057 0.047839537 -0.029696967
8000000000 0.18751657 -0.091713175 0.0012217432 -0.01022642 0.0012115202 -0.010247679 0.028154736 -0.036049318
8020000000 0.17822845 -0.071422204 -0.010192749 0.00081878796 -0.010187875 0.00077772024 0.0095804082 -0.052190341
8040000000 0.17622328 -0.10198651 0.0027083864 0.010038608 0.002721614 0.010030599 -0.014632958 -0.053021271
8060000000 0.17322269 -0.11598303 0.0092712641 -0.0053033982 0.0092556607 -0.0052767522 -0.03974162 -0.046761442
8080000000 0.15991415 -0.078325562 -0.0067706155 -0.0074931406 -0.0067362241 -0.0075084358 -0.052808262 -0.025117392
8100000000 0.17270261 -0.11318451 -0.0058209873 0.0077497764 -0.0058656358 0.0077406438 -0.073558211 -0.0043611727
8120000000 0.16671237 -0.10456009 0.0086304713 0.0042654974 0.0086356867 0.0042934511 -0.050005227 0.044196617
8140000000 0.15395744 -0.11410537 0.0021593727 -0.0087595517 0.0021150308 -0.0087546147 -0.040018998 0.062045366
8160000000 0.13744003 -0.1166416 -0.0084637217 -0.000866152 -0.008405528 -0.00086984341 -0.00037525583 0.08920949
8180000000 0.14825843 -0.093027599 0.000270358 0.0084818564 0.00031640852 0.0084627559 0.039312284 0.080214933
8200000000 0.13568105 -0.12071419 0.0081072543 -0.0017890627 0.0081497403 -0.0018261647 0.08726991 0.046660945
8220000000 0.129446 -0.11515804 -0.0026793773 -0.0073475367 -0.0027126921 -0.0073591359 0.08773087 0.0090153404
8240000000 0.11603287 -0.099627234 -0.007377503 0.003421983 -0.0073611359 0.0034532826 0.10678133 -0.0302881
8260000000 0.10661547 -0.10748786 0.0050587272 0.0069433395 0.0050192638 0.006984632 0.081781358 -0.078750193
8280000000 0.13245857 -0.11187237 0.0060943938 -0.006358509 0.0061061624 -0.0063479529 0.041897587 -0.099854328
8300000000 0.096460611 -0.10348177 -0.007511586 -0.0047867983 -0.0074926019 -0.0048180181 -0.0035731257 -0.10082553
8320000000 0.094203025 -0.11207628 -0.0032983643 0.0084023802 -0.0032909964 0.0084012663 -0.037070379 -0.10826322
8340000000 0.1118644 -0.09659376 0.0086843427 0.0016004322 0.0087045012 0.0016433008 -0.075343437 -0.076807156
8360000000 0.080364063 -0.10121399 -0.00013327834 -0.0090096891 -0.00012164276 -0.0089721149 -0.09579841 -0.042126212
8380000000 0.08765243 -0.10535647 -0.0083793011 0.0019865744 -0.0084176315 0.001974219 -0.099178039 -0.00071142841
8400000000 0.065466687 -0.09420488 0.0032345513 0.0075183315 0.0032282886 0.0075104949 -0.08667592 0.032341216
8420000000 0.06362164 -0.079848118 0.0068413541 -0.0039684884 0.0068276194 -0.0039298632 -0.069299281 0.069917478
8440000000 0.073629014 -0.090035006 -0.0052036038 -0.0060732109 -0.0051986743 -0.0061140838 -0.029426737 0.078108519
8460000000 0.062927321 -0.073808774 -0.0049471804 0.0057924893 -0.0049113682 0.0057970742 -0.0017336394 0.080860659
8480000000 0.051187415 -0.083693489 0.0059778686 0.0040915455 0.0059512621 0.0041140784 0.033419747 0.076782651
8500000000 0.059673958 -0.074035816 0.0038944387 -0.0067649265 0.0038526771 -0.0067537474 0.066343248 0.047179941
8520000000 0.045487087 -0.055381641 -0.0077295662 -0.002644185 -0.0077620856 -0.00265428 0.074165955 0.027225398
8540000000 0.039577119 -0.064982578 -0.0015047231 0.008206266 -0.0015247938 0.0081461016 0.075221971 -0.011792047
8560000000 0.051147848 -0.057840399 0.0087229898 0.0002356812 0.0087313913 0.00028010635 0.056422841 -0.042584315
8580000000 0.024274945 -0.049590394 -0.0014864753 -0.0092925616 -0.0014914613 -0.0092600286 0.037985515 -0.063439712
8600000000 0.027490787 -0.039996911 -0.008746055 0.0034625554 -0.0087823607 0.0034657544 0.010131876 -0.065165013
8620000000 0.040943656 -0.026693931 0.0050326106 0.008506462 0.0049851388 0.0084971217 -0.01061199 -0.060099002
8640000000 0.010707292 -0.037227757 0.00755654 -0.0073829521 0.0075643775 -0.0073607191 -0.033866648 -0.048976514
8660000000 0.030285638 -0.025475584 -0.0089707095 -0.0052033034 -0.0089167664 -0.0052093202 -0.044274814 -0.025006771
8680000000 0.022610074 0.0061308676 -0.0033302156 0.0090269195 -0.0033672408 0.009005039 -0.039918274 -0.001659819
8700000000 0.018612184 -0.0096812872 0.010056829 0.0017503162 0.010027974 0.0017597957 -0.041799907 0.00096555741
8720000000 0.042539638 -0.006184218 -0.00096377981 -0.0097747464 -0.00093739748 -0.0097430861 -0.021822594 0.022403361
8740000000 -0.0065860893 0.022427795 -0.0084848711 0.0024017214 -0.0084748724 0.0023471408 -0.0051210029 0.021145735
8760000000 0.023281263 0.011511412 0.0028341035 0.0081759822 0.0028551456 0.0082002915 0.017303178 0.026261743
8780000000 0.025887324 0.037246775 0.0079433806 -0.0048507364 0.0078932904 -0.0047911271 0.021431925 0.0035308052
8800000000 0.012879908 0.033086102 -0.0058775698 -0.0062743141 -0.0058777272 -0.0063086213 0.023310471 -0.0023246969
8820000000 0.016452849 0.034678154 -0.0055545554 0.0062928875 -0.0055361744 0.0062744254 0.031706203 -0.021346979
8840000000 0.01413524 0.070671797 0.0076733446 0.0050247489 0.0076664635 0.0050074826 0.0082325405 -0.042737648
8860000000 0.032495886 0.049616728 0.0030425075 -0.008803837 0.0030372499 -0.0087706316 -0.006294833 -0.046046343
8880000000 0.028188134 0.06985113 -0.00885012 -0.0014237955 -0.0088542067 -0.0014229727 -0.0081008831 -0.047195297
8900000000 0.018045284 0.08290609 -7.7511031e-005 0.0091623086 -8.3991603e-005 0.0091662295 -0.055287436 -0.042031668
8920000000 0.032446671 0.068798289 0.0090832394 -0.0020898457 0.0091164801 -0.0020438721 -0.051671959 -0.0052098935
8940000000 0.040083781 0.097917557 -0.0036334852 -0.0079451622 -0.0036450408 -0.0079608848 -0.0638678 0.00062222313
8960000000 0.03513217 0.084407218 -0.0072643715 0.0045608087 -0.0072440244 0.0045268033 -0.063375928 0.033101372
8980000000 0.032354757 0.088847928 0.0060217772 0.0064263651 0.0060102628 0.0064227609 -0.035400648 0.052645002
9000000000 0.050239444 0.11089496 0.0046013347 -0.0067835562 0.0046077683 -0.0068129818 -0.00078126753 0.056846723
9020000000 0.039670933 0.10119287 -0.006623358 -0.0037709917 -0.0066240015 -0.0037821401 0.0012355963 0.06191184
9040000000 0.056372304 0.11636735 -0.0031504391 0.0075687114 -0.0031026113 0.0075449306 0.04365347 0.051975153
9060000000 0.058747403 0.11241184 0.0080364952 0.0013021497 0.0080327988 0.0012876705 0.048846193 0.035040773
9080000000 0.041909717 0.10579947 0.00029988145 -0.007536978 0.00029795879 -0.0075345263 0.067898996 0.013291072
9100000000 0.084492996 0.13153793 -0.0079128677 0.00027865407 -0.0078986371 0.00026140787 0.0621268 -0.0061862641
9120000000 0.05945937 0.12560242 0.0019964979 0.008337033 0.0020133341 0.0083126901 0.066174552 -0.043945108
9140000000 0.073119342 0.10879302 0.007592449 -0.0036893806 0.0075662811 -0.0036420657 0.048209731 -0.048802614
9160000000 0.08143153 0.1384794 -0.0044406373 -0.0069407597 -0.004400488 -0.0069294735 0.03328101 -0.079014651
9180000000 0.064131007 0.12603305 -0.0067583229 0.0060882904 -0.0067526251 0.0061172275 -0.0048284493 -0.07442046
9200000000 0.093535677 0.12418929 0.00757745 0.005063904 0.007547325 0.005081913 -0.021702062 -0.080643564
9220000000 0.09449897 0.13764815 0.0035916553 -0.0080446079 0.0036022894 -0.0079984628 -0.062546633 -0.061818752
9240000000 0.076029211 0.13487042 -0.0088073574 -0.0023081482 -0.0088826409 -0.0023851807 -0.06924139 -0.039233871
9260000000 0.093265451 0.13811398 -8.8463785e-005 0.0094432179 -0.00014834275 0.009425696 -0.068936653 -0.01980862
9280000000 0.10164865 0.14999706 0.0085382089 -0.0018342931 0.0085217971 -0.0018182051 -0.077482417 0.01131464
9300000000 0.10452386 0.12989984 -0.0027571197 -0.007925963 -0.0027413252 -0.0079757338 -0.059936807 0.045785539
9320000000 0.1155472 0.15066175 -0.0075632688 0.004219282 -0.0075986767 0.00424997 -0.049678758 0.041040223
9340000000 0.098111115 0.13297635 0.0056963982 0.0060366746 0.005696509 0.006034039 -0.028746335 0.064313956
9360000000 0.12201349 0.14540718 0.0047735902 -0.0056086052 0.0047451733 -0.0056313793 0.002195837 0.05825058
9380000000 0.13237758 0.15811543 -0.0062912949 -0.0045052343 -0.0062559824 -0.004552369 0.013393692 0.049584541
9400000000 0.11010656 0.13377307 -0.0031889635 0.007272847 -0.0032057695 0.0072998577 0.034880139 0.040284615
9420000000 0.12493274 0.13994728 0.0069311461 0.0017775482 0.0069890181 0.0017801872 0.034285132 0.023000039
9440000000 0.14482296 0.16427015 0.0018417719 -0.0070905355 0.0018453895 -0.0071252543 0.041780896 0.0064936024
9460000000 0.12024387 0.14098878 -0.00871218 -0.00056210696 -0.0086647961 -0.00059096084 0.027451804 -0.014848073
9480000000 0.1538042 0.13648966 0.0017173575 0.0084675876 0.0017223663 0.008434305 0.025457291 -0.010915262
9500000000 0.11971077 0.15286295 0.0077321143 -0.0028543137 0.0078018229 -0.0028978637 0.011177265 -0.0157346
9520000000 0.15386698 0.14987831 -0.0040971809 -0.0079456344 -0.0041012769 -0.0079604229 0.0030179543 -0.020239083
9540000000 0.16197972 0.14720103 -0.0066750348 0.0064901439 -0.0066508679 0.0065085534 -0.0026433715 -0.0014939461
9560000000 0.1353717 0.1440303 0.0069047776 0.0049273311 0.0068278108 0.0048822123 0.0071812654 0.0030529737
9580000000 0.1622183 0.1308987 0.0040002489 -0.0073849759 0.0040094126 -0.0073560043 -0.0011282059 0.0015739537
9600000000 0.16815044 0.15778463 -0.0086328443 -0.0028092114 -0.0086339219 -0.0028285065 0.014122597 0.0028012425
9620000000 0.15042153 0.13452585 -0.00052322296 0.0084345974 -0.00048510989 0.0083929999 0.019290429 -0.0031724223
9640000000 0.16544789 0.11827438 0.0080559831 -0.00012073864 0.00807276 -7.2118048e-005 0.033100154 -0.02060225
9660000000 0.15094428 0.15277536 -0.0013375764 -0.0085466113 -0.001342113 -0.0086289411 0.020344645 -0.040827423
9680000000 0.15697159 0.12168487 -0.0083181309 0.0036790892 -0.008327934 0.0036795468 0.014295272 -0.037088346
9700000000 0.17215164 0.12199901 0.0045184246 0.0065405648 0.0044598426 0.0065355725 -0.015389741 -0.065289326
9720000000 0.16278335 0.13551706 0.0067334757 -0.0053041512 0.0067559383 -0.0053228419 -0.047032345 -0.068759218
9740000000 0.17333762 0.10555236 -0.0072414619 -0.0055604558 -0.0071857003 -0.0055110492 -0.066397376 -0.0521353
9760000000 0.16134526 0.14601424 -0.0033614074 0.008018421 -0.0034040476 0.0080227405 -0.093185194 -0.030306112
9780000000 0.17982548 0.10267875 0.007532245 0.0022971877 0.0075881453 0.0023449955 -0.11378219 0.013743242
9800000000 0.17678542 0.10676467 0.0010112802 -0.008658574 0.0010080732 -0.0086931232 -0.099452235 0.051789034
9820000000 0.17895019 0.11963573 -0.0083817523 0.0010921598 -0.0083344728 0.0011286726 -0.086531319 0.097229548
9840000000 0.15326732 0.089403689 0.0025792646 0.007284143 0.0025643238 0.0073140175 -0.048959311 0.1195709
9860000000 0.19883531 0.099590369 0.0067644161 -0.0030010694 0.0067448937 -0.0029904495 -0.0065005305 0.14122495
9880000000 0.16980709 0.093948364 -0.004624797 -0.0058840839 -0.0045939097 -0.0058512655 0.055094481 0.12178774
9900000000 0.17183678 0.077134416 -0.0044255871 0.0046457606 -0.0044612265 0.0045568864 0.091392919 0.092282906
9920000000 0.17446817 0.083595283 0.0043647112 0.0040522865 0.0044629942 0.0040226853 0.12279925 0.052165613
9940000000 0.16573612 0.09512835 0.0044153486 -0.0052841986 0.0043784366 -0.005304704 0.13167678 -0.0073988596
9960000000 0.19321181 0.065574363 -0.0063426904 -0.0028336255 -0.0063519152 -0.0027972474 0.10283549 -0.048334233
9980000000 0.17020646 0.069712706 -0.0022701402 0.0062692827 -0.0022746115 0.0062964591 0.073504291 -0.070824176
10000000000 0.15700921 0.071532622 0.0068575498 0.001737283 0.0068507651 0.0017177765 0.047568668 -0.11586903
10020000000 0.19085136 0.055304207 0.00033452697 -0.0080130156 0.00040427496 -0.0079987915 -0.0028676342 -0.10970822
10040000000 0.1684563 0.05562295 -0.007336454 0.0016435981 -0.0072736251 0.0016062385 -0.035952281 -0.097499199
10060000000 0.15669005 0.031821385 0.0021540546 0.0071989577 0.0022169899 0.0071733547 -0.062623359 -0.085594319
10080000000 0.17592204 0.039571892 0.0070789522 -0.0036172287 0.007014866 -0.0036115116 -0.10642771 -0.053849649
10100000000 0.15362948 0.048697349 -0.0053100004 -0.006078728 -0.0052822363 -0.0061066393 -0.10766834 -0.019892696
10120000000 0.15544462 0.012287199 -0.0049153417 0.0052976678 -0.0049994849 0.0052476022 -0.11922704 0.010827897
10140000000 0.14847715 0.031479247 0.0068310429 0.0049379375 0.0068061613 0.0048784297 -0.091618896 0.06100348
10160000000 0.14170258 0.022515906 0.0029906698 -0.0079536717 0.0029395563 -0.0079290336 -0.075353324 0.076173194
10180000000 0.13105419 0.024082353 -0.007949465 -0.0012322454 -0.007921447 -0.0012988144 -0.054127902 0.094992258
10200000000 0.15654238 0.029653681 -0.00076005049 0.0078925146 -0.00072465447 0.0078469291 -0.012579346 0.11415172
10220000000 0.12136324 0.004726361 0.0088367844 -0.0013948979 0.0088249035 -0.001364644 0.02226319 0.087671593
10240000000 0.14346568 0.0065738084 -0.0032076165 -0.007617502 -0.0031925496 -0.0076030339 0.027431132 0.091743581
10260000000 0.11417533 0.014366094 -0.0067208279 0.0040252083 -0.0067526591 0.0040639159 0.073068105 0.057112239
10280000000 0.1001192 0.0040785228 0.0050233081 0.0066023688 0.0049949936 0.0066393991 0.065768406 0.017867843
10300000000 0.1217129 0.0015521921 0.0047342372 -0.0069491011 0.0046439017 -0.0069885394 0.06317696 0.0195283
10320000000 0.082382165 0.0053318935 -0.0063573592 -0.0032117094 -0.0063382434 -0.0031572683 0.063759811 -0.019150712
10340000000 0.082474783 -0.013386017 -0.0027667596 0.006633434 -0.0027168386 0.0066323476 0.029680928 -0.018960111
10360000000 0.089632854 0.0028461039 0.0076444726 0.0017384186 0.0076060044 0.001694397 0.021662001 -0.02831218
10380000000 0.05622622 0.00755917 -0.0002372006 -0.0068968274 -0.00024002668 -0.0069447788 0.017821874 -0.036727257
10400000000 0.06391906 -0.0096671898 -0.0070039351 0.00016235239 -0.0069634393 0.00019464866 0.00017640421 -0.043085668
10420000000 0.061067961 0.01060173 0.0015695315 0.007352123 0.0015896268 0.0073435395 -0.0032308223 -0.032908022
10440000000 0.029515918 -0.00079115859 0.0069027445 -0.0032893142 0.0069309752 -0.0033214549 -0.018814854 -0.038995728
10460000000 0.062428825 0.0055974112 -0.00373655 -0.0057137934 -0.0037088986 -0.0057214391 -0.04536384 -0.031568926
10480000000 0.029084481 0.017709864 -0.0060939076 0.0046874159 -0.0060973228 0.0046763606 -0.060976204 -0.02233484
