!Keysight Technologies,N5242B,MY47200105,A.14.00.23
!Date: Friday, April 26, 2024 11:21:41
!Correction: S11(C  2-Port  ) 
!S21(C  2-Port  ) 
!S12(C  2-Port  ) 
!S22(C  2-Port  ) 
!S2P File: Measurement: :
# Hz S  RI   R 50
7000000000 0.073564485 0.050641295 -0.0047450741 -0.0050547272 -0.0047406307 -0.0050913421 -0.041630648 -0.0064492906
7020000000 0.065836646 0.026934486 -0.0035486745 0.0054997727 -0.0035470636 0.0055204518 -0.057632316 0.015387419
7040000000 0.073012449 0.058173403 0.0061081261 0.0025976521 0.0060960758 0.0026120099 -0.045226853 0.049768873
7060000000 0.082664527 0.064515717 0.00094340061 -0.0070592901 0.00095872843 -0.0070414138 -0.016888326 0.06447614
7080000000 0.12116262 0.05159115 -0.0064221658 0.0009959708 -0.0064254785 0.0010049563 0.0053212275 0.086158156
7100000000 0.10130556 0.041372791 0.0015581368 0.0058120606 0.0015766013 0.0057953279 0.063008755 0.069479987
7120000000 0.092275403 0.038980439 0.0060754255 -0.0025955536 0.0061130067 -0.0026035963 0.088981532 0.038101245
7140000000 0.12064375 0.057966892 -0.0045969305 -0.0051465183 -0.0045227227 -0.0051508546 0.091563053 0.0022913732
7160000000 0.13518056 0.051555894 -0.0037055193 0.0048950864 -0.0036949671 0.0049028178 0.086652875 -0.045549948
7180000000 0.13805382 0.015846225 0.0055539026 0.0031226987 0.0055404906 0.0031164896 0.04082932 -0.089812949
7200000000 0.12773754 0.040846244 0.001709812 -0.0064844354 0.0017058228 -0.0065444303 0.0046816496 -0.077279612
7220000000 0.12540138 0.043338146 -0.0061528175 0.0003026113 -0.0061865398 0.0002856986 -0.029317651 -0.07483466
7240000000 0.16053744 0.030430099 0.00068216573 0.0055592568 0.0007071899 0.0055839308 -0.06236076 -0.038445242
7260000000 0.16246681 0.02872074 0.0060573607 -0.0018608366 0.0060472353 -0.0018577963 -0.07052245 -0.0096454406
7280000000 0.13611411 0.0083152633 -0.0037220118 -0.0050185123 -0.0037057651 -0.0050285519 -0.064435191 0.038848877
7300000000 0.15194462 0.035966661 -0.0034688406 0.003890764 -0.0034801501 0.0038877276 -0.040109687 0.046809532
7320000000 0.16631939 0.04557519 0.0039161188 0.0031356807 0.003947977 0.0031968975 -0.013573241 0.067240298
7340000000 0.17322777 0.0063167233 0.0025026377 -0.004668009 0.0024571291 -0.0046781246 0.01628032 0.069321148
7360000000 0.1734075 0.01200123 -0.0047710151 -0.0015337096 -0.0047757993 -0.0015210463 0.04381315 0.052710477
7380000000 0.1526276 0.016390637 -0.0011443692 0.0049003386 -0.0011399474 0.0048854919 0.053534117 0.028081002
7400000000 0.18617396 0.022624852 0.0056731994 0.00010488731 0.0056793387 0.00012791934 0.065292604 0.016295493
7420000000 0.2071989 0.0068844226 -0.0013349574 -0.0052236216 -0.0013591944 -0.0052442374 0.058531884 -0.01636727
7440000000 0.17616516 -0.017474042 -0.0047685178 0.0019302677 -0.0047891834 0.0018936422 0.045105536 -0.034674041
7460000000 0.18461944 -0.0039723087 0.0027858352 0.0047883079 0.0028242837 0.0047687702 0.027174782 -0.040850066
7480000000 0.17833954 0.0092129586 0.0038890634 -0.0041277437 0.0038825101 -0.0041789911 0.027544269 -0.042236909
7500000000 0.20025933 -0.0065308595 -0.0044137128 -0.002645063 -0.0044626002 -0.0026418478 0.0074317707 -0.05723029
7520000000 0.21075223 -0.029180454 -0.0018692286 0.0047038007 -0.0018940694 0.0047230511 -0.010332167 -0.058973193
7540000000 0.16526033 -0.029067937 0.0049088239 0.00082812714 0.00492005 0.00083197665 -0.043506198 -0.060597923
7560000000 0.19079453 -0.013976239 -8.5159309e-006 -0.0044019008 -1.0806661e-005 -0.0043496294 -0.083155863 -0.048036013
7580000000 0.21312074 -0.016887276 -0.0042707222 -2.3235301e-005 -0.0042440835 -6.3935468e-006 -0.1030193 0.011847699
7600000000 0.20195723 -0.038491774 0.00049098104 0.0048551545 0.00050112838 0.0047955797 -0.079832196 0.071425758
7620000000 0.1931444 -0.055415049 0.0049353382 -0.0017267792 0.0049072001 -0.0017223123 -0.032732476 0.10571008
7640000000 0.18797961 -0.029563865 -0.0025920207 -0.0043981997 -0.0026384837 -0.0044097891 0.012526964 0.10976588
7660000000 0.20551236 -0.033711269 -0.0042097261 0.0032853272 -0.0042014807 0.0033015343 0.075581133 0.090474516
7680000000 0.21304199 -0.0590619 0.0045285141 0.0036108731 0.0045484658 0.0036101353 0.09359327 0.031787168
7700000000 0.18702228 -0.064851321 0.0024207544 -0.0051286523 0.0024167316 -0.0051103872 0.095759377 -0.0015549571
7720000000 0.17079227 -0.061984103 -0.0053142216 -0.0016266555 -0.0053419122 -0.0016348436 0.098486103 -0.044383753
7740000000 0.20834641 -0.031633861 -0.00067549059 0.0060468465 -0.00067604578 0.0060199224 0.055063944 -0.083850011
7760000000 0.20682055 -0.062633254 0.0060693803 -0.00098976772 0.0061000679 -0.00095821364 0.010859574 -0.08215367
7780000000 0.19026439 -0.086571001 -0.0020395231 -0.0055800648 -0.0020434516 -0.0055856602 -0.018543545 -0.084636398
7800000000 0.18666896 -0.056994107 -0.0053701638 0.0030452637 -0.0053218631 0.0030837215 -0.059261184 -0.062410977
7820000000 0.18113896 -0.053618576 0.0044933427 0.0045634746 0.0045298929 0.0045592664 -0.071849652 -0.025480378
7840000000 0.21711913 -0.061752915 0.0030271555 -0.0051191989 0.0030565762 -0.0051424648 -0.072667137 0.0065153106
7860000000 0.19391404 -0.077846982 -0.0052564167 -0.0021724082 -0.0052593714 -0.0021702701 -0.043688282 0.039420079
7880000000 0.17146562 -0.083330087 -0.0010405462 0.0058304877 -0.0010377403 0.0058097751 -0.022853689 0.05395896
7900000000 0.20061705 -0.074303642 0.0056142625 -0.00039705989 0.00558331 -0.00037668037 0.00033468386 0.055550881
7920000000 0.19070029 -0.065718256 -0.0010390342 -0.0047936719 -0.0010129813 -0.0048067858 0.035195999 0.049401242
7940000000 0.20014347 -0.10292577 -0.004983284 0.0013618123 -0.0049236775 0.0013885277 0.042385872 0.0093447687
7960000000 0.17400324 -0.090868004 0.0026253588 0.0046816589 0.0026358869 0.004666056 0.047133457 0.006392858
7980000000 0.16699405 -0.07842958 0.0038150169 -0.0032426207 0.0038266205 -0.0032126904 0.050773427 -0.031883888
8000000000 0.20246109 -0.085911863 -0.0034635379 -0.0036340803 -0.0034773517 -0.0036450154 0.024750123 -0.037239641
8020000000 0.18432903 -0.08211793 -0.0034047782 0.0044429856 -0.0033915907 0.0044843233 0.0094432048 -0.04600215
8040000000 0.16502212 -0.11116653 0.0054221763 0.0021845833 0.0053880299 0.0022021241 -0.0083465781 -0.054513745
8060000000 0.16482681 -0.10286999 0.0012642639 -0.0054323571 0.0012642686 -0.0054959008 -0.045287777 -0.050049886
8080000000 0.17222998 -0.069521271 -0.0061638546 -0.00035552884 -0.006175051 -0.00042688064 -0.052808203 -0.018147429
8100000000 0.1845441 -0.12271132 0.0015120602 0.0062932177 0.0014990019 0.0062790466 -0.064874612 -0.0064160572
8120000000 0.15771911 -0.12117433 0.0054559871 -0.0027905274 0.0054701739 -0.002752318 -0.054984841 0.037701044
8140000000 0.14095484 -0.10638443 -0.0037470832 -0.0048997956 -0.0037158399 -0.0049365191 -0.04315507 0.069458567
8160000000 0.14159499 -0.10542907 -0.0038080818 0.0050322087 -0.0038155406 0.0050792447 0.0087411925 0.087949418
8180000000 0.16041332 -0.096135236 0.0053871414 0.0022113638 0.0053996202 0.0021922472 0.035994228 0.072309315
8200000000 0.1280942 -0.13556364 0.0009502024 -0.0051696706 0.00095493736 -0.0051903259 0.081435315 0.053374279
8220000000 0.11748479 -0.10790267 -0.0050554285 -7.3874362e-005 -0.0050978586 -7.9825986e-005 0.096262887 0.011660696
8240000000 0.11708306 -0.084050901 0.0009161405 0.0044049821 0.00099688047 0.0043739071 0.10601731 -0.038668018
8260000000 0.12358025 -0.1083235 0.0037386748 -0.00097675447 0.0036908623 -0.00097737566 0.074040048 -0.075888433
8280000000 0.13307011 -0.12701389 -0.0010716517 -0.0038676192 -0.0011115108 -0.0038444411 0.048304807 -0.094969183
8300000000 0.084703885 -0.10611742 -0.0039058432 0.0017230581 -0.0038790044 0.0017289863 -0.0018147244 -0.10862642
8320000000 0.0906232 -0.099244811 0.002232007 0.0037117519 0.0021868418 0.0037035884 -0.044940222 -0.10505661
8340000000 0.1251557 -0.095243469 0.0038092907 -0.0029109067 0.003789142 -0.0028968488 -0.071363844 -0.073197782
8360000000 0.083682679 -0.11420339 -0.0040753419 -0.0032470017 -0.0040143854 -0.0032744913 -0.094387025 -0.048099447
8380000000 0.074321568 -0.11264206 -0.0023691624 0.0046430817 -0.0023896138 0.0046617729 -0.10395043 0.0008898509
8400000000 0.057010621 -0.080682263 0.0052572126 0.0014615121 0.0052596279 0.0014699945 -0.082860038 0.035559505
8420000000 0.074164569 -0.072242238 0.00022228916 -0.0056463261 0.00020286077 -0.0056514298 -0.069317214 0.066489868
8440000000 0.082407624 -0.099739231 -0.0054672183 0.0012921041 -0.005427802 0.0013066333 -0.033188526 0.079038806
8460000000 0.05211366 -0.083239712 0.0022868817 0.0047329748 0.002261244 0.0047743241 -0.00034860169 0.084474608
8480000000 0.041523345 -0.073889002 0.0039593419 -0.0029809731 0.0039349506 -0.002966858 0.036189277 0.073129281
8500000000 0.068446942 -0.063409574 -0.003445148 -0.0031650967 -0.0034408309 -0.0031701797 0.061116841 0.04696957
8520000000 0.059131797 -0.061131787 -0.0023693275 0.0035367901 -0.002383698 0.0035332416 0.074960016 0.033340186
8540000000 0.033075064 -0.079336196 0.0035698279 0.0020552794 0.0036313247 0.0020832426 0.081553586 -0.014507289
8560000000 0.040546656 -0.054148588 0.001574976 -0.003881637 0.0015455153 -0.0038766698 0.050658148 -0.048082463
8580000000 0.027714262 -0.037360974 -0.003988829 -0.0012595655 -0.003954879 -0.0012781078 0.037367921 -0.053882502
8600000000 0.040881529 -0.044939645 -0.001023251 0.0044419961 -0.00096337782 0.0044113914 0.018509073 -0.067232527
8620000000 0.036344375 -0.041864693 0.0052049072 0.00019965654 0.005199132 0.00022169898 -0.015778832 -0.066804715
8640000000 -0.0039633312 -0.037701841 -0.0010373669 -0.0053499234 -0.0010025026 -0.0053323489 -0.038243417 -0.041524429
8660000000 0.027936818 -0.009934484 -0.0053320127 0.0021593878 -0.0053111794 0.002179577 -0.035650004 -0.02439779
8680000000 0.035142351 0.0090917563 0.0036102708 0.0050682933 0.0035506482 0.0050521195 -0.042452201 -0.0087040374
8700000000 0.022652265 -0.021142673 0.0039357375 -0.0050035967 0.0039702947 -0.0050286865 -0.04594586 0.0057623526
8720000000 0.031773511 -0.011428847 -0.0056149904 -0.0024522368 -0.0056066546 -0.0024595943 -0.016921097 0.025352484
8740000000 -0.010233355 0.036107082 -0.0012395626 0.0058196369 -0.0012166559 0.0058295727 -0.0045501818 0.014423217
8760000000 0.036123339 0.016212927 0.0059206625 -0.00010126522 0.0059085158 -0.00011472835 0.011842655 0.027253898
8780000000 0.0347808 0.024527166 -0.0014701487 -0.0055060042 -0.0014204248 -0.0054683662 0.024845747 0.0082943663
8800000000 0.0013453402 0.022093002 -0.0047475095 0.0023211907 -0.0047651101 0.0023367016 0.026235111 -0.006847559
8820000000 0.0065239514 0.043824401 0.003049745 0.0039864946 0.0030426823 0.0039501302 0.02456685 -0.021689385
8840000000 0.021893714 0.079505742 0.0030909895 -0.0034281879 0.0031292627 -0.003382355 0.01267722 -0.037364483
8860000000 0.042110711 0.040835105 -0.0034484277 -0.0024711988 -0.0034832249 -0.0024597622 -0.0039194785 -0.052819513
8880000000 0.018283896 0.05966679 -0.0022193817 0.0036540309 -0.0022071493 0.0036586809 -0.016221005 -0.045703806
8900000000 0.0067167422 0.090369418 0.0041360641 0.0016099322 0.0041277125 0.0016094202 -0.049553812 -0.035333589
8920000000 0.039872188 0.082906455 0.00096020557 -0.0041115363 0.00098408875 -0.0041366429 -0.050532483 -0.013350822
8940000000 0.054408036 0.091971897 -0.0044752727 -0.00071668514 -0.0044545881 -0.00073189428 -0.07141649 0.0034244326
8960000000 0.030561464 0.071502134 0.00034032553 0.0050332178 0.00032138629 0.00503304 -0.056667365 0.037945423
8980000000 0.019683532 0.090308562 0.0048229243 -0.0016184431 0.0048162807 -0.0015923684 -0.032875672 0.046706673
9000000000 0.054044314 0.12531009 -0.0023904594 -0.0043710195 -0.0023621363 -0.0043799235 -0.0076253652 0.05640189
9020000000 0.052588493 0.097695045 -0.0040618172 0.0032787721 -0.0040259808 0.0032684116 0.0030582938 0.067339256
9040000000 0.055570327 0.10331251 0.0043963417 0.0030784137 0.0043534902 0.0030486993 0.048483152 0.047890007
9060000000 0.045877654 0.10891062 0.0017331855 -0.0046201469 0.0017442225 -0.004620004 0.043835912 0.030440977
9080000000 0.040798899 0.11883786 -0.0044249902 -0.0007944188 -0.0044191638 -0.00079131272 0.063704573 0.019259011
9100000000 0.094512522 0.13299441 -5.0192528e-005 0.0043747127 -1.7139369e-005 0.0043485868 0.069414012 -0.004885131
9120000000 0.061790392 0.11381698 0.0040442953 -0.00077150599 0.0040393402 -0.00073025411 0.063425869 -0.051173922
9140000000 0.061099976 0.1046919 -0.0011690855 -0.0036408296 -0.0011584407 -0.003632288 0.041234106 -0.043501452
9160000000 0.076742262 0.15057719 -0.0032936111 0.0015898832 -0.0032639669 0.0015774826 0.041156545 -0.075086564
9180000000 0.073265135 0.13365664 0.0019347881 0.0029529519 0.0019296934 0.0029432534 -0.0060799811 -0.080623329
9200000000 0.10330565 0.11432371 0.0026767368 -0.0019916752 0.0026861168 -0.0019475874 -0.027441148 -0.07549721
9220000000 0.085353106 0.12984967 -0.0023959491 -0.002775724 -0.0024157336 -0.0027772184 -0.056794696 -0.059715573
9240000000 0.069449149 0.14160012 -0.0024832999 0.00309116 -0.0024822494 0.0030461561 -0.069396324 -0.044739421
9260000000 0.10161822 0.14692979 0.0035590886 0.0019877458 0.0035257444 0.0019681298 -0.072038218 -0.015853271
9280000000 0.11201625 0.13908249 0.0016292689 -0.0040483661 0.0016199199 -0.0040174066 -0.073738888 0.012448394
9300000000 0.096552216 0.11966896 -0.0048807235 -0.00063434173 -0.004873442 -0.00065485312 -0.060787961 0.04255715
9320000000 0.10306995 0.15382403 0.00081330439 0.0047783279 0.00083506218 0.0047546974 -0.051508576 0.043300807
9340000000 0.1024252 0.144932 0.0043066745 -0.0017237533 0.0043262765 -0.0016971552 -0.025068674 0.06518174
9360000000 0.13150631 0.14042465 -0.0024516054 -0.0039582471 -0.0023949996 -0.0039955028 0.003217832 0.05417338
9380000000 0.12894413 0.1494655 -0.0031954418 0.0034976488 -0.003236338 0.0035276422 0.009885977 0.050568815
9400000000 0.09704046 0.1350559 0.0036959886 0.0017680289 0.0036698992 0.0017606036 0.036318813 0.04280119
9420000000 0.1289852 0.15173168 0.0011843705 -0.0032635175 0.0011967868 -0.0032441379 0.036640037 0.018771732
9440000000 0.15484439 0.16607353 -0.0033746744 -0.00087726285 -0.0033610386 -0.00090412644 0.036655359 0.0048935618
9460000000 0.12495456 0.13020803 -0.00029752729 0.0032053976 -0.00027925716 0.0031992407 0.027843099 -0.0083661061
9480000000 0.14437883 0.13217822 0.0029023138 0.00037360413 0.0029039904 0.00032917288 0.031407975 -0.013785359
9500000000 0.11850674 0.15914483 0.00026755067 -0.0035890373 0.00027013486 -0.0035285035 0.0064580338 -0.021526439
9520000000 0.16094495 0.15445735 -0.0038769883 0.00069593324 -0.0038128321 0.0007014132 -0.00134751 -0.013824824
9540000000 0.16752559 0.13510004 0.0014014111 0.0036396647 0.0014394858 0.0035952269 0.0049376688 -0.0016915981
9560000000 0.12331575 0.13715704 0.0035214133 -0.0019015076 0.003531744 -0.0018899678 0.0040007643 -0.0038910904
9580000000 0.15438573 0.13727714 -0.0030729505 -0.0034226428 -0.0030677568 -0.0033988066 -0.0072325864 0.0071999552
9600000000 0.1734965 0.17078753 -0.0023576021 0.003824414 -0.002279043 0.0038220917 0.019740134 0.0058333054
9620000000 0.15999843 0.12607785 0.0039194566 0.0014106584 0.0039005606 0.0014228844 0.018449306 -0.0099729104
9640000000 0.15870143 0.11232528 0.00097733131 -0.0042314725 0.0009585488 -0.0041946643 0.027717184 -0.016625417
9660000000 0.14281841 0.15834339 -0.0044443742 0.00046094097 -0.0044540972 0.00041700463 0.024972854 -0.036893047
9680000000 0.16616775 0.13408957 0.0012412792 0.0037321681 0.001194998 0.0037536798 0.014263995 -0.040889617
9700000000 0.183567 0.11320243 0.0034119645 -0.0015832569 0.0033887618 -0.001498881 -0.018811367 -0.064258508
9720000000 0.1600875 0.1245079 -0.0023033738 -0.0031445941 -0.0023448456 -0.0031587717 -0.043488983 -0.066223249
9740000000 0.16068885 0.10409908 -0.0020233993 0.0026993193 -0.0020985904 0.002709415 -0.066227093 -0.055336777
9760000000 0.16339847 0.15541986 0.0024435194 0.0018336509 0.0024948302 0.0017689763 -0.095517695 -0.028355986
9780000000 0.18629712 0.10063664 0.0015809323 -0.0028635522 0.0016042049 -0.0028979371 -0.11119438 0.016655846
9800000000 0.17644049 0.097544208 -0.0031792694 -0.00082803023 -0.0032199426 -0.00084944622 -0.098841697 0.046538267
9820000000 0.16599661 0.11950585 -0.00029931782 0.0027199837 -0.00031418286 0.0027840803 -0.091740169 0.097904965
9840000000 0.15199757 0.099108845 0.0029445332 0.00040718776 0.0029410333 0.00041742422 -0.044571515 0.12449004
9860000000 0.20802347 0.10671155 -0.00029767366 -0.0034459135 -0.00028988079 -0.0034586273 -0.0024837283 0.13577795
9880000000 0.17712863 0.084440053 -0.002945493 0.00148635 -0.0029315543 0.0014713486 0.047444414 0.12158944
9900000000 0.1626329 0.071164645 0.0013391167 0.0021504986 0.0013301003 0.0021436452 0.095495269 0.099190384
9920000000 0.16987126 0.090930469 0.0024813523 -0.0015126819 0.0024701459 -0.0014587144 0.1277173 0.046783648
9940000000 0.17402597 0.10366067 -0.0021184499 -0.0021660726 -0.0021806683 -0.0022202607 0.12647614 -0.01057491
9960000000 0.20271398 0.05391084 -0.0015904084 0.0024541758 -0.0015480308 0.0024658004 0.10266037 -0.04387648
9980000000 0.16217953 0.060827166 0.0024393839 0.0012941713 0.002379077 0.0012732198 0.077419102 -0.072074212
10000000000 0.14736521 0.074822485 0.00085519854 -0.0028951683 0.0008338163 -0.0029070794 0.045437481 -0.12042692
10020000000 0.19679095 0.066096961 -0.0027010662 -0.00017843382 -0.0027211325 -0.00022323083 -0.0071201078 -0.10824172
10040000000 0.1761964 0.046113912 0.00010663728 0.0025605364 5.8387672e-005 0.0026527345 -0.033793654 -0.093530573
10060000000 0.14974886 0.023775306 0.0027220408 -0.00041199275 0.0026687935 -0.00039859509 -0.060086738 -0.089173235
10080000000 0.16279587 0.044013321 -0.0010026213 -0.0022817336 -0.00098921789 -0.0022626391 -0.11253105 -0.055569164
10100000000 0.15775926 0.063088238 -0.0021112515 0.00080174697 -0.0021319457 0.0007790894 -0.10718803 -0.01505354
10120000000 0.16720583 0.010759494 0.0010266061 0.0023784779 0.0011299271 0.0023719934 -0.11523188 0.0082774153
10140000000 0.15173364 0.022898423 0.002247392 -0.0019079754 0.002283891 -0.0018804206 -0.0965745 0.059606176
10160000000 0.13237095 0.020670827 -0.001914709 -0.0016962653 -0.0018948162 -0.0017066632 -0.074805297 0.081211522
10180000000 0.13319618 0.03074751 -0.0021045681 0.0021637084 -0.0021129863 0.002103758 -0.051548194 0.09316539
10200000000 0.16631438 0.029631903 0.003315395 0.0016709685 0.003373377 0.0017195513 -0.016769733 0.11311463
10220000000 0.12568758 -0.0073272651 0.0003472793 -0.0037180383 0.00037150466 -0.0035915901 0.025653429 0.090257004
10240000000 0.13073741 -0.00010257945 -0.0031248827 0.00018974411 -0.0031117084 0.00013491217 0.028033104 0.088087186
10260000000 0.10750516 0.02243929 0.00050096895 0.0035519667 0.00047453976 0.0036475807 0.069871902 0.059712514
10280000000 0.10551564 0.012786764 0.0034519408 -0.0018839801 0.0035375233 -0.0018520359 0.067130812 0.019716151
10300000000 0.13052614 -0.0055140015 -0.002650952 -0.0023056283 -0.002648337 -0.0023829236 0.065461665 0.016477413
10320000000 0.072471365 -0.00069763954 -0.0016530975 0.0025461176 -0.0016530107 0.0025096345 0.059605382 -0.020658752
10340000000 0.075252376 -0.0072109574 0.0029047986 0.0011630669 0.0028906132 0.001184352 0.029614951 -0.013503023
10360000000 0.097502418 0.017338917 0.00028861986 -0.0025655632 0.00026398888 -0.0025591853 0.026855169 -0.029372303
10380000000 0.06946113 0.0011104903 -0.0021279783 -0.00019875118 -0.0021282544 -0.00010256743 0.014614432 -0.041881416
10400000000 0.06270723 -0.019833814 -0.00015886319 0.0022017139 -0.0001678555 0.0022079947 -0.003340133 -0.037370272
10420000000 0.052601684 0.010148108 0.0020450954 -0.00039506482 0.002090805 -0.00042413143 0.0042683692 -0.032783933
10440000000 0.034623168 0.0086573297 -0.00011748149 -0.00171853 -0.00013017589 -0.0017415796 -0.019983429 -0.044871207
10460000000 0.070704006 -0.001864883 -0.0022753838 0.00014427376 -0.0022193934 0.00022281887 -0.051989842 -0.028565999
