!Keysight Technologies,N5242B,MY47200105,A.14.00.23
!Date: Friday, April 26, 2024 11:22:39
!Correction: S11(C  2-Port  ) 
!S21(C  2-Port  ) 
!S12(C  2-Port  ) 
!S22(C  2-Port  ) 
!S2P File: Measurement: :
# Hz S  RI   R 50
7000000000 0.064025074 0.045247968 -0.0032096761 -0.006317554 -0.0031704234 -0.0063081551 -0.042263072 -0.0046661403
7020000000 0.062361892 0.039239544 -0.0047132708 0.004239128 -0.0047166715 0.0042506489 -0.056686677 0.015068507
7040000000 0.082985714 0.06215658 0.004772427 0.0039892788 0.0047305268 0.0040108394 -0.046364076 0.049787574
7060000000 0.090716697 0.054838363 0.0029780807 -0.0057253921 0.0030056592 -0.0057143085 -0.016563458 0.066335775
7080000000 0.11054979 0.043208826 -0.0056807967 -0.001445977 -0.0057163402 -0.0014410552 0.0062419539 0.086371116
7100000000 0.094508991 0.050457563 -0.0011172517 0.0054498515 -0.0010917789 0.005456591 0.063152574 0.06948556
7120000000 0.10079444 0.047496222 0.0064533916 0.00041292355 0.0064614988 0.00041298571 0.089848273 0.03907039
7140000000 0.13022855 0.050018195 -0.0015956395 -0.0065999706 -0.0015946338 -0.0065918327 0.092363521 0.0018160146
7160000000 0.12710261 0.041438274 -0.0058822357 0.0026412015 -0.0058934842 0.0026516852 0.087134853 -0.045678407
7180000000 0.12817784 0.023375032 0.0039350865 0.0057512941 0.0038780891 0.005766151 0.04167245 -0.090228677
7200000000 0.1314033 0.053142037 0.004654346 -0.0057443632 0.004659065 -0.0057409299 0.0053356886 -0.07804805
7220000000 0.13788664 0.038886167 -0.0063263453 -0.0025350968 -0.0063252919 -0.0025669204 -0.02945945 -0.075491197
7240000000 0.1569007 0.021989236 -0.0015094868 0.0063708369 -0.0015101033 0.0063607567 -0.062376559 -0.038797155
7260000000 0.15446089 0.029761966 0.0069742743 -0.00015301544 0.006996939 -0.00017405069 -0.070084929 -0.010461181
7280000000 0.13715389 0.019140922 -0.0024981566 -0.0059320685 -0.0024754314 -0.0059249317 -0.065911442 0.037783772
7300000000 0.16488886 0.033865109 -0.00408189 0.0029174911 -0.0041141603 0.002939444 -0.040504642 0.047395617
7320000000 0.16673739 0.033102497 0.0027074637 0.0034140085 0.0026855024 0.0034097941 -0.013442032 0.066968277
7340000000 0.16200113 0.0026776409 0.0029553745 -0.0029221282 0.0029716778 -0.0029475251 0.015192008 0.068468168
7360000000 0.16777651 0.023105761 -0.0028152585 -0.002383814 -0.0028377355 -0.0024054712 0.042698279 0.05381529
7380000000 0.1629706 0.021357805 -0.0026641055 0.0027013065 -0.0027179723 0.0026951844 0.054182101 0.02870357
7400000000 0.19292216 0.013269055 0.0036918779 0.0027583463 0.0036938654 0.0027975864 0.065110892 0.015822085
7420000000 0.19560972 0.00045253377 0.0019930571 -0.0044217007 0.0020257859 -0.004368409 0.057389978 -0.015680503
7440000000 0.16977277 -0.0073534073 -0.0049457932 -0.0014621945 -0.004967113 -0.0014977541 0.0457795 -0.03324737
7460000000 0.19484672 0.0051203058 -0.000371684 0.0059361034 -0.00040076842 0.0059165414 0.027797211 -0.041276865
7480000000 0.18902332 -0.00048623266 0.0060791988 -0.0016617164 0.0060766367 -0.0016694245 0.027564766 -0.04181771
7500000000 0.19247898 -0.016137416 -0.0033073055 -0.0049902336 -0.0032653813 -0.0049671624 0.0077170446 -0.056523297
7520000000 0.20265993 -0.022887819 -0.0035700474 0.0041315882 -0.0035964649 0.0041089174 -0.008994828 -0.059039466
7540000000 0.17330427 -0.019748228 0.004280142 0.002172993 0.0043000197 0.002173437 -0.043574974 -0.060808294
7560000000 0.20150779 -0.022745753 0.0010542923 -0.0036429688 0.0010842506 -0.0036410689 -0.082838327 -0.04829292
7580000000 0.2051948 -0.027191855 -0.0031088302 -0.0011124539 -0.0030761668 -0.0011361009 -0.10210779 0.012081274
7600000000 0.1912118 -0.036434803 -0.0012619327 0.0033182162 -0.0012320168 0.0032974982 -0.079525739 0.070758536
7620000000 0.19468777 -0.042529542 0.0037546572 0.0008422017 0.003773428 0.00086062535 -0.032975059 0.1058411
7640000000 0.19868109 -0.030972151 0.000399804 -0.0037652024 0.00040824717 -0.0038142849 0.013328534 0.1088642
7660000000 0.20495045 -0.043643083 -0.0042498778 -0.00020130169 -0.0042036884 -0.00018004344 0.074857049 0.089699887
7680000000 0.20358324 -0.059426051 0.00075324153 0.0047372868 0.00075241929 0.0047286754 0.093692072 0.032256559
7700000000 0.18766017 -0.052012183 0.0046288604 -0.0017370654 0.0046670889 -0.0017389468 0.09615007 -0.0024393299
7720000000 0.18420802 -0.060695749 -0.0024600639 -0.0046259868 -0.0024548525 -0.0045897407 0.096857518 -0.045541778
7740000000 0.21394484 -0.044845127 -0.0045243916 0.0039262138 -0.004515131 0.0039245393 0.054499064 -0.082288586
7760000000 0.1950241 -0.06850078 0.0052686254 0.0033203166 0.0053014229 0.0033193179 0.011503297 -0.082867578
7780000000 0.18383662 -0.075421959 0.0020462142 -0.0058569843 0.0020778151 -0.0058775852 -0.020187674 -0.085498028
7800000000 0.19617836 -0.052404497 -0.0064879428 -0.00070450263 -0.0064624595 -0.00068874244 -0.060289919 -0.060818829
7820000000 0.18737651 -0.0635546 0.0012563686 0.0064723315 0.0012303997 0.0064968779 -0.071098335 -0.024729902
7840000000 0.20565756 -0.068455748 0.0053919693 -0.0028545917 0.0053560929 -0.002793283 -0.072663285 0.0055615408
7860000000 0.18605758 -0.067108385 -0.0034236403 -0.004376315 -0.0033936941 -0.0043933159 -0.045261633 0.040383883
7880000000 0.18014319 -0.074547447 -0.0032445479 0.0042340569 -0.0032243617 0.0042410195 -0.021155778 0.055706408
7900000000 0.21043983 -0.080463029 0.0041782651 0.0018652865 0.0041590803 0.0018646686 0.00054405472 0.05480184
7920000000 0.18554892 -0.073141828 0.0012156786 -0.0033511235 0.0012010648 -0.0033380503 0.034804225 0.049697541
7940000000 0.19117333 -0.098489575 -0.0033024952 -0.001456228 -0.0033589022 -0.0014549857 0.043825317 0.01045044
7960000000 0.17908487 -0.081544831 -0.001173688 0.0035194501 -0.0011654954 0.003525845 0.04841629 0.0054367473
7980000000 0.17847662 -0.081849746 0.0036565473 0.0011484849 0.003699851 0.0011711972 0.05072277 -0.031832438
8000000000 0.19875839 -0.097834736 0.0012347265 -0.0044334899 0.0012538736 -0.0044091088 0.025235666 -0.037207279
8020000000 0.17191842 -0.084132738 -0.0058041583 -0.00037964139 -0.0058283061 -0.00033978021 0.01021072 -0.047136154
8040000000 0.16468403 -0.097883105 0.0015637694 0.0061621629 0.0015591943 0.0061682109 -0.0091439914 -0.055346027
8060000000 0.17562926 -0.10310458 0.0060297139 -0.0032232427 0.006014612 -0.0032751416 -0.044427663 -0.049521934
8080000000 0.17274728 -0.082340173 -0.0051087346 -0.0051907562 -0.005161644 -0.0051420345 -0.053020187 -0.019864634
8100000000 0.16923119 -0.12443646 -0.0031994949 0.0066395518 -0.0031975699 0.0066560265 -0.066663399 -0.006763061
8120000000 0.15547402 -0.10459022 0.0067889239 0.0010310974 0.006805792 0.0010626413 -0.054481316 0.039012332
8140000000 0.15420718 -0.10226955 -0.00077622948 -0.0064689778 -0.00073780154 -0.0064815702 -0.043046363 0.067583241
8160000000 0.14688583 -0.117415 -0.0052504595 0.0023960581 -0.005275907 0.0023581202 0.0064202626 0.088467225
8180000000 0.14990455 -0.10299099 0.0029727176 0.0037665989 0.0029681418 0.0037683654 0.036284298 0.07394971
8200000000 0.12563176 -0.12383749 0.0024620737 -0.0026641295 0.0024684251 -0.0026632738 0.082124598 0.05278584
8220000000 0.12628177 -0.10594236 -0.0021608386 -0.0020210124 -0.0021394484 -0.0020524578 0.094585434 0.011184844
8240000000 0.12382683 -0.097594008 -0.0020209954 0.0015529647 -0.0020648716 0.0015647972 0.10593802 -0.036287602
8260000000 0.11351135 -0.11530703 0.0014596813 0.0026871099 0.0014830703 0.0026865627 0.075711399 -0.075414248
8280000000 0.12240469 -0.11796315 0.0034007663 -0.00220774 0.0034021798 -0.0022032005 0.047855049 -0.095825188
8300000000 0.090773828 -0.098565832 -0.0035599237 -0.0034967142 -0.0035649564 -0.003464024 -0.0028076896 -0.10742698
8320000000 0.1000385 -0.10372001 -0.0028057136 0.0048642242 -0.0028056148 0.004895478 -0.042836774 -0.10454214
8340000000 0.11906426 -0.10283361 0.0058904532 0.00153394 0.0059378007 0.0015259479 -0.070600398 -0.074119747
8360000000 0.074558586 -0.10973151 -0.00015096093 -0.0065114843 -0.0001605781 -0.0065232241 -0.095396101 -0.047535248
8380000000 0.079532392 -0.10065139 -0.0061796485 0.0020059366 -0.0061670253 0.0019910408 -0.10261443 0.0015101929
8400000000 0.070475169 -0.084978931 0.0035522773 0.0053206347 0.0035318239 0.0052645709 -0.082436554 0.03403997
8420000000 0.073443204 -0.084628463 0.0038572387 -0.0045693619 0.0038520799 -0.0045559453 -0.069696218 0.066553168
8440000000 0.068972662 -0.098050393 -0.0048034443 -0.0022574274 -0.0048139035 -0.0023135766 -0.032376979 0.079110637
8460000000 0.054862201 -0.073383868 -0.0011471217 0.0043518455 -0.0011572671 0.0043643662 -3.4257613e-005 0.083256952
8480000000 0.053813037 -0.073619381 0.0037474248 0.00061749353 0.0037264952 0.00062790292 0.03473445 0.073194414
8500000000 0.068148755 -0.075579599 0.00057041389 -0.0033945257 0.00057317741 -0.0033794055 0.062231891 0.046875209
8520000000 0.043959055 -0.063765951 -0.0032932933 -0.00072208815 -0.003345168 -0.00076690869 0.074275568 0.031549357
8540000000 0.03385704 -0.065914579 -0.000906336 0.0039003545 -0.00094565353 0.003945474 0.080081291 -0.013871031
8560000000 0.048713785 -0.048870422 0.0046002702 0.00037722962 0.0045857211 0.00039620165 0.051049385 -0.047165919
8580000000 0.031432156 -0.048393723 -0.00022433701 -0.0054199239 -0.00022327388 -0.0053768591 0.03755004 -0.055424444
8600000000 0.030733183 -0.046496455 -0.0060951086 0.0017785557 -0.0061067417 0.001769457 0.016147541 -0.067253754
8620000000 0.034714207 -0.028838016 0.0037110674 0.0059675439 0.0036506664 0.0059715235 -0.015159279 -0.064397894
8640000000 0.0077315308 -0.031571537 0.0049390271 -0.0053236145 0.004915073 -0.0053800009 -0.037186723 -0.042382602
8660000000 0.035461232 -0.020013191 -0.0066953246 -0.003601535 -0.0066650016 -0.0036482965 -0.037533469 -0.024816703
8680000000 0.027878735 -0.00018426409 -0.0015631141 0.0076383641 -0.0015683873 0.0076077138 -0.0429487 -0.0061292765
8700000000 0.014620612 -0.014399461 0.0074711321 -0.00073439424 0.0074821627 -0.00071550324 -0.043153182 0.0054268083
8720000000 0.034618184 -0.0019673512 -0.0022673372 -0.0064729606 -0.0022897634 -0.0064689689 -0.018104717 0.024266304
8740000000 -0.0016549318 0.028019164 -0.0055398974 0.0033474034 -0.0055575208 0.0033460169 -0.0044974196 0.017373079
8760000000 0.030144822 0.007657202 0.0042412491 0.0043255035 0.0042504044 0.004317245 0.01417307 0.026852947
8780000000 0.020886663 0.031988662 0.0030236559 -0.0045121564 0.0030506989 -0.0045144097 0.024530124 0.0068504428
8800000000 0.0045041447 0.035837762 -0.0042181951 -0.0022056974 -0.0041731494 -0.0022028375 0.025881454 -0.006010388
8820000000 0.02202782 0.041967101 -0.0017098451 0.0041393461 -0.0017079856 0.0041615278 0.02686917 -0.02165575
8840000000 0.02163931 0.069008425 0.0039988924 0.0013461461 0.0039937356 0.0014318017 0.012043609 -0.039066151
8860000000 0.029361164 0.043087281 0.0012567149 -0.0042379252 0.001326264 -0.004280007 -0.0045554382 -0.05247454
8880000000 0.022077335 0.070165351 -0.0049110143 -0.00099308148 -0.004921169 -0.0010067991 -0.014882799 -0.04618701
8900000000 0.019860869 0.089179873 -2.8693705e-005 0.0055023972 -3.688311e-005 0.0054709068 -0.049970619 -0.037437327
8920000000 0.037861992 0.068894617 0.0056782058 -0.00093002216 0.0057066893 -0.00096871651 -0.052070796 -0.012640454
8940000000 0.039832775 0.0912975 -0.0023197106 -0.0058969622 -0.0023051796 -0.0058793225 -0.070601679 0.0034529152
8960000000 0.02844929 0.083193488 -0.0053039291 0.003912346 -0.0052320729 0.003926822 -0.057655446 0.036189452
8980000000 0.03351716 0.093481809 0.005064507 0.0041054222 0.0050474377 0.0040661083 -0.034795184 0.047422849
9000000000 0.054188274 0.11386753 0.0027859686 -0.005669863 0.0028357448 -0.0056457547 -0.0064897751 0.058034942
9020000000 0.041168701 0.095056571 -0.006033801 -0.0014900753 -0.006050921 -0.0014972327 0.002861453 0.065954328
9040000000 0.05276648 0.1130566 8.7447988e-005 0.0057823472 0.00014652466 0.0057785981 0.046126112 0.049051687
9060000000 0.056637231 0.11798447 0.004943917 -0.00091105938 0.0049770763 -0.00085591996 0.044796616 0.032705631
9080000000 0.04531309 0.10912875 -0.0012359881 -0.0045652203 -0.001240212 -0.0045854459 0.065518379 0.017846949
9100000000 0.08832927 0.12715958 -0.00419536 0.0018930642 -0.004202866 0.0018504022 0.067082256 -0.0043999222
9120000000 0.057883967 0.12083858 0.0020401101 0.0037226127 0.0020214736 0.0036912719 0.064597428 -0.04827939
9140000000 0.067212783 0.11274946 0.0039074323 -0.0021906765 0.0038761804 -0.0022577418 0.043416992 -0.044787262
9160000000 0.085519515 0.14193353 -0.0029049413 -0.0038636366 -0.0028916243 -0.0038433908 0.039606888 -0.075879075
9180000000 0.070179142 0.12221175 -0.0035759916 0.0036518485 -0.0036049078 0.0036569145 -0.0052677891 -0.078825966
9200000000 0.090067491 0.11880971 0.0042460072 0.0033842265 0.0042526466 0.0033945991 -0.024999589 -0.076304942
9220000000 0.089498833 0.14226098 0.0029195196 -0.0055891387 0.0029347909 -0.0055882465 -0.057785142 -0.061049014
9240000000 0.079839393 0.13736957 -0.006661668 -0.0014411443 -0.0066520046 -0.001466046 -0.069625661 -0.043821771
9260000000 0.099740699 0.1359691 0.0002694297 0.0068860818 0.00019840997 0.0068779499 -0.070459388 -0.016640306
9280000000 0.0976035 0.14514191 0.0067811431 -0.0016665347 0.0067866873 -0.0016756554 -0.074196495 0.010632521
9300000000 0.10014823 0.13467158 -0.0036458159 -0.006363797 -0.0036404305 -0.0063303239 -0.061787222 0.043173283
9320000000 0.11898282 0.15066499 -0.0047055255 0.004896299 -0.0046951808 0.0048631518 -0.050903209 0.043303531
9340000000 0.10280697 0.13286513 0.005205011 0.0032702379 0.005216537 0.0032404168 -0.026156178 0.063148245
9360000000 0.11993754 0.14214337 0.0021888376 -0.0053534415 0.0022004622 -0.0053958641 0.0018809928 0.055868141
9380000000 0.13020775 0.15858558 -0.0052571022 -0.00081408414 -0.005301585 -0.00080996659 0.010868792 0.050471079
9400000000 0.11157557 0.13357019 -0.0002071108 0.0042887125 -0.0002037887 0.0043099574 0.035335682 0.042218722
9420000000 0.12772198 0.14125964 0.0041700318 0.00033485924 0.0041802707 0.00038817999 0.035023972 0.019745229
9440000000 0.14287123 0.16183168 0.00012574422 -0.0044273739 0.00014182185 -0.0044580149 0.038045153 0.0059122541
9460000000 0.12113641 0.14063589 -0.0046133846 0.00021838406 -0.0046587125 0.00022557327 0.027608145 -0.010044813
9480000000 0.1520521 0.13695586 0.0004916176 0.0052661845 0.0005031972 0.0052780062 0.029425368 -0.012377095
9500000000 0.12177708 0.15603538 0.005988596 -0.0019521049 0.0060004499 -0.0020338634 0.0074610291 -0.01934851
9520000000 0.15557569 0.14710775 -0.0036123816 -0.0055624847 -0.003556506 -0.0055691223 -1.2188604e-005 -0.015122728
9540000000 0.16026188 0.14316557 -0.0048102681 0.0048544956 -0.0048005967 0.0048830896 0.0030217764 -0.0018941645
9560000000 0.13450803 0.14616732 0.00597593 0.004075232 0.0060357763 0.0040705958 0.0052607241 -0.0010880519
9580000000 0.16383851 0.13257898 0.0022204893 -0.007337804 0.0021903913 -0.0073004146 -0.0046779164 0.0056102923
9600000000 0.17149054 0.15413561 -0.0072883875 -0.00027395651 -0.0073142103 -0.00033019832 0.01825976 0.00492896
9620000000 0.14792879 0.13168557 0.0011423017 0.0067361658 0.0011466142 0.0067669605 0.018550804 -0.0076320278
9640000000 0.16471766 0.12214518 0.0065276753 -0.002417186 0.0064994437 -0.0023951675 0.030217271 -0.018182501
9660000000 0.1517482 0.15043855 -0.0038557367 -0.0052384939 -0.0037785366 -0.0052704285 0.023751052 -0.038952556
9680000000 0.15984252 0.11912957 -0.0041487105 0.0041171424 -0.0041343803 0.0041040424 0.013587411 -0.039531674
9700000000 0.16979675 0.1220877 0.0042948159 0.0034187289 0.0042993869 0.0034232854 -0.016489321 -0.06513755
9720000000 0.16302015 0.13667089 0.0028143562 -0.0048588119 0.0028563775 -0.0048687072 -0.045525927 -0.068366483
9740000000 0.17286572 0.10437088 -0.0047248458 -0.0018335242 -0.0047679022 -0.0018437133 -0.066952646 -0.054228194
9760000000 0.16569099 0.14493275 -0.0016270255 0.0050738873 -0.0016393283 0.005073091 -0.094693393 -0.028712941
9780000000 0.17848052 0.10231479 0.0053963726 0.00090414495 0.0053905575 0.00096848537 -0.1130679 0.014785769
9800000000 0.17873657 0.10728794 -0.00021700375 -0.0058560981 -0.00020339024 -0.0058352612 -0.10034128 0.048697148
9820000000 0.1774365 0.11816872 -0.0056149764 0.00099263422 -0.0056147338 0.0009570595 -0.090713568 0.097896188
9840000000 0.15816322 0.089992911 0.0022347025 0.0057706414 0.0022799019 0.0058177798 -0.045938719 0.12385695
9860000000 0.19662181 0.098353133 0.0050368654 -0.0035876487 0.0050902846 -0.0035513469 -0.0039304798 0.13791025
9880000000 0.1700477 0.092679664 -0.0043448894 -0.0038445715 -0.00432654 -0.0038772745 0.049195401 0.12274557
9900000000 0.17089979 0.077369668 -0.0032389204 0.004357636 -0.0031756111 0.0044488385 0.095149942 0.097928077
9920000000 0.17681974 0.083483249 0.0051143318 0.0024406945 0.0051405528 0.002415214 0.12656961 0.048079543
9940000000 0.16494922 0.095078506 0.0014788528 -0.005393446 0.0014535978 -0.0054283524 0.1280701 -0.0089540118
9960000000 0.19391523 0.064729907 -0.0052470784 -0.00034897684 -0.0052247932 -0.00034419427 0.10372887 -0.045163978
9980000000 0.1709439 0.071728021 8.5705113e-005 0.005127517 9.5302959e-005 0.0051107835 0.075961001 -0.071984209
10000000000 0.15985838 0.070710801 0.0050453423 -0.0012123522 0.0050629177 -0.0011739599 0.046754427 -0.11927778
10020000000 0.18955316 0.054775558 -0.0015680382 -0.0044785589 -0.0016124885 -0.0044779289 -0.0051700282 -0.10960044
10040000000 0.16963153 0.056256007 -0.0042606215 0.0020062057 -0.0041506682 0.0019748374 -0.034841917 -0.095471561
10060000000 0.15921184 0.033278566 0.0024537402 0.0044067455 0.0024660814 0.0044291895 -0.060796831 -0.08747568
10080000000 0.17401184 0.037445191 0.0038662988 -0.0031217148 0.0039150906 -0.0030760893 -0.11054589 -0.056772813
10100000000 0.15322618 0.0470067 -0.0037678129 -0.0039112805 -0.0037948815 -0.0039469502 -0.10806624 -0.017079635
10120000000 0.15601683 0.014710287 -0.0036489223 0.0045805629 -0.0036501766 0.0046232734 -0.11672843 0.0091996612
10140000000 0.14957257 0.031834859 0.0060429224 0.0029527203 0.0060469494 0.0029351036 -0.09513326 0.060168941
10160000000 0.13911217 0.02075384 0.0015445363 -0.0066866032 0.0015085957 -0.0066632139 -0.076180473 0.079080023
10180000000 0.13086398 0.02470991 -0.0073739788 -0.00017780444 -0.0073282695 -0.00020910389 -0.053139079 0.094213657
10200000000 0.15463677 0.032394189 0.0018373539 0.0074595534 0.0018338016 0.0074307816 -0.015862893 0.1131458
10220000000 0.12410627 0.0060544661 0.0066096918 -0.0037949446 0.0065955822 -0.0038227688 0.024625231 0.089572944
10240000000 0.14150104 0.0057539348 -0.0047790818 -0.005132033 -0.004799563 -0.0051236041 0.026812041 0.08948423
10260000000 0.11437117 0.012035477 -0.0041371919 0.0058936267 -0.0041376916 0.0059247431 0.070516691 0.060233239
10280000000 0.099326245 0.0068300501 0.0062920307 0.0021138845 0.006309289 0.0021706517 0.066710927 0.018904703
10300000000 0.1238113 -0.00077432609 0.00058558624 -0.0056921667 0.00048647006 -0.0056341193 0.064443767 0.017910294
10320000000 0.081884786 0.0027641486 -0.0048929607 -0.00021547514 -0.0048460322 -0.00024431731 0.061157834 -0.019050794
10340000000 0.080233358 -0.015207816 0.00038063887 0.0048595248 0.00041298973 0.0048312172 0.029811306 -0.015023438
10360000000 0.086079858 0.0073446394 0.0042056399 -0.00066081819 0.0042119548 -0.00062419713 0.025941415 -0.028460886
10380000000 0.058168534 0.006658406 -0.00059463648 -0.0042034262 -0.00056476332 -0.004286536 0.016037527 -0.040126797
10400000000 0.064660318 -0.0082373852 -0.0050963811 0.00077101868 -0.0050833244 0.0008269308 -0.0012691559 -0.039153367
10420000000 0.058019012 0.0076888883 0.0022635439 0.0051998822 0.0022625867 0.0051877527 0.0024535363 -0.032827444
10440000000 0.029963536 0.0016423468 0.0049968977 -0.0030947966 0.0050249468 -0.0030521804 -0.019295717 -0.043739658
10460000000 0.063667968 0.0058104484 -0.0043139779 -0.0046957117 -0.0042485716 -0.0046662898 -0.050161079 -0.030115001
