!Keysight Technologies,N5242B,MY47200105,A.14.00.23
!Date: Friday, April 26, 2024 11:23:16
!Correction: S11(C  2-Port  ) 
!S21(C  2-Port  ) 
!S12(C  2-Port  ) 
!S22(C  2-Port  ) 
!S2P File: Measurement: :
# Hz S  RI   R 50
7000000000 0.062177729 0.051813599 -2.1763894e-005 -0.0090767685 1.082396e-005 -0.0090600727 -0.044330314 -0.0027860578
7020000000 0.069582805 0.042659342 -0.0089886747 0.0013131322 -0.0089722779 0.0013548788 -0.053483885 0.015565822
7040000000 0.086000361 0.053832762 0.0034153827 0.0089095654 0.0033889667 0.0089192679 -0.046252538 0.045945339
7060000000 0.083526991 0.052204181 0.0077090277 -0.0053452277 0.0076979026 -0.0053415336 -0.019941462 0.067879058
7080000000 0.10624963 0.049547404 -0.006064706 -0.0065689711 -0.0060529471 -0.0065994025 0.0093825236 0.087240122
7100000000 0.10168828 0.056125849 -0.0061674039 0.0075721792 -0.0061956146 0.0075492794 0.062198386 0.065504879
7120000000 0.10503713 0.039768841 0.0096429372 0.0041890396 0.0096488344 0.0042203269 0.086104669 0.040910542
7140000000 0.12495979 0.045362409 0.0016047113 -0.0099842893 0.0015986433 -0.0099965455 0.095189959 0.003461929
7160000000 0.1202506 0.04700572 -0.01015668 0.00015431516 -0.010187186 0.00013415623 0.085968532 -0.04922381
7180000000 0.13450979 0.029340073 0.0027799602 0.010407384 0.0027731815 0.010352697 0.038412541 -0.08749833
7200000000 0.13727891 0.048086919 0.0089487452 -0.0053566797 0.0088887289 -0.0053429962 0.0079514049 -0.076117232
7220000000 0.13440785 0.032303695 -0.0066215401 -0.0068873251 -0.0065746191 -0.0068877656 -0.029433386 -0.07795573
7240000000 0.149133 0.025612857 -0.0056537641 0.0076115374 -0.005681749 0.0076125683 -0.06534151 -0.036990155
7260000000 0.15786983 0.036641516 0.0086570382 0.0033057262 0.0086674215 0.0033345083 -0.067075759 -0.0080153979
7280000000 0.14436269 0.017736766 0.0011017402 -0.0079729119 0.0011190579 -0.0080054188 -0.065099806 0.035344273
7300000000 0.16356713 0.025490027 -0.0071859891 -0.00024919081 -0.0071904375 -0.00026388129 -0.042796865 0.047883384
7320000000 0.1586514 0.03490128 0.00044561361 0.007037844 0.00045445355 0.0070507317 -0.011385843 0.069801219
7340000000 0.16221195 0.01008175 0.0066972887 -0.0011148662 0.0066627963 -0.00112361 0.017173592 0.065498091
7360000000 0.17619087 0.024748988 -0.0016256332 -0.0069610686 -0.0016079051 -0.0069361236 0.040160246 0.053866517
7380000000 0.16411254 0.012168872 -0.0074161845 0.0029604947 -0.0074292594 0.0029747093 0.05545732 0.030540304
7400000000 0.18459156 0.012244968 0.0049126418 0.0068432693 0.0048914594 0.0068613552 0.067269713 0.013481968
7420000000 0.19331869 0.0080780229 0.005880835 -0.0060943654 0.0059175259 -0.0061009782 0.054806568 -0.016663658
7440000000 0.1779563 -0.0033762055 -0.0075727915 -0.0049465639 -0.0075805187 -0.004948888 0.046226196 -0.031311866
7460000000 0.19815345 -0.0037005169 -0.0029011809 0.0090781786 -0.0029346314 0.0090688653 0.029563749 -0.042908538
7480000000 0.1815141 -0.0037761643 0.0092197582 0.00022693079 0.0091663627 0.0002235476 0.02534169 -0.043463375
7500000000 0.18702237 -0.0087627415 -0.001753523 -0.0083618332 -0.0017143879 -0.0083304709 0.0071049784 -0.054124948
7520000000 0.21078113 -0.017105801 -0.0072029559 0.0033089479 -0.0071902866 0.0032809789 -0.006934369 -0.06028818
7540000000 0.17801882 -0.027144484 0.0038743468 0.0057664863 0.0038745259 0.0057095587 -0.046106629 -0.062408235
7560000000 0.19539993 -0.028464187 0.0048653423 -0.0036989043 0.0048706895 -0.0037218835 -0.083516963 -0.045826893
7580000000 0.19850859 -0.020645939 -0.0039141248 -0.0050347196 -0.0039151665 -0.0050859903 -0.1003259 0.011671603
7600000000 0.19737031 -0.029441103 -0.0049087475 0.0049026036 -0.0049317391 0.0049007335 -0.081301928 0.069135472
7620000000 0.20119859 -0.047663651 0.0059551094 0.0044266889 0.005927776 0.0044638491 -0.034413692 0.10826295
7640000000 0.19474562 -0.038757771 0.0036389811 -0.0070477119 0.0036589643 -0.0070218351 0.015465667 0.10957207
7660000000 0.19665633 -0.038786463 -0.0082956431 -0.0024506941 -0.0082902713 -0.0024619934 0.074173525 0.08769393
7680000000 0.20738338 -0.051830631 -0.0004591844 0.0087410873 -0.00048683843 0.0087221209 0.091774426 0.034855355
7700000000 0.19504109 -0.054414023 0.0089217946 -0.00097027299 0.0089534111 -0.00095260708 0.098998278 -0.0012425137
7720000000 0.18216795 -0.069445908 -0.0029513561 -0.0091912905 -0.0029650959 -0.0091776671 0.096974649 -0.047668129
7740000000 0.20529972 -0.042192791 -0.0085222665 0.0054100803 -0.0085156839 0.0054110824 0.052499585 -0.080923788
7760000000 0.1961904 -0.06136556 0.0070989938 0.0068295677 0.0071065961 0.0068284953 0.014440013 -0.081109405
7780000000 0.19253676 -0.075029202 0.005446543 -0.0083432654 0.0054710833 -0.0083561614 -0.019257167 -0.088562638
7800000000 0.19612971 -0.061147243 -0.0096094757 -0.0033223443 -0.0095828203 -0.0033308624 -0.062415253 -0.060474593
7820000000 0.17975269 -0.063908316 -0.00083495979 0.0097975451 -0.00081475877 0.0098289941 -0.068987139 -0.022922516
7840000000 0.20349216 -0.06103652 0.009088112 -0.0011724462 0.0091159083 -0.001178549 -0.07131844 0.001951032
7860000000 0.19473614 -0.0644444 -0.0026349826 -0.0085046683 -0.002626501 -0.0085106697 -0.048592351 0.04048343
7880000000 0.18210679 -0.082242966 -0.0071792486 0.0040770913 -0.0071595083 0.0040558623 -0.019537373 0.057240523
7900000000 0.20420004 -0.084271573 0.0046362043 0.0062390957 0.0046086241 0.006245493 0.0012446409 0.051668935
7920000000 0.18001635 -0.066313483 0.005588972 -0.0049615423 0.0055868649 -0.0049289805 0.031450186 0.04978681
7940000000 0.19905557 -0.093398824 -0.0060527702 -0.0051369946 -0.0060240244 -0.0051307622 0.045176163 0.012625822
7960000000 0.18379709 -0.087716684 -0.0042692982 0.0065002511 -0.0042930953 0.0065140007 0.048556525 0.0031925635
7980000000 0.17314914 -0.088531941 0.0076286555 0.0037287557 0.0076191244 0.0037354948 0.048469245 -0.031538896
8000000000 0.19202526 -0.091182336 0.0026371228 -0.008952925 0.0026147296 -0.0089139352 0.025312368 -0.034983654
8020000000 0.17853035 -0.076854236 -0.010007647 -0.00044014116 -0.010051837 -0.00046338441 0.011829223 -0.048285555
8040000000 0.17180812 -0.10331517 0.001879573 0.010072988 0.0018980539 0.0100477 -0.011467149 -0.055660836
8060000000 0.17107643 -0.11158744 0.0098348483 -0.0043928996 0.0098371133 -0.0043850876 -0.044161368 -0.047326721
8080000000 0.16397661 -0.07644999 -0.0068362541 -0.0085053882 -0.0068302983 -0.008499831 -0.050661277 -0.019388314
8100000000 0.1745865 -0.11684596 -0.0060417941 0.0086438665 -0.0060700853 0.0086325388 -0.06820371 -0.0088971769
8120000000 0.16347361 -0.10812379 0.0092672138 0.0038390132 0.0093241902 0.0038542296 -0.054790426 0.042291574
8140000000 0.15047398 -0.11113093 0.0013742065 -0.0093685668 0.0013385742 -0.0093475636 -0.03998886 0.067131869
8160000000 0.13930492 -0.11325726 -0.0085565681 0.00043645329 -0.0085625881 0.00038420071 0.005788303 0.086378261
8180000000 0.15198879 -0.094814874 0.0017584463 0.0076970216 0.0017684482 0.0076983967 0.035137318 0.076110065
8200000000 0.13430053 -0.12578334 0.006626437 -0.0024542916 0.0066051362 -0.0024734694 0.08525224 0.052190293
8220000000 0.12489688 -0.11366004 -0.0028468911 -0.005905244 -0.0027614299 -0.0058945552 0.093843304 0.0087558096
8240000000 0.11602941 -0.09602087 -0.0059247287 0.0029459374 -0.0059281802 0.0028984903 0.104292 -0.035262965
8260000000 0.11235552 -0.1075628 0.0038086751 0.0060521788 0.003806981 0.0060510444 0.077881835 -0.075270951
8280000000 0.13154767 -0.11739358 0.0059437384 -0.0050997175 0.0059430101 -0.0051299003 0.047286619 -0.098519623
8300000000 0.091541804 -0.10515535 -0.0065746647 -0.0053102002 -0.0065824571 -0.0053226585 -0.0047629094 -0.10623232
8320000000 0.092704363 -0.10647512 -0.0040628263 0.008206944 -0.0040513077 0.0081900973 -0.041271731 -0.10380133
8340000000 0.11635833 -0.094852015 0.009072938 0.0020575966 0.0090663843 0.0020485318 -0.071034744 -0.076367959
8360000000 0.082211457 -0.10626413 -9.9993995e-005 -0.0094735296 -7.961478e-005 -0.00946528 -0.09765894 -0.046561331
8380000000 0.083487712 -0.10787602 -0.0091463579 0.0021710566 -0.0091540078 0.002190636 -0.10107937 0.0026643032
8400000000 0.062879927 -0.089497849 0.0043991846 0.0081448806 0.0043749344 0.0081593841 -0.082974628 0.032404702
8420000000 0.068088599 -0.077479579 0.0065363748 -0.0055161701 0.0065438095 -0.0055131698 -0.071181394 0.067240901
8440000000 0.076256163 -0.093188159 -0.0063091787 -0.0050768955 -0.0062988549 -0.0050379597 -0.03162295 0.080845863
8460000000 0.060217217 -0.078821532 -0.0036661418 0.0065065566 -0.0036347741 0.0064881551 0.00062134716 0.082364962
8480000000 0.047533102 -0.080425754 0.0062556923 0.0024481006 0.0062755402 0.0024651268 0.033540212 0.073407419
8500000000 0.061753631 -0.069849402 0.0022544919 -0.006157659 0.0022979847 -0.00615793 0.062168315 0.048532557
8520000000 0.049441103 -0.056757782 -0.0067195604 -0.0016869843 -0.0067812274 -0.0017074954 0.076375708 0.031572532
8540000000 0.039925855 -0.070738256 -0.00089507992 0.0072834441 -0.00089699373 0.0073064701 0.079042211 -0.015180681
8560000000 0.045245029 -0.056765471 0.0074950731 -6.109909e-005 0.0074680634 -4.1603602e-005 0.050795291 -0.045206215
8580000000 0.02384562 -0.044343807 -0.0010145089 -0.0085287141 -0.0010020813 -0.0085372441 0.04017264 -0.055304945
8600000000 0.03338442 -0.038879219 -0.0087431502 0.0034127368 -0.0087433988 0.0034046504 0.015475426 -0.069475576
8620000000 0.042679165 -0.031928096 0.0055557787 0.0080724554 0.0055064387 0.0081109386 -0.016163547 -0.062640548
8640000000 0.0053690341 -0.039639566 0.0068488 -0.0072803604 0.0068315566 -0.0072506843 -0.034467015 -0.042677101
8660000000 0.027735041 -0.018940397 -0.0092896707 -0.0052365977 -0.0092775114 -0.0052488563 -0.03804262 -0.027450221
8680000000 0.028402565 0.0086807162 -0.0023627337 0.010127442 -0.0023554091 0.01010449 -0.044639736 -0.0049384041
8700000000 0.022673484 -0.015253631 0.0099481111 2.7658147e-005 0.0099531524 7.956738e-006 -0.041245587 0.005737518
8720000000 0.036448892 -0.010399783 -0.0018395626 -0.0091880467 -0.0018355412 -0.0092292158 -0.018599812 0.021541778
8740000000 -0.010855129 0.027253231 -0.0084474217 0.0036841119 -0.0084571419 0.0037149414 -0.0065162019 0.018299637
8760000000 0.028352166 0.016246546 0.0047289957 0.006950364 0.0047414042 0.0069507207 0.015212998 0.027865073
8780000000 0.030040031 0.033692352 0.0059381374 -0.0054911245 0.0059273853 -0.0054854099 0.024414618 0.0047354591
8800000000 0.0083967904 0.02730161 -0.0061018225 -0.0049740062 -0.0061236569 -0.0050033345 0.023087688 -0.0050908648
8820000000 0.011930943 0.038366999 -0.0036987062 0.0066550705 -0.0036749165 0.0066071334 0.028295089 -0.019924672
8840000000 0.017572593 0.077304579 0.0067740367 0.003028515 0.0067708208 0.0030489168 0.012103179 -0.040378734
8860000000 0.038109086 0.04737125 0.0021772706 -0.0075096791 0.0021292591 -0.0075140912 -0.0066523273 -0.05191778
8880000000 0.026900113 0.062314846 -0.0080178687 -0.00078288588 -0.0080279317 -0.00072811497 -0.013673898 -0.043270633
8900000000 0.01160874 0.083811447 0.00057178515 0.0079858685 0.00048953411 0.0079853302 -0.048678365 -0.039079174
8920000000 0.032819517 0.076503493 0.0082730688 -0.0018007577 0.0082555385 -0.0018396338 -0.053465098 -0.012147742
8940000000 0.047063079 0.097449116 -0.0038121312 -0.0078866538 -0.0038595409 -0.0078757117 -0.069801345 0.0054037692
8960000000 0.035059996 0.076821655 -0.0067540258 0.0053335913 -0.0067874123 0.0054039191 -0.055688623 0.035126645
8980000000 0.026444985 0.086877055 0.0063847932 0.005546941 0.0063602487 0.0055625206 -0.036132399 0.046653878
9000000000 0.047988866 0.1193818 0.0041950229 -0.0075165955 0.0042200848 -0.0074943872 -0.0060788528 0.059655137
9020000000 0.046337582 0.10285603 -0.0079629682 -0.0023092462 -0.0079330103 -0.0023097729 0.0045729266 0.064728744
9040000000 0.059839088 0.10858689 -0.00062352646 0.0075192587 -0.00057622325 0.0075497841 0.045817088 0.047438942
9060000000 0.052776314 0.10959819 0.0071017398 -0.00018117622 0.0071080658 -0.00022394245 0.043584544 0.033706859
9080000000 0.037530791 0.11232916 -0.0013500296 -0.0069109201 -0.0013085001 -0.0069629024 0.06754797 0.017629651
9100000000 0.090832859 0.13589169 -0.0062614274 0.0022138353 -0.0062445016 0.0021927974 0.066229925 -0.0068140943
9120000000 0.0650874 0.1189097 0.0026629355 0.005892681 0.0026397372 0.0058770753 0.062818617 -0.047624059
9140000000 0.067353822 0.10406026 0.0059736902 -0.0034335381 0.0059785834 -0.0034454952 0.045005821 -0.043920543
9160000000 0.076101072 0.14260775 -0.004489596 -0.0053364732 -0.0044355644 -0.005382549 0.038917456 -0.078297436
9180000000 0.06949044 0.13179806 -0.0049142451 0.0053061391 -0.0048939339 0.0053204172 -0.0074809995 -0.077982426
9200000000 0.099202633 0.11988214 0.0062739179 0.0043425723 0.0062451935 0.0043771472 -0.024213016 -0.074705198
9220000000 0.091581233 0.13211338 0.003171657 -0.0076729236 0.0031945868 -0.0076651401 -0.057644099 -0.062826589
9240000000 0.069952719 0.13567553 -0.0082798926 -0.0014774298 -0.008256956 -0.0014635635 -0.071758099 -0.04267665
9260000000 0.096119106 0.14494747 0.00013410697 0.0085690627 0.00015609956 0.0085754897 -0.06952326 -0.014987592
9280000000 0.10752828 0.14920698 0.0086829234 -0.0020590278 0.0086736688 -0.0020404521 -0.073194101 0.0098636923
9300000000 0.10421817 0.12402037 -0.0043098056 -0.0076812557 -0.004327991 -0.0076493053 -0.063493177 0.043216541
9320000000 0.10938769 0.14803988 -0.006029997 0.0052073994 -0.0060555423 0.0051977923 -0.049853947 0.045551643
9340000000 0.097367734 0.14049511 0.0060038068 0.0050819577 0.0060013258 0.0051018521 -0.024617869 0.062042188
9360000000 0.12899332 0.14805484 0.0035322316 -0.0069566355 0.0035329338 -0.0069303745 0.00062442635 0.055508289
9380000000 0.13516799 0.1504292 -0.0066100894 -0.001712582 -0.0065925764 -0.0017608544 0.011244018 0.052185837
9400000000 0.10422046 0.12889591 -0.0011908041 0.005933078 -0.0012364055 0.0059292777 0.03776031 0.041503374
9420000000 0.121029 0.14685029 0.006220384 0.00072013319 0.0062229563 0.0007124517 0.033987541 0.018022852
9440000000 0.15059726 0.16958506 -1.6078202e-005 -0.0060903216 -5.1265182e-005 -0.0061074607 0.037734274 0.0074945749
9460000000 0.12675104 0.13422868 -0.0061829626 0.00045521974 -0.0062309629 0.00050348468 0.02962243 -0.010505498
9480000000 0.147999 0.12977695 0.0011369055 0.0068946276 0.0011118221 0.0068374425 0.028865298 -0.014909633
9500000000 0.11354972 0.15924856 0.0071159047 -0.0029504416 0.0070881019 -0.0029087199 0.0057930928 -0.01813316
9520000000 0.15915163 0.15604374 -0.004382913 -0.0065120254 -0.0043848166 -0.0065375883 0.0019145552 -0.014737075
9540000000 0.16842599 0.1415299 -0.0055293427 0.0057746535 -0.0055331183 0.0057730712 0.0026439682 -0.0041532707
9560000000 0.13196091 0.13624525 0.006922022 0.0046803141 0.0069840057 0.0046929643 0.0027109873 -0.00050420873
9580000000 0.15522593 0.13458596 0.0027150901 -0.0078951726 0.0026959188 -0.0079178466 -0.0033073043 0.0069997334
9600000000 0.17133962 0.16395581 -0.0081062028 -0.0012337348 -0.0081395907 -0.0012338574 0.018286355 0.0028630514
9620000000 0.15796436 0.13292085 0.00041187947 0.0080213435 0.00042958974 0.008030423 0.015904464 -0.0079003526
9640000000 0.16467836 0.11103304 0.0078619355 -0.0022080261 0.007860153 -0.0021849582 0.031434376 -0.015092286
9660000000 0.14339921 0.1509106 -0.0033984475 -0.0064832899 -0.003402415 -0.006466493 0.02482079 -0.041165106
9680000000 0.15710694 0.12859488 -0.0060874047 0.004057189 -0.0060401661 0.0040277643 0.01057912 -0.038588271
9700000000 0.17967282 0.12449908 0.0050453045 0.0052436027 0.0050203912 0.0051787239 -0.015722072 -0.062267955
9720000000 0.16538818 0.12719168 0.0039104717 -0.0059973453 0.0039078989 -0.0060247057 -0.043447141 -0.070039079
9740000000 0.16481036 0.10093145 -0.0055527478 -0.0028674961 -0.0055296747 -0.0028956679 -0.069150321 -0.05437253
9760000000 0.15969394 0.15345469 -0.0025924435 0.0064773848 -0.0025982994 0.0064816386 -0.092977375 -0.025911804
9780000000 0.18659268 0.10758008 0.006964758 0.0012548553 0.0069144145 0.0012416663 -0.11149092 0.013185066
9800000000 0.18344615 0.099253051 -0.00038525989 -0.0068496526 -0.00036175761 -0.0068773441 -0.10079065 0.048285052
9820000000 0.17072698 0.11290667 -0.0065391446 0.00083531241 -0.0065219491 0.00076240336 -0.090372607 0.099071942
9840000000 0.1499531 0.095993675 0.0024103615 0.0067539136 0.0023986269 0.0067812554 -0.043831091 0.12255739
9860000000 0.20394346 0.10647066 0.0058581652 -0.0037006435 0.0058467127 -0.0037065858 -0.0054366719 0.13617861
9880000000 0.17717634 0.087115914 -0.0044335742 -0.0044740103 -0.0044605555 -0.0045474535 0.048899662 0.12328499
9900000000 0.16650562 0.069083184 -0.0041750865 0.0045117834 -0.0042000897 0.0046056327 0.096468002 0.097935207
9920000000 0.16753253 0.088119157 0.0053779092 0.0031556236 0.0053756447 0.0032157195 0.12532163 0.045501057
9940000000 0.16941537 0.10347886 0.0024304523 -0.0056152334 0.0023858468 -0.0056094872 0.12618972 -0.0075576706
9960000000 0.20177762 0.061960876 -0.0058177961 -0.0013764921 -0.0058192341 -0.0014205122 0.10539848 -0.044713549
9980000000 0.1681429 0.061061826 -0.00046635291 0.0061547272 -0.00047502853 0.0061787255 0.075390294 -0.073966943
10000000000 0.14971404 0.073210135 0.0055459552 -0.00076384074 0.0054952903 -0.00075261859 0.044928961 -0.11777226
10020000000 0.19139521 0.063816972 -0.00096047076 -0.0052961227 -0.0009441243 -0.0053768191 -0.0046213656 -0.10793708
10040000000 0.17814977 0.055882368 -0.0053021736 0.0017769758 -0.0053293216 0.0016936352 -0.033962719 -0.097007491
10060000000 0.15850204 0.023054784 0.002703524 0.0051614167 0.0026569802 0.0051224134 -0.062766723 -0.087093845
10080000000 0.16561888 0.037679154 0.0044072974 -0.0027942797 0.0044083218 -0.0027848328 -0.11012826 -0.054791015
10100000000 0.15203413 0.056019217 -0.0035275344 -0.0049654753 -0.0034925458 -0.0050024041 -0.10631566 -0.017488679
10120000000 0.16445854 0.016644252 -0.0046265344 0.0048191785 -0.0046513118 0.0048401458 -0.11851577 0.0079865241
10140000000 0.1524563 0.022786096 0.0061419066 0.0034920175 0.0061457837 0.0035517928 -0.095407784 0.062681668
10160000000 0.13201025 0.017992798 0.0026855541 -0.0064537055 0.0026818567 -0.006474074 -0.073298968 0.078898773
10180000000 0.12680537 0.031779703 -0.0078189448 -0.0014105679 -0.0078615975 -0.0013708735 -0.054766461 0.092657804
10200000000 0.16307704 0.03653194 0.00080318202 0.0079611335 0.00076837576 0.0078708641 -0.015933523 0.11576998
10220000000 0.12844992 -0.001818984 0.0072436081 -0.0026323649 0.007197063 -0.0026572661 0.02714563 0.089104153
10240000000 0.13593833 -0.00054949365 -0.0035436121 -0.0064458824 -0.0035350274 -0.0064326567 0.026162807 0.086658895
10260000000 0.10713272 0.019785905 -0.0054409197 0.0053187497 -0.0054378938 0.0052898112 0.069437444 0.062063809
10280000000 0.10585492 0.012437517 0.0056255586 0.0037363346 0.0056193462 0.0037222798 0.069823883 0.018403988
10300000000 0.12980719 -0.0042263987 0.0025139439 -0.0056056129 0.0024681387 -0.005697587 0.063147843 0.015424991
10320000000 0.077768691 -0.0051911003 -0.0056006308 -0.0018555996 -0.0056052455 -0.0018332535 0.059522763 -0.017981187
10340000000 0.072975993 -0.0094173159 -0.0005672056 0.0054120515 -0.00059233431 0.00535774 0.031553309 -0.014835199
10360000000 0.09171056 0.013695681 0.0048270719 0.00070898473 0.0048234453 0.00070085988 0.02508782 -0.03099671
10380000000 0.065779909 0.0047097104 0.00044753979 -0.0053593488 0.000430202 -0.0053529618 0.013911542 -0.039011177
10400000000 0.062433686 -0.018377427 -0.0060268017 0.00049354637 -0.006024038 0.0004428422 -5.5267788e-005 -0.037940972
10420000000 0.05072346 0.010539315 0.0014476661 0.0055746846 0.0014423684 0.005557287 0.0025739891 -0.0345903
10440000000 0.030985385 0.0090450617 0.0061043911 -0.0021139935 0.0060546175 -0.0021598949 -0.021498792 -0.04319071
10460000000 0.071355738 0.0057182806 -0.0036898262 -0.0058632516 -0.0037331954 -0.0058604372 -0.049692377 -0.027227486
