!Keysight Technologies,N5242B,MY47200105,A.14.00.23
!Date: Friday, April 26, 2024 11:30:30
!Correction: S11(C  2-Port  ) 
!S21(C  2-Port  ) 
!S12(C  2-Port  ) 
!S22(C  2-Port  ) 
!S2P File: Measurement: :
# Hz S  RI   R 50
7000000000 0.064453378 0.047454551 -0.0048216069 -0.0049245125 -0.0048224926 -0.0049269074 -0.038848251 -0.010681755
7020000000 0.062411394 0.036966845 -0.0024641964 0.0055571697 -0.00242472 0.005492467 -0.064193107 0.015931698
7040000000 0.083333157 0.062643588 0.0053002816 0.0018634987 0.0053015766 0.001854917 -0.043462303 0.055815645
7060000000 0.088970356 0.055035654 0.00086971017 -0.0067032939 0.00082962919 -0.0066845869 -0.01180009 0.059098657
7080000000 0.11217352 0.045193225 -0.0061850641 0.0019741338 -0.0061575691 0.0019754637 -0.0030402166 0.087699987
7100000000 0.094185382 0.049629927 0.0022269399 0.0046148286 0.0022054662 0.0046286471 0.067603968 0.076493911
7120000000 0.10139197 0.046603177 0.0050743353 -0.0025002102 0.0050554215 -0.0024752612 0.094763115 0.031845808
7140000000 0.12841217 0.050469324 -0.0047930074 -0.0045971409 -0.0047934102 -0.0045898668 0.082601205 0.0015885229
7160000000 0.12827638 0.043351587 -0.0023434649 0.0048429873 -0.0023565684 0.004882602 0.091562614 -0.037602618
7180000000 0.1282544 0.022264009 0.0047954926 0.0021717406 0.004795216 0.002139878 0.0465286 -0.097181812
7200000000 0.1334644 0.052027266 0.0013264129 -0.0060014175 0.001332544 -0.0060090274 -0.003070601 -0.079730205
7220000000 0.13555244 0.039800428 -0.0054961066 0.0011825167 -0.0055265916 0.0011766027 -0.026777901 -0.067387544
7240000000 0.15790883 0.021682916 0.0010192585 0.0044295476 0.00098272273 0.004417853 -0.057548497 -0.0435098
7260000000 0.15412509 0.031333368 0.0051587056 -0.0016228454 0.0052070622 -0.001649405 -0.075363852 -0.013718857
7280000000 0.13933879 0.018375894 -0.0037835373 -0.0044979029 -0.0038175709 -0.0044639497 -0.065481119 0.044901058
7300000000 0.16321763 0.034385227 -0.0025664978 0.0036708403 -0.0026206509 0.0036636395 -0.036306765 0.044512149
7320000000 0.16675386 0.033144325 0.0034329856 0.002614669 0.0034075889 0.0026266649 -0.015764445 0.063335493
7340000000 0.16242906 0.0050773327 0.0022595813 -0.0044955108 0.0022547315 -0.0044558481 0.012568794 0.073188826
7360000000 0.16962609 0.022483354 -0.0046071219 -0.00088359427 -0.0046608946 -0.00086979358 0.048375484 0.053698175
7380000000 0.1628885 0.020907229 -0.00055628322 0.0043000584 -0.00060149049 0.0042821337 0.052259546 0.023834253
7400000000 0.19114508 0.013078377 0.0051102354 2.7231468e-005 0.0051858607 3.647391e-005 0.061337188 0.020169802
7420000000 0.19773154 0.0029981816 -0.0019635865 -0.0049786586 -0.0019587278 -0.0049570873 0.064099111 -0.014989756
7440000000 0.16973953 -0.0076339329 -0.0036898754 0.0023416299 -0.0037002028 0.0023160134 0.042280242 -0.0396799
7460000000 0.19526012 0.0040426389 0.0025010228 0.003788779 0.002480533 0.0037968755 0.023552593 -0.036237784
7480000000 0.18723087 0.00043038581 0.0034290836 -0.0039175772 0.0034556089 -0.0039191712 0.034809381 -0.040446971
7500000000 0.19355595 -0.013970409 -0.0042555509 -0.0017271759 -0.0042330641 -0.0017595309 0.0044443291 -0.064642459
7520000000 0.20315053 -0.022329541 -0.0012639358 0.0037467149 -0.0013362718 0.0037882132 -0.014078657 -0.053140495
7540000000 0.17383227 -0.021194106 0.0041535618 0.0010314148 0.0041259821 0.0010362507 -0.03643167 -0.059661776
7560000000 0.20036416 -0.021612484 9.525902e-006 -0.0041718492 -1.4725725e-005 -0.0041515306 -0.085256197 -0.055101831
7580000000 0.20621797 -0.026871191 -0.003792482 3.4730707e-005 -0.0038097787 5.328214e-005 -0.10733334 0.016173214
7600000000 0.1908206 -0.033986591 0.00026448857 0.0044228612 0.00030269241 0.0044129128 -0.074836925 0.074202634
7620000000 0.19653052 -0.044127967 0.0050065606 -0.0016661049 0.004977142 -0.0016506755 -0.031395677 0.09935116
7640000000 0.19821706 -0.031079011 -0.0028836189 -0.0040925639 -0.0028439001 -0.0040472713 0.0066083022 0.1106685
7660000000 0.20355077 -0.042906903 -0.0037833161 0.0031700665 -0.003798991 0.0031787718 0.07835716 0.094172321
7680000000 0.20421344 -0.056587033 0.0044775312 0.003582326 0.0045043072 0.0035919487 0.097266659 0.028264876
7700000000 0.18899357 -0.053352769 0.0018896553 -0.0054859188 0.0018951532 -0.0054585873 0.089313999 -0.0038862794
7720000000 0.18391234 -0.060811032 -0.0049659717 -0.00090742204 -0.0049439236 -0.00088184758 0.098779194 -0.040225461
7740000000 0.21185708 -0.044204418 -0.00064233231 0.0055646305 -0.00064512237 0.0055581685 0.059297848 -0.085302413
7760000000 0.19663733 -0.066491224 0.006287212 -0.001396731 0.0062508755 -0.0013830595 0.0061349873 -0.085277118
7780000000 0.18521331 -0.076770954 -0.0027013507 -0.0048094029 -0.0027244424 -0.0048408848 -0.019494168 -0.080096476
7800000000 0.196044 -0.052519549 -0.0044957451 0.0029165272 -0.0044887532 0.0028804776 -0.056115605 -0.062808134
7820000000 0.18599413 -0.063632026 0.0043116482 0.0045173513 0.0042793164 0.0045314836 -0.075870134 -0.028834565
7840000000 0.20693053 -0.066609591 0.0024516424 -0.0055086622 0.0024957086 -0.0055072564 -0.073087849 0.012308541
7860000000 0.18661754 -0.067403376 -0.0048035202 -0.0014986087 -0.0048514223 -0.0015297753 -0.03907726 0.037774988
7880000000 0.18061215 -0.074817397 -0.0010483895 0.0053702914 -0.0010569472 0.0053725583 -0.02674586 0.051677428
7900000000 0.20961045 -0.081149884 0.0058168243 -0.00062528363 0.0058167959 -0.0005859962 -0.0009174344 0.062660865
7920000000 0.18524455 -0.073204234 -0.0015263825 -0.0045267637 -0.0015190898 -0.0045000594 0.042628735 0.047051873
7940000000 0.19178437 -0.096644729 -0.0045212382 0.001505643 -0.004518324 0.0015198886 0.039140996 0.0040765312
7960000000 0.18018501 -0.081730768 0.002653508 0.0046830494 0.0027061962 0.0047066584 0.045643434 0.01401821
7980000000 0.17841265 -0.082506068 0.0034026532 -0.0037575227 0.0034544489 -0.0037511222 0.060136691 -0.034443289
8000000000 0.19913231 -0.098279424 -0.0034293316 -0.002962613 -0.0034235453 -0.002915334 0.020353455 -0.044337031
8020000000 0.17269084 -0.080465227 -0.0031888466 0.0042643552 -0.0031930958 0.0042265658 0.0052105151 -0.041329853
8040000000 0.16672868 -0.099594027 0.0057069198 0.0018197722 0.0057191891 0.0018641591 -0.0011545277 -0.054301776
8060000000 0.17564419 -0.10395006 0.00043179098 -0.0051885685 0.00043869269 -0.0051839761 -0.047753643 -0.05780144
8080000000 0.17095993 -0.08225581 -0.0054942984 -0.00022151248 -0.0055300021 -0.0002016861 -0.058338214 -0.015352122
8100000000 0.17074813 -0.12128068 0.0015192789 0.0063879518 0.0014981828 0.006330091 -0.061928108 -0.0029676165
8120000000 0.15686803 -0.10590271 0.0050682286 -0.0035184715 0.0050787791 -0.0034915435 -0.054651171 0.031690754
8140000000 0.15435268 -0.10259822 -0.0036553193 -0.0040509026 -0.003650645 -0.0040615443 -0.048411459 0.071310714
8160000000 0.1460879 -0.11741646 -0.0037653563 0.0046252129 -0.0037671574 0.0046049529 0.010100268 0.092635572
8180000000 0.15137558 -0.1000656 0.0058247736 0.0020477085 0.0058292216 0.0020278844 0.038033798 0.068056501
8200000000 0.12550882 -0.12482242 0.0002563223 -0.0050188098 0.00025555631 -0.0050302916 0.076603569 0.054181278
8220000000 0.12782063 -0.10568719 -0.0045689149 -4.4906315e-005 -0.0045463676 -2.6722839e-005 0.098164387 0.015054403
8240000000 0.1220485 -0.096535914 0.00086344138 0.004705912 0.00089056476 0.0046755737 0.10694689 -0.041752256
8260000000 0.11353962 -0.11464959 0.0036126918 -0.0015175554 0.0035842569 -0.0015390996 0.070699349 -0.073787488
8280000000 0.12353718 -0.116772 -0.0011760396 -0.0035190019 -0.0011575434 -0.0035327335 0.051016361 -0.092621267
8300000000 0.092201047 -0.097776093 -0.0040212441 0.0017465401 -0.0039986018 0.0017738265 -0.000760336 -0.11072312
8320000000 0.099230655 -0.10489839 0.0027742346 0.0035630981 0.0027595069 0.0035258804 -0.04786063 -0.10576202
8340000000 0.1192176 -0.10299928 0.0032233035 -0.0029788851 0.0032112296 -0.0029804881 -0.06866388 -0.0686564
8360000000 0.074679308 -0.10690024 -0.0038900678 -0.0032459882 -0.0038802349 -0.0032748517 -0.091067195 -0.05035368
8380000000 0.080878749 -0.10219444 -0.0022582107 0.0050613284 -0.0023026597 0.0050825612 -0.10795454 -0.0024470049
8400000000 0.069576353 -0.085435383 0.0053103981 0.0008232019 0.0053442256 0.00084195344 -0.08318413 0.042455792
8420000000 0.070871137 -0.084121928 3.431975e-005 -0.0053599011 7.7887846e-005 -0.0053984523 -0.062670991 0.063000418
8440000000 0.071006864 -0.09620288 -0.005609666 0.0012692931 -0.0056080176 0.001293955 -0.037252106 0.074145287
8460000000 0.055477943 -0.072573893 0.0028117639 0.0048347143 0.0027935889 0.0048411912 -0.0023771878 0.090082102
8480000000 0.053186055 -0.075401068 0.0035646767 -0.0031740079 0.0035730451 -0.003219859 0.042911887 0.071883649
8500000000 0.066662051 -0.075823732 -0.0033542016 -0.0032191311 -0.0034156747 -0.0031916564 0.059206989 0.041484706
8520000000 0.045696426 -0.06137681 -0.0024425827 0.0039320313 -0.0024428156 0.0039143134 0.070910498 0.035294265
8540000000 0.032142621 -0.065540373 0.0038980497 0.001889053 0.0039114784 0.0018328764 0.084949762 -0.012785623
8560000000 0.051243372 -0.051157944 0.0014421854 -0.0040466739 0.0014269662 -0.004051975 0.050535619 -0.051749736
8580000000 0.029810704 -0.048228234 -0.0044115158 -0.0010722519 -0.0043801675 -0.0010913588 0.032402314 -0.055180833
8600000000 0.030183572 -0.046022687 -0.00046870613 0.0047610966 -0.00043065482 0.0047901915 0.019793799 -0.062719516
8620000000 0.034577079 -0.028274335 0.0052005458 -0.00029213662 0.005175441 -0.00025076282 -0.013842769 -0.070459589
8640000000 0.0085680149 -0.032682862 -0.0014110029 -0.0055267601 -0.0013685975 -0.0055007809 -0.042452551 -0.041741464
8660000000 0.034645446 -0.021062102 -0.0053223078 0.0028730268 -0.0053447671 0.0028399301 -0.034543067 -0.020186715
8680000000 0.026583424 0.00046334497 0.0041246428 0.0047226637 0.0041061789 0.004720693 -0.04012559 -0.012357407
8700000000 0.014166885 -0.012528029 0.0036282761 -0.0053149736 0.0036178972 -0.0053269519 -0.051293321 0.0065547419
8720000000 0.037732851 -0.0031864054 -0.006023054 -0.002109135 -0.0060199327 -0.002128223 -0.013712042 0.029880146
8740000000 -0.0022301793 0.028347682 -0.00069623394 0.0060974336 -0.00071091065 0.0060812924 -0.0019449147 0.0099772196
8760000000 0.027962085 0.0073120133 0.0059745205 -0.00057320017 0.0059519061 -0.00055897853 0.006600251 0.029794786
8780000000 0.022868097 0.033232793 -0.0017949619 -0.0056061246 -0.0017902306 -0.0055993265 0.028924515 0.011622433
8800000000 0.0070772977 0.035515364 -0.004727114 0.0029039877 -0.0047253068 0.002862856 0.028932182 -0.011515962
8820000000 0.02024937 0.040209446 0.0034086523 0.0037430977 0.0033943122 0.0037489708 0.01965243 -0.021848807
8840000000 0.018341508 0.068498902 0.0030168362 -0.003610926 0.0030421689 -0.003620723 0.014904848 -0.033444826
8860000000 0.031098928 0.044761281 -0.0039470871 -0.0024430754 -0.003952052 -0.0024487327 9.3947172e-005 -0.055110503
8880000000 0.02278547 0.072020225 -0.0018143742 0.0040412634 -0.0018226983 0.0039983667 -0.018570775 -0.05006057
8900000000 0.020023439 0.08692763 0.0041745543 0.0014953177 0.0041809678 0.0014927973 -0.052243114 -0.031239936
8920000000 0.036132637 0.068761081 0.00093793141 -0.0045859716 0.00092051545 -0.0046159448 -0.044533905 -0.013013618
8940000000 0.040633421 0.093000986 -0.0048504239 -0.00025527537 -0.0048546484 -0.00017671284 -0.073607102 -0.0039697667
8960000000 0.030210091 0.085378692 0.00072880724 0.00498264 0.00071189803 0.0049946657 -0.063583545 0.043062758
8980000000 0.032735988 0.091976225 0.0050025894 -0.0017342729 0.0049791401 -0.0017252008 -0.026767408 0.048317615
9000000000 0.053824838 0.11273551 -0.0028905256 -0.0046859928 -0.0028566471 -0.0046903351 -0.0084187556 0.050783563
9020000000 0.040903922 0.096407741 -0.0040116096 0.0038672446 -0.0039799814 0.0038662551 -0.0021491274 0.071815923
9040000000 0.052682273 0.11632404 0.0046737543 0.0028659389 0.0047024293 0.0028924642 0.052850079 0.050312903
9060000000 0.057033792 0.11499398 0.0018045615 -0.0050756731 0.0018232106 -0.0050596013 0.043646172 0.027783969
9080000000 0.045656886 0.10858905 -0.0050352244 -0.00057661923 -0.0050394963 -0.00060251844 0.062463429 0.021255955
9100000000 0.085980259 0.12809727 0.00029687694 0.004757761 0.00027969092 0.0047660759 0.072403409 -0.0046817283
9120000000 0.056996454 0.12386956 0.0043604532 -0.00098532275 0.0043593934 -0.00097656553 0.062721066 -0.051996112
9140000000 0.069843769 0.11156248 -0.001677685 -0.0041799792 -0.001649159 -0.0041367779 0.042022567 -0.043114342
9160000000 0.085659318 0.14115645 -0.0034708094 0.002065727 -0.003438981 0.0020742677 0.041954435 -0.074319303
9180000000 0.06598448 0.12344547 0.0023570505 0.0033560782 0.0023750958 0.0033412282 -0.0053786328 -0.083618209
9200000000 0.091702893 0.12147445 0.0029347241 -0.0027849581 0.0029795775 -0.0027902601 -0.028197359 -0.076752543
9220000000 0.090492681 0.14130287 -0.003128703 -0.002692665 -0.003120346 -0.002666875 -0.056521967 -0.056599371
9240000000 0.080492295 0.13636243 -0.002492347 0.0036873072 -0.0025066247 0.0036799319 -0.066123001 -0.048022337
9260000000 0.095120855 0.13709277 0.0044318954 0.0018259694 0.0044621583 0.0018667332 -0.076489732 -0.018276198
9280000000 0.099381253 0.14631233 0.00096631813 -0.0048959334 0.00099201652 -0.004824311 -0.073599719 0.017402835
9300000000 0.10218272 0.1342535 -0.0053335936 -1.9264991e-005 -0.0053209458 -5.5920951e-005 -0.055176999 0.039296396
9320000000 0.11823765 0.15047719 0.0014770466 0.0052761096 0.0015037645 0.0052544298 -0.057944182 0.039235238
9340000000 0.10014678 0.1325824 0.0045680762 -0.0026628054 0.0045845597 -0.0026435186 -0.026996091 0.070966661
9360000000 0.11922182 0.14258189 -0.0032402182 -0.0037916608 -0.0032689127 -0.0038112504 0.0085972762 0.054014102
9380000000 0.13191696 0.16138418 -0.003104355 0.0041832463 -0.0030841718 0.0042081694 0.0057406956 0.045734711
9400000000 0.11025488 0.13384135 0.0044013029 0.0014759309 0.004370675 0.0014703599 0.034297843 0.047895674
9420000000 0.12772499 0.13967788 0.00075486756 -0.0037335628 0.00070477178 -0.0037289686 0.040574614 0.021056203
9440000000 0.14177917 0.16284457 -0.0036722254 -0.00086529495 -0.0036697255 -0.0009236068 0.03662879 -0.00030225259
9460000000 0.12143584 0.14223166 -7.5312659e-005 0.0038741196 -1.3173226e-005 0.0039032944 0.024406318 -0.0066226423
9480000000 0.15263371 0.13790397 0.0034136144 -0.0001575944 0.0034490433 -0.0001540198 0.03264337 -0.010614333
9500000000 0.12292962 0.15197746 -7.688511e-005 -0.0039456957 -0.00013267435 -0.0039319643 0.0089149494 -0.022712968
9520000000 0.15165615 0.14975809 -0.0046063275 0.0013619777 -0.0046035084 0.0012983269 -0.0038479182 -0.013943259
9540000000 0.16253851 0.14626446 0.0024463893 0.0039984304 0.0024494722 0.00403145 0.0059082257 0.0012220215
9560000000 0.13418771 0.14661971 0.0035918304 -0.0029118862 0.0035974423 -0.0029079518 0.0073558819 -0.0044649094
9580000000 0.16502266 0.12919846 -0.0039930525 -0.0034094185 -0.0039644856 -0.0034111871 -0.0095327077 0.0052992254
9600000000 0.16702428 0.15813872 -0.001937733 0.0048860484 -0.0019664539 0.0049208761 0.02200905 0.008154761
9620000000 0.14941373 0.13281152 0.004693883 0.00071464368 0.004734593 0.00074609491 0.021268982 -0.011771684
9640000000 0.16515037 0.12243435 0.00026081601 -0.0047234274 0.00031439037 -0.0046994942 0.025166135 -0.019777941
9660000000 0.15279926 0.15015809 -0.0051075006 0.0011540757 -0.0051154522 0.0010806106 0.026777888 -0.033055943
9680000000 0.15804704 0.12203354 0.0021666773 0.0040379507 0.0021462005 0.0040096389 0.017511446 -0.045795273
9700000000 0.16856791 0.12072968 0.0032874756 -0.0022421139 0.0033304149 -0.0022566286 -0.02421427 -0.066144474
9720000000 0.16484733 0.13946438 -0.0028125099 -0.003489333 -0.002764411 -0.0034518107 -0.042841855 -0.060432281
9740000000 0.173742 0.10311121 -0.0022372478 0.0037647709 -0.0021787954 0.0037217471 -0.061531685 -0.060814321
9760000000 0.1630199 0.14479898 0.0033421472 0.0014476773 0.0034346858 0.0015449229 -0.10115328 -0.031113045
9780000000 0.17513338 0.10291203 0.0012993059 -0.0033739721 0.0013359336 -0.0033852572 -0.11310158 0.021854052
9800000000 0.17995097 0.10982981 -0.0040625068 -0.00068722753 -0.0040738471 -0.00066928798 -0.093255237 0.044922676
9820000000 0.17912488 0.11866523 0.00019618942 0.0036695017 0.00020462742 0.0036553903 -0.094838798 0.095351927
9840000000 0.15425193 0.086841464 0.0035191032 -0.00042216206 0.00350307 -0.00044725824 -0.049106125 0.12600894
9860000000 0.19458321 0.10136215 -0.00093828974 -0.0039195376 -0.00093791506 -0.0039268467 0.00042694784 0.13907625
9880000000 0.17237891 0.095725246 -0.0034033114 0.0022813815 -0.0034163375 0.0022235143 0.048352186 0.11826441
9900000000 0.17310655 0.077264301 0.0023374928 0.002520534 0.0023774693 0.0024450887 0.090787701 0.098592065
9920000000 0.17489845 0.080421731 0.0023295681 -0.0023707331 0.0023241504 -0.002396032 0.12828709 0.052316152
9940000000 0.16225769 0.097609416 -0.0030939539 -0.0021078675 -0.0030592009 -0.0020990039 0.12900464 -0.012917748
9960000000 0.19488563 0.066645242 -0.0011542506 0.0033527652 -0.0012298893 0.0033219736 0.10009506 -0.043377049
9980000000 0.1720424 0.071081281 0.0031358181 0.00080543902 0.0031711506 0.00081866531 0.078389622 -0.068792157
10000000000 0.15751089 0.066937506 0.00052541151 -0.0035384144 0.00059537188 -0.0035556341 0.048454113 -0.12144078
10020000000 0.18835136 0.057588458 -0.0034926867 0.0004594879 -0.0034984867 0.00044931585 -0.0074344748 -0.10727052
10040000000 0.16784336 0.056468528 0.00093235751 0.0029330975 0.00090355001 0.0029620223 -0.032121129 -0.094199814
10060000000 0.16021259 0.03396789 0.0029888751 -0.00078215147 0.0029640833 -0.00077090407 -0.059512578 -0.090945952
10080000000 0.17494345 0.035041086 -0.0017601557 -0.0031481036 -0.0017134848 -0.0031507625 -0.11261742 -0.054381009
10100000000 0.15220787 0.049160879 -0.0024846531 0.0021909743 -0.0024153756 0.002166525 -0.10557436 -0.015455553
10120000000 0.15279946 0.014741515 0.0019986797 0.0020569949 0.0019643623 0.0020722756 -0.11483211 0.0073386845
10140000000 0.15291876 0.033590648 0.0026102762 -0.0026747375 0.0025228588 -0.0027054544 -0.098313347 0.057430148
10160000000 0.14133216 0.01919483 -0.0035349105 -0.0015591583 -0.0035515334 -0.0016393828 -0.074679352 0.082641631
10180000000 0.12936337 0.022823736 -0.00096043205 0.0033885455 -0.00095534569 0.0033629285 -0.049582679 0.092395
10200000000 0.15290041 0.033185661 0.0038636122 0.00084345363 0.0038764188 0.0008691033 -0.017423583 0.10899132
10220000000 0.1264724 0.006750932 -0.00054036087 -0.0045345421 -0.00057405612 -0.0045412574 0.020593435 0.095226578
10240000000 0.14414605 0.0034838452 -0.0036711027 0.0016013734 -0.0036324584 0.0015893332 0.033121325 0.089752816
10260000000 0.11233469 0.011374259 0.0017089138 0.0034606515 0.0017108798 0.0034326632 0.069587961 0.052436206
10280000000 0.095656671 0.0084303729 0.0035591053 -0.0029087574 0.0035484042 -0.0029123991 0.061318167 0.023810033
10300000000 0.1267229 0.0029942787 -0.0037684208 -0.0019552084 -0.0037006163 -0.001947728 0.070058934 0.019922676
10320000000 0.083796181 0.0035092025 -0.0011171837 0.0031287563 -0.0011092342 0.0031015454 0.061478212 -0.024627414
10340000000 0.080318347 -0.018417407 0.0034590801 0.0012842128 0.0035015668 0.0013018369 0.024566114 -0.014106653
10360000000 0.08527945 0.0086413641 -0.00023759466 -0.0038531495 -0.00021834181 -0.0038654334 0.028239112 -0.025660386
10380000000 0.059306439 0.0087821791 -0.0027921889 0.00083281525 -0.0027160577 0.00082003587 0.017717315 -0.042622175
10400000000 0.067510404 -0.0097186659 0.00024324529 0.0026010131 0.00018788286 0.00257956 -0.0051157214 -0.040844511
10420000000 0.057676606 0.0041923588 0.003319171 -0.0010948513 0.0033257594 -0.0010844573 0.0024320933 -0.028137604
10440000000 0.027119048 0.0038168286 -0.0017089585 -0.0022849403 -0.0017465216 -0.0022931085 -0.017138809 -0.044612356
