!Keysight Technologies,N5242B,MY47200105,A.14.00.23
!Date: Friday, April 26, 2024 11:27:23
!Correction: S11(C  2-Port  ) 
!S21(C  2-Port  ) 
!S12(C  2-Port  ) 
!S22(C  2-Port  ) 
!S2P File: Measurement: :
# Hz S  RI   R 50
7000000000 0.050868351 0.053639241 -0.0033859322 -0.0049337652 -0.003378653 -0.0049441205 -0.036326189 0.0042484431
7020000000 0.06781844 0.051054697 -0.0047036828 0.00560117 -0.0047148219 0.0055736923 -0.049901322 0.0014134542
7040000000 0.097093113 0.058689408 0.0064545623 0.0021820983 0.0065118144 0.0022296563 -0.058645934 0.049697429
7060000000 0.086099923 0.040749192 0.0011734064 -0.0063655335 0.001154323 -0.006368624 -0.0095710363 0.075937554
7080000000 0.097761646 0.047531128 -0.0072093313 3.3278244e-005 -0.0072148754 1.0780769e-005 0.011201066 0.073064335
7100000000 0.095374867 0.063622408 0.0027182053 0.0068184976 0.0027151797 0.0068311449 0.04978475 0.070924848
7120000000 0.11539754 0.047031194 0.0052074115 -0.0034883383 0.0052053286 -0.0034654744 0.094566405 0.047619797
7140000000 0.12995891 0.036639389 -0.0040924037 -0.0049833381 -0.0040964177 -0.0049825953 0.097426757 -0.0084566595
7160000000 0.11520248 0.04119911 -0.003984083 0.0060540899 -0.0039944677 0.0060365307 0.072094947 -0.044367384
7180000000 0.1248068 0.034661893 0.0061614187 0.0013790098 0.0061486559 0.001349938 0.048245322 -0.080488637
7200000000 0.14535345 0.056604803 0.00067722565 -0.0052300896 0.00068667991 -0.0052059442 0.0096556172 -0.085405782
7220000000 0.14076981 0.028221201 -0.0056954846 -8.3684296e-005 -0.0056523019 -7.4303607e-005 -0.04112006 -0.07627815
7240000000 0.14775823 0.015538886 0.0016414119 0.0052981409 0.00161884 0.005291394 -0.057512831 -0.026383758
7260000000 0.14636552 0.040970229 0.0042105466 -0.0018514249 0.0041895811 -0.0018493512 -0.062270071 -0.018247331
7280000000 0.14781263 0.026993206 -0.0020126479 -0.00443241 -0.0019797944 -0.0044493019 -0.076087907 0.036280956
7300000000 0.17222279 0.026598103 -0.0041626664 0.0035108989 -0.0041674105 0.003551316 -0.037093576 0.058851946
7320000000 0.16005024 0.023427792 0.0035835577 0.0027977023 0.0035778836 0.0027820128 -0.0043304265 0.060143925
7340000000 0.15184341 0.011183417 0.0031685091 -0.0034979503 0.0031722796 -0.0035256455 0.0072472845 0.063940004
7360000000 0.17514357 0.033754438 -0.0054184459 -0.0029929727 -0.0053875693 -0.0029838327 0.044106353 0.064476483
7380000000 0.17440857 0.016848158 -0.00077453692 0.0060152211 -0.00078930962 0.0060250512 0.062959343 0.022883235
7400000000 0.18784198 0.00073480507 0.0056473892 -0.00031848784 0.0056878841 -0.00030454775 0.058644909 0.0096290782
7420000000 0.18534946 0.0057214759 -0.0013996473 -0.0059327604 -0.0014121732 -0.0059088571 0.055942368 -0.0080015128
7440000000 0.17153326 0.0041543408 -0.0049952986 0.003507612 -0.005040715 0.0035228743 0.053991683 -0.036982197
7460000000 0.20719521 0.0035266022 0.0037181568 0.0032435313 0.0036941236 0.0032473654 0.022224495 -0.048131116
7480000000 0.18705773 -0.011968608 0.002895562 -0.0035774577 0.0028348111 -0.0035839274 0.023560906 -0.035450548
7500000000 0.18184797 -0.014291365 -0.0043851528 -0.0021504059 -0.0043871878 -0.0021370887 0.015677234 -0.057762567
7520000000 0.20110761 -0.010928512 -0.00065118558 0.0038578527 -0.00067938044 0.003840419 -0.014619194 -0.066368535
7540000000 0.18487589 -0.018585918 0.0030363167 0.0010177043 0.0030004771 0.0010455216 -0.048255555 -0.054016855
7560000000 0.20346414 -0.031957157 0.0014214182 -0.0037873869 0.0014504399 -0.0038096302 -0.076036252 -0.047996916
7580000000 0.19706915 -0.030310683 -0.0045318529 -0.00052763341 -0.0045357826 -0.00059096783 -0.10625961 0.0055593313
7600000000 0.18588033 -0.025432074 -8.467742e-005 0.0045874566 -8.9681882e-005 0.0046103788 -0.084595606 0.076516196
7620000000 0.20490162 -0.038711019 0.0055030412 -0.00059318583 0.0054827728 -0.00055267214 -0.027490107 0.1097118
7640000000 0.20402783 -0.038678236 -0.0027335321 -0.0058514923 -0.002720376 -0.0058697411 0.013100005 0.10151866
7660000000 0.19720848 -0.049616694 -0.0045285528 0.0041215545 -0.0045450064 0.0040791971 0.067160152 0.094922096
7680000000 0.196583 -0.051019117 0.0046687331 0.0039112377 0.0046387981 0.0039423336 0.10044836 0.038543176
7700000000 0.19409676 -0.045935817 0.0031765883 -0.006166786 0.0031994672 -0.0061375676 0.098605826 -0.010190447
7720000000 0.19132914 -0.064817816 -0.0067650648 -0.00069643452 -0.0067609414 -0.0007371559 0.089507699 -0.042134825
7740000000 0.20854078 -0.052403934 0.0005307775 0.0059885876 0.00052337343 0.0060115112 0.060811143 -0.074134447
7760000000 0.18799822 -0.063697226 0.0061206627 -0.0012774749 0.0061241915 -0.0012822652 0.017477907 -0.090947628
7780000000 0.18711489 -0.068365172 -0.0032932663 -0.0058034365 -0.0033525093 -0.0057899058 -0.029168343 -0.085946456
7800000000 0.20480648 -0.052778859 -0.0038356022 0.0040961974 -0.0038342893 0.00411607 -0.054237563 -0.054064911
7820000000 0.18590595 -0.072606996 0.0038287356 0.0032968193 0.0038361985 0.0032447923 -0.064237855 -0.032113332
7840000000 0.19866724 -0.066787079 0.0029283818 -0.0047827419 0.002900793 -0.0047667087 -0.082309857 0.0017330769
7860000000 0.18514277 -0.059518859 -0.0049241725 -0.0012625215 -0.0049260077 -0.0013589475 -0.04164109 0.048275523
7880000000 0.18904744 -0.072634242 -0.00088771281 0.004325131 -0.00087423885 0.0043372228 -0.016211316 0.047246318
7900000000 0.21201906 -0.089454927 0.0049134973 0.00097012665 0.0049263751 0.0010205772 -0.0089386413 0.05125811
7920000000 0.17765401 -0.07630083 -0.00046092356 -0.0055011953 -0.00046288027 -0.0055192639 0.036437109 0.058409922
7940000000 0.18781561 -0.089065485 -0.0049778279 0.0012833996 -0.0049709263 0.0013217359 0.048403125 0.0028791665
7960000000 0.18735817 -0.077778853 0.0016699085 0.0053421091 0.0017381777 0.005365862 0.039033532 0.0038148304
7980000000 0.18219779 -0.089310601 0.0055925394 -0.0037521431 0.0056053605 -0.0037346203 0.051707495 -0.023313796
8000000000 0.19328968 -0.10247856 -0.0051281848 -0.0037785815 -0.0051261163 -0.0038384097 0.02950961 -0.041209728
8020000000 0.16724639 -0.07441657 -0.0028361252 0.0052425982 -0.0027806857 0.0052342666 0.003218702 -0.050172552
8040000000 0.172335 -0.094710693 0.0061884448 0.0020324118 0.0061931177 0.0020383813 -0.011100906 -0.045499995
8060000000 0.18054856 -0.10808945 -0.00036454666 -0.0066366908 -0.00037830151 -0.0066679749 -0.035869498 -0.052477337
8080000000 0.16704343 -0.087647624 -0.0052827355 0.0014417542 -0.0052344268 0.001446621 -0.058316432 -0.023524214
8100000000 0.16564593 -0.11755707 0.0018340907 0.0050662952 0.0018009177 0.0050754766 -0.069726862 0.0012803472
8120000000 0.15965912 -0.1012857 0.0049023097 -0.0032730282 0.0049135471 -0.0032621147 -0.043004565 0.039919283
8140000000 0.15949935 -0.10435967 -0.0038761946 -0.0030555676 -0.0038589512 -0.0030505983 -0.047948916 0.06047859
8160000000 0.14391822 -0.122564 -0.0028310288 0.0032602816 -0.002786343 0.00321019 0.0033146292 0.095963158
8180000000 0.14655143 -0.098803423 0.0042676688 0.0030049165 0.0042341361 0.0030025828 0.046189774 0.074342571
8200000000 0.12540983 -0.12036995 0.0012992114 -0.0049821222 0.0012953044 -0.0049917027 0.079154484 0.043826528
8220000000 0.132872 -0.10519975 -0.0041597085 -0.0007332192 -0.0041951933 -0.00074511918 0.090908065 0.016410146
8240000000 0.12200926 -0.10113452 -0.00072208839 0.004730016 -0.00073092536 0.0047331131 0.11252591 -0.035344757
8260000000 0.10954572 -0.11534446 0.0053470777 -0.00061557128 0.0053368509 -0.00061420171 0.0744716 -0.084451936
8280000000 0.12176394 -0.11240277 -0.0016730421 -0.004706407 -0.0017222379 -0.0047340663 0.042894673 -0.091588691
8300000000 0.096174173 -0.096114233 -0.0046067447 0.0021297517 -0.0046338639 0.0021634914 0.0020823211 -0.10632116
8320000000 0.10099429 -0.10840949 0.0035380975 0.0044316952 0.0035742903 0.0044166651 -0.043337699 -0.11149718
8340000000 0.11594434 -0.10552302 0.0030095279 -0.0043458394 0.0030459543 -0.0043249675 -0.077101924 -0.071366124
8360000000 0.072195411 -0.10300208 -0.0044367304 -0.0022166423 -0.004436906 -0.0022092697 -0.091711923 -0.044655699
8380000000 0.083988577 -0.10010296 -0.0015876452 0.0048725251 -0.0016124083 0.0048621353 -0.1023197 -0.0042421734
8400000000 0.072129466 -0.087945975 0.0052794516 0.00022260111 0.0052742539 0.00022689818 -0.089648739 0.036241371
8420000000 0.068054684 -0.087372445 -0.00072260603 -0.0045086159 -0.00072970212 -0.0045275711 -0.065587282 0.070812456
8440000000 0.068275809 -0.093285903 -0.0043052621 0.00095279282 -0.0042918208 0.00098334602 -0.031119464 0.075078562
8460000000 0.056965169 -0.070097901 0.00169259 0.0044489102 0.0017432772 0.0044155177 -0.0059907846 0.083787553
8480000000 0.056342896 -0.076993734 0.0036408727 -0.0025495805 0.0036415146 -0.0025645713 0.037238397 0.080074668
8500000000 0.065028809 -0.078371264 -0.0025070428 -0.0032824713 -0.0025239282 -0.0032789093 0.066861115 0.044189256
8520000000 0.043068524 -0.059936363 -0.0034754276 0.0031523015 -0.0034893933 0.0031473686 0.068359919 0.029503305
8540000000 0.033147775 -0.06324634 0.0041651656 0.0030004794 0.0042308541 0.0029420669 0.081262045 -0.0058404375
8560000000 0.053976938 -0.051776059 0.0019242676 -0.0046027671 0.0019201738 -0.0046063107 0.057853214 -0.050946232
8580000000 0.028964031 -0.050541759 -0.0049609966 -0.0015015192 -0.0049647451 -0.00147455 0.0345615 -0.058907937
8600000000 0.027939323 -0.045744333 -0.00034551875 0.0056013041 -0.00034637586 0.0055871308 0.014799117 -0.06109187
8620000000 0.034559663 -0.025951033 0.0056625502 -0.00082436285 0.0056158747 -0.00086656655 -0.0071976595 -0.066041775
8640000000 0.011008544 -0.032687306 -0.001891676 -0.005567105 -0.0019541241 -0.0055543492 -0.040511481 -0.048804104
8660000000 0.034838546 -0.022897519 -0.0053020306 0.0034753548 -0.0052882191 0.0034901546 -0.039623231 -0.021200689
8680000000 0.024539767 -1.8276911e-005 0.0046016946 0.0039509474 0.0046198945 0.0039749914 -0.037271243 -0.0063958536
8700000000 0.01377533 -0.010034655 0.002869887 -0.00507539 0.002909513 -0.0050849118 -0.045413431 -0.0023165145
8720000000 0.040092524 -0.0028877507 -0.005579846 -0.0018210043 -0.0055535911 -0.001788539 -0.023651605 0.027688477
8740000000 -0.001877851 0.026333841 -0.00031118403 0.0057071312 -0.00028031119 0.0057125119 0.0022776984 0.018861366
8760000000 0.025279954 0.0065824408 0.0050060372 -0.00081097527 0.0049914741 -0.00080090517 0.0098393243 0.019806318
8780000000 0.022664322 0.036081534 -0.0012145463 -0.0045393347 -0.001207527 -0.0045482074 0.018732691 0.011771766
8800000000 0.0089307325 0.035696056 -0.0044492311 0.0017584161 -0.0044632545 0.0018008306 0.031279806 -0.0042676711
8820000000 0.020815128 0.038554199 0.0025983395 0.0039608348 0.0026006636 0.0039236774 0.024304923 -0.028115973
8840000000 0.016256604 0.068108983 0.0035175032 -0.0029616519 0.0035031205 -0.002899681 0.0062231952 -0.031572953
8860000000 0.031028261 0.047268637 -0.0034652692 -0.0032367148 -0.0034631537 -0.0032407476 0.0016430612 -0.049699534
8880000000 0.024646446 0.072060831 -0.0027620636 0.0041649858 -0.0027635379 0.0041296883 -0.015124203 -0.050511342
8900000000 0.020724319 0.085057713 0.0048714234 0.0020846862 0.0048340149 0.0021340128 -0.055514462 -0.03322532
8920000000 0.034292351 0.068771914 0.00098727341 -0.0055086953 0.00097550091 -0.0054502068 -0.045531601 -0.0079817697
8940000000 0.040214028 0.094576433 -0.0055988017 0.00046568838 -0.0055600284 0.00046769792 -0.068511583 -0.0021087679
8960000000 0.031654041 0.086209014 0.0016163627 0.0050754612 0.00157686 0.0051116245 -0.062721975 0.037928782
8980000000 0.033274595 0.08939629 0.0046399469 -0.0023737545 0.0046649608 -0.0023430961 -0.029252209 0.052081913
9000000000 0.051772859 0.11289488 -0.0034218149 -0.0041324347 -0.0034488179 -0.0041181608 -0.0025764839 0.053217433
9020000000 0.0400788 0.097896218 -0.0028691543 0.0041388487 -0.0028611922 0.0041313665 -0.0029763768 0.063933983
9040000000 0.054062381 0.11761305 0.0040500988 0.0017478182 0.0040753544 0.0017730356 0.050139777 0.053353947
9060000000 0.058274686 0.11308593 0.0013668189 -0.003913743 0.0013710804 -0.003880732 0.04786884 0.027583139
9080000000 0.044233445 0.10821114 -0.0041272617 -0.0006678729 -0.0041350606 -0.00071341282 0.062007781 0.015379804
9100000000 0.08462058 0.12956981 4.8197326e-005 0.0039558448 2.6465461e-005 0.0039344751 0.066756077 -0.0016939343
9120000000 0.058596555 0.12549311 0.003570837 -0.0004372269 0.0036173104 -0.00042751009 0.067410931 -0.050885465
9140000000 0.071764611 0.10998719 -0.00063335331 -0.0037142639 -0.00064302253 -0.0036940726 0.039802019 -0.048167132
9160000000 0.084223613 0.13930869 -0.0037327034 0.0011409281 -0.0037401512 0.0011520893 0.037528481 -0.071483076
9180000000 0.063596942 0.1247251 0.0018458102 0.0038827723 0.0018054331 0.0038667319 -0.0031509905 -0.081806421
9200000000 0.09332186 0.12376 0.0035927033 -0.0026587164 0.0035783388 -0.002672059 -0.028330356 -0.077565096
9220000000 0.092625707 0.1396375 -0.0034051021 -0.0030693 -0.0033433877 -0.003050406 -0.060783572 -0.05730211
9240000000 0.079027809 0.13335311 -0.0027427441 0.0040121255 -0.0027187257 0.0039976425 -0.065438591 -0.043152355
9260000000 0.092023723 0.13882129 0.0050355401 0.0017569743 0.0050314567 0.0017443106 -0.073898137 -0.018500516
9280000000 0.10037436 0.14916794 0.00023568782 -0.005226925 0.00022598385 -0.005270747 -0.075480923 0.01500457
9300000000 0.1049134 0.13381362 -0.0048785061 0.00095564296 -0.0048887967 0.00099173747 -0.057575718 0.04466695
9320000000 0.1174548 0.14756894 0.0018950761 0.0043518608 0.0019038201 0.0043551722 -0.051672589 0.040024024
9340000000 0.097500727 0.1335829 0.0036691967 -0.0027020394 0.0036728231 -0.0027079775 -0.028779825 0.065767527
9360000000 0.12008204 0.14542361 -0.0029828842 -0.0026130229 -0.0029960605 -0.0025943858 0.006955096 0.060334321
9380000000 0.13484889 0.16136193 -0.0021095194 0.0029519154 -0.0020925668 0.0030083519 0.011877036 0.045082424
9400000000 0.11072069 0.13005285 0.003048273 0.001567962 0.003088261 0.001605483 0.032542337 0.044281516
9420000000 0.12501593 0.13911216 0.0010808414 -0.0028203225 0.0010580552 -0.0028061958 0.038863789 0.022299116
9440000000 0.14069018 0.16572779 -0.0026593504 -0.0014575882 -0.0026798511 -0.0014948518 0.041682292 0.00080719963
9460000000 0.12391876 0.14327712 -0.0012905817 0.0035844937 -0.0013042644 0.0035885999 0.023312904 -0.011714922
9480000000 0.15366684 0.13476843 0.003965022 0.00060924597 0.0039648903 0.00058306975 0.030741712 -0.0090511153
9500000000 0.12014353 0.15061827 0.00014137849 -0.0043042954 0.00015680926 -0.0043311543 0.011415177 -0.023440933
9520000000 0.1494773 0.15292169 -0.0051624868 0.0011071904 -0.0051376643 0.0011575656 -0.0050983746 -0.016584637
9540000000 0.164672 0.14868693 0.0029980168 0.0044400091 0.0029805962 0.0043914476 0.0025368028 0.0011090955
9560000000 0.13681948 0.14428431 0.0033040489 -0.0035867186 0.0033047649 -0.0035944735 0.0078951353 -0.003657578
9580000000 0.16375057 0.12647061 -0.0040718247 -0.0026844677 -0.0041140993 -0.0026240586 -0.0097870231 0.0016770316
9600000000 0.16364132 0.16034803 -0.0013702088 0.0049121273 -0.0013700966 0.0049359901 0.018615337 0.010887415
9620000000 0.15156974 0.13596699 0.0043475912 -0.00026534786 0.0044050575 -0.00022397877 0.020306014 -0.011233726
9640000000 0.16871215 0.12090462 -0.00045169695 -0.0035849963 -0.00048887532 -0.0036123004 0.025637541 -0.018577008
9660000000 0.15191759 0.14569913 -0.0037091591 0.00092434505 -0.0037346222 0.00090245222 0.023460083 -0.034204595
9680000000 0.15355566 0.123022 0.001716432 0.0031321677 0.001681919 0.0031218638 0.016204434 -0.03997146
9700000000 0.16940625 0.12415818 0.0024845444 -0.0015802559 0.0024849363 -0.0015659271 -0.020254053 -0.066181354
9720000000 0.16806856 0.13926718 -0.0017529633 -0.0028768526 -0.0017708251 -0.0028995408 -0.045441028 -0.062320307
9740000000 0.17371614 0.099145658 -0.0023099736 0.0024820319 -0.0024406484 0.0025146923 -0.062374018 -0.055307329
9760000000 0.15877269 0.14472695 0.0026692057 0.0020409762 0.0026964289 0.001987814 -0.095187977 -0.030578747
9780000000 0.1743166 0.10694891 0.0018892257 -0.002882886 0.0019215293 -0.0028980654 -0.11574185 0.018547235
9800000000 0.18388508 0.11137427 -0.0039818725 -0.0012554961 -0.004007569 -0.0012193997 -0.091913715 0.049103048
9820000000 0.18068427 0.1152808 -0.00010553664 0.003712802 -7.427606e-005 0.0037726245 -0.092005253 0.093270168
9840000000 0.15178432 0.084593378 0.0036609871 -0.00037220665 0.0036390119 -0.00037024997 -0.047724314 0.12563191
9860000000 0.19207667 0.10488938 -0.0010281784 -0.0039466415 -0.0010860648 -0.0039436417 -1.0717341e-005 0.13828923
9880000000 0.17605062 0.098247424 -0.0032264683 0.0026092469 -0.0032397998 0.0026243073 0.049342334 0.1173992
9900000000 0.17533605 0.073644184 0.0026499333 0.0019254587 0.0027017773 0.0019508984 0.092392609 0.098948561
9920000000 0.17287901 0.076743782 0.0014531018 -0.002330468 0.001453016 -0.0023172132 0.12666941 0.048498873
9940000000 0.15788202 0.099587992 -0.0025061867 -0.0014053195 -0.0025330544 -0.00140524 0.12824453 -0.011420227
9960000000 0.19714363 0.070384495 -0.00057542982 0.0026679195 -0.00059381622 0.0026656198 0.10165241 -0.04697217
9980000000 0.17494917 0.069335476 0.0020479343 0.00037742179 0.0020265682 0.00036011013 0.074291252 -0.069676861
10000000000 0.15675479 0.062809356 0.00062614365 -0.0021317746 0.00061582186 -0.0020979356 0.048914332 -0.1195557
10020000000 0.18352827 0.05940441 -0.0024018891 -0.00022456511 -0.0024303156 -0.00023974231 -0.00934151 -0.10944007
10040000000 0.16838509 0.06062676 -6.0102539e-005 0.0023010443 -8.4850632e-005 0.0023075105 -0.034625243 -0.09368147
10060000000 0.16500728 0.034482572 0.002874387 0.00026881674 0.0028517141 0.00026384086 -0.059509531 -0.087131426
10080000000 0.17567436 0.030419685 -0.00090353144 -0.0032958575 -0.00090775423 -0.0033042727 -0.11301017 -0.057150509
10100000000 0.14804512 0.048414849 -0.0028789092 0.0015581147 -0.0028788697 0.001538874 -0.10727455 -0.012906694
10120000000 0.1515815 0.018447632 0.0017752931 0.0026716343 0.0017045574 0.0026828444 -0.11383583 0.0086395349
10140000000 0.15777083 0.035417758 0.0028343764 -0.0029014514 0.0028661515 -0.0029380878 -0.09812656 0.059752114
10160000000 0.1430026 0.0142068 -0.0037054052 -0.0015192714 -0.003720188 -0.0015129275 -0.074390352 0.082081139
10180000000 0.12567566 0.020121319 -0.00055817491 0.0034588217 -0.00052541797 0.0035099913 -0.050261319 0.094454631
10200000000 0.14868197 0.036970638 0.0034163592 0.00025567602 0.0034103279 0.00024704411 -0.015972856 0.10961483
10220000000 0.13007371 0.010559126 -0.00099906023 -0.0037919341 -0.00095818151 -0.0038324557 0.022854473 0.093834735
10240000000 0.14703864 0.00054510287 -0.0027971433 0.0017722801 -0.0027450805 0.0017791011 0.031924281 0.087967888
10260000000 0.10959143 0.0076390202 0.0015973854 0.0021678193 0.0016439795 0.0021500033 0.070053771 0.056138534
10280000000 0.091023408 0.011690877 0.0021887079 -0.0019059241 0.0021825833 -0.0018730043 0.065105423 0.019598458
10300000000 0.12934692 0.0077584693 -0.0022935809 -0.0014634009 -0.0022424413 -0.0014241071 0.066328473 0.019557834
10320000000 0.088748187 0.0017577292 -0.0011659336 0.0018313685 -0.0011708341 0.0018774697 0.062629089 -0.023554435
10340000000 0.079317667 -0.02356308 0.0022196639 0.0015077121 0.0022168043 0.0015235102 0.024788504 -0.015696734
10360000000 0.08072304 0.010024302 0.00069491076 -0.0027143189 0.00068139995 -0.0027090793 0.027384834 -0.026758498
10380000000 0.059418619 0.01314738 -0.0023691661 -0.00033864842 -0.0023168898 -0.00037025803 0.017056247 -0.042550448
10400000000 0.072830908 -0.0097873816 -0.00063357793 0.002720471 -0.00065214047 0.0027282846 -0.0062526809 -0.040690515
10420000000 0.057706788 -0.0016128708 0.0036536772 -0.00055793882 0.0035850662 -0.00059959275 0.0022657746 -0.028612878
10440000000 0.021903997 0.0029280165 -0.0016019348 -0.0026449582 -0.0016160159 -0.0027157343 -0.018148316 -0.045663416
