!Keysight Technologies,N5242B,MY47200105,A.14.00.23
!Date: Friday, April 26, 2024 11:28:39
!Correction: S11(C  2-Port  ) 
!S21(C  2-Port  ) 
!S12(C  2-Port  ) 
!S22(C  2-Port  ) 
!S2P File: Measurement: :
# Hz S  RI   R 50
7000000000 0.0571284 0.060958002 0.001005361 -0.0074123484 0.00098348025 -0.0074310261 -0.042908568 -7.0747679e-005
7020000000 0.076162763 0.047151905 -0.0087817283 -6.1494698e-005 -0.0087677715 -5.0684379e-005 -0.047915816 0.012841556
7040000000 0.092741527 0.047507159 0.0034438337 0.0091726249 0.0034422264 0.0091773439 -0.049024481 0.038949788
7060000000 0.076385044 0.045152467 0.0067810011 -0.00540938 0.0067664185 -0.0054303952 -0.021711314 0.069200031
7080000000 0.099602111 0.055782255 -0.0057547712 -0.0059383251 -0.0057890723 -0.0059293122 0.012784235 0.085305244
7100000000 0.10573307 0.063314348 -0.0051451414 0.007731643 -0.0051782532 0.0077608731 0.058013529 0.059337176
7120000000 0.11353523 0.035625335 0.0088634072 0.002023289 0.0088508464 0.0020260452 0.081045203 0.043502256
7140000000 0.1204632 0.037010677 0.00034002564 -0.0078122001 0.00035277798 -0.0077916528 0.096168838 0.002822394
7160000000 0.11220738 0.050124113 -0.0080010211 0.00059400336 -0.0079820994 0.00060326536 0.082382053 -0.051810652
7180000000 0.13584948 0.037751254 0.0029812045 0.0077824001 0.002952578 0.0077793426 0.032980666 -0.083489262
7200000000 0.14719366 0.046699777 0.0056894706 -0.0039641652 0.0056858836 -0.0039553121 0.010536461 -0.072715752
7220000000 0.13276649 0.023986124 -0.0037639858 -0.0052824537 -0.0037638003 -0.0052652424 -0.032287836 -0.079095423
7240000000 0.14101407 0.024192717 -0.005170573 0.0051922551 -0.0051580966 0.0051747984 -0.068675645 -0.031357214
7260000000 0.15556383 0.046594791 0.0059246472 0.0033418713 0.0059764748 0.0033658624 -0.061669022 -0.0045401817
7280000000 0.15368542 0.019283809 0.0027706006 -0.0055854828 0.0027717378 -0.0055549317 -0.064374067 0.032882124
7300000000 0.16611859 0.017499454 -0.0067327335 -0.0024855789 -0.0067382888 -0.0025235517 -0.045446116 0.053001534
7320000000 0.15047766 0.030623356 -0.00059869292 0.0073744534 -0.00055380474 0.0073720841 -0.0033366473 0.072028212
7340000000 0.15748465 0.019083243 0.0069517139 -0.00041144484 0.0069804569 -0.00042450716 0.018315148 0.060433857
7360000000 0.18402056 0.029968079 -0.0015091855 -0.0076548853 -0.0015204367 -0.0076525761 0.038164265 0.05631505
7380000000 0.17016752 0.0047390228 -0.0074718352 0.004169859 -0.0075051817 0.0041394671 0.062607557 0.031926077
7400000000 0.17700733 0.005435518 0.0056187231 0.0052559725 0.0055832299 0.0052801436 0.067910731 0.0073815715
7420000000 0.18730211 0.015152726 0.0042669219 -0.0057174801 0.0042343959 -0.0056889951 0.052532326 -0.017087711
7440000000 0.18276042 0.0041910214 -0.0066466043 -0.0031332637 -0.0066625662 -0.0031065135 0.048542731 -0.031723697
7460000000 0.20634744 -0.0089958021 -0.0011585822 0.0067555532 -0.0011486178 0.0067597511 0.030846836 -0.047974139
7480000000 0.17635667 -0.011963243 0.005918547 0.00035489362 0.0059065772 0.00034726106 0.020863803 -0.044897061
7500000000 0.17941828 -0.0041494514 -0.0002068043 -0.0061140223 -0.00018652015 -0.0061030914 0.0066219708 -0.05428632
7520000000 0.21263346 -0.0082691927 -0.0056594792 0.0014274241 -0.0056920559 0.0013842194 -0.0083895251 -0.062234469
7540000000 0.18724021 -0.02961353 0.0014779302 0.0049802857 0.0014603889 0.0050161262 -0.04902548 -0.064373828
7560000000 0.19418973 -0.036831208 0.0056265746 -0.0014908091 0.0056616766 -0.001504146 -0.08672899 -0.043038379
7580000000 0.18977405 -0.020637581 -0.0031371173 -0.0063686264 -0.0031141352 -0.0063548838 -0.099703021 0.012214051
7600000000 0.19586636 -0.019422757 -0.0054166694 0.0047186879 -0.0054061953 0.0046987506 -0.083797514 0.068159968
7620000000 0.2109441 -0.046712074 0.0053809988 0.0048155887 0.0053843153 0.0048055043 -0.037075546 0.11220942
7640000000 0.19712368 -0.04779904 0.0043956959 -0.0069342251 0.0043357476 -0.0069307769 0.017826917 0.11175406
7660000000 0.18703413 -0.04152894 -0.0086298585 -0.0023389759 -0.0086039044 -0.0023551709 0.072419047 0.085252985
7680000000 0.20390508 -0.042337552 -4.0314153e-005 0.0084005855 -7.9799414e-005 0.0083828615 0.089575417 0.041471791
7700000000 0.20318304 -0.05050448 0.0083812606 -0.0012322976 0.0083508957 -0.0012288759 0.1050396 -3.806243e-005
7720000000 0.18734464 -0.076988414 -0.0032562169 -0.00824669 -0.0032597166 -0.00830187 0.095796317 -0.050333936
7740000000 0.19743814 -0.047729 -0.0068867318 0.0051238076 -0.006924287 0.0051028635 0.051952116 -0.075135805
7760000000 0.1903576 -0.053993229 0.0058048964 0.0055894251 0.0057922327 0.0055897613 0.02240823 -0.080279872
7780000000 0.19830823 -0.068984479 0.0046325768 -0.0069234874 0.0046794727 -0.0069219875 -0.018518992 -0.094586022
7800000000 0.20384809 -0.065637894 -0.0075702681 -0.0027497236 -0.0075672357 -0.002738246 -0.064519159 -0.056619607
7820000000 0.17463049 -0.07231418 -0.0014908151 0.0071743438 -0.0014960477 0.0071359649 -0.061100412 -0.02420029
7840000000 0.19591385 -0.056693804 0.0076377555 0.00088987208 0.0076141031 0.00091095071 -0.072232835 -0.0050118589
7860000000 0.19689931 -0.055888038 -0.00088456337 -0.0081533976 -0.00088666886 -0.0081764404 -0.050917372 0.040440455
7880000000 0.19169268 -0.084038146 -0.00709463 0.0025271445 -0.0071079275 0.0025100431 -0.017343188 0.057057273
7900000000 0.20259047 -0.094035245 0.0028568932 0.0068748798 0.0028609566 0.0068765883 -0.00010795952 0.045535713
7920000000 0.17036794 -0.066323675 0.0071485043 -0.0042950604 0.0071275742 -0.0042794007 0.026491571 0.048983477
7940000000 0.19877967 -0.082915939 -0.0064394409 -0.0060352627 -0.0064629996 -0.0060462239 0.044168193 0.013542681
7960000000 0.19325839 -0.086211041 -0.0044996683 0.0069623557 -0.0044843243 0.0069317529 0.0477903 0.0017287064
7980000000 0.17568293 -0.098554499 0.0080217347 0.0036969858 0.0080233468 0.0037031467 0.042841762 -0.032215804
8000000000 0.18279055 -0.09453126 0.0017257552 -0.0092066033 0.001716556 -0.0092308233 0.023453146 -0.030171312
8020000000 0.17468573 -0.066102833 -0.0090592289 0.00068761787 -0.0090554617 0.00067772501 0.012632994 -0.048962668
8040000000 0.18108527 -0.099902935 0.0020493371 0.0084684687 0.0020982318 0.0084552243 -0.016176667 -0.054062381
8060000000 0.17661805 -0.11975597 0.0082372874 -0.0039540045 0.0082431408 -0.0039122431 -0.043104164 -0.04069066
8080000000 0.15513413 -0.083213821 -0.0056834822 -0.006721132 -0.0056499108 -0.0067575928 -0.046747796 -0.020285208
8100000000 0.16871344 -0.10740153 -0.0051975101 0.0061534513 -0.0051787789 0.0060981223 -0.071891293 -0.0067711323
8120000000 0.1702673 -0.10208286 0.0068592462 0.0045399079 0.0068757199 0.0045207217 -0.051565338 0.047315173
8140000000 0.15887409 -0.1165595 0.0027812875 -0.007845154 0.0027755981 -0.0078494838 -0.03327338 0.065521166
8160000000 0.13320151 -0.1224008 -0.0075432076 -0.0013102524 -0.0075291619 -0.0013316718 0.0034803613 0.083813533
8180000000 0.14431624 -0.089094579 -0.00052547734 0.0077364906 -0.00055625866 0.007731956 0.03718859 0.080160275
8200000000 0.13721374 -0.11673747 0.0080764052 -0.0011156745 0.0081039667 -0.0011259124 0.09238705 0.048626315
8220000000 0.13541314 -0.11708178 -0.0026410003 -0.0072064097 -0.0026532479 -0.0072121494 0.090803899 0.0020422789
8240000000 0.1134503 -0.10517053 -0.0067373412 0.0032376172 -0.0066970401 0.0032720829 0.10264534 -0.031897489
8260000000 0.10188656 -0.10666396 0.0045520542 0.0066241957 0.0045595616 0.0066363392 0.083917663 -0.077668585
8280000000 0.13250646 -0.10589609 0.0055984273 -0.0061540091 0.0056347451 -0.0061661149 0.043243803 -0.1055491
8300000000 0.102095 -0.10484315 -0.0068743415 -0.0041958499 -0.0068374751 -0.0041989284 -0.0089842137 -0.10309761
8320000000 0.094454519 -0.11671501 -0.0029784529 0.0076538734 -0.0029842085 0.0076384847 -0.037366055 -0.10558745
8340000000 0.1058047 -0.098205306 0.0080079064 0.001329027 0.0079786908 0.0013217132 -0.074987255 -0.080799654
8360000000 0.079068154 -0.09466096 -9.6537871e-005 -0.007932229 -0.0001195946 -0.0079646129 -0.10153122 -0.043809485
8380000000 0.09313228 -0.104644 -0.0077363588 0.0014918292 -0.0077985101 0.0015100188 -0.10107929 0.0032197146
8400000000 0.068235785 -0.099122934 0.0030002811 0.0072083445 0.0030525103 0.007183888 -0.084956758 0.031479899
8420000000 0.057730593 -0.08364135 0.0062030512 -0.0038405999 0.0062131486 -0.0038221637 -0.075147063 0.068818346
8440000000 0.070407383 -0.083380952 -0.0045715556 -0.0056903712 -0.0045564407 -0.0057144389 -0.031104866 0.084227003
8460000000 0.06829305 -0.071191058 -0.0051445211 0.0055690608 -0.0051527587 0.0055544414 0.0010932651 0.081758276
8480000000 0.0555721 -0.088711262 0.0063251066 0.0038750088 0.0062970533 0.0038500086 0.031248501 0.075790815
8500000000 0.054370418 -0.078841731 0.0031974721 -0.0066143093 0.0031987184 -0.0066499054 0.064208776 0.053569276
8520000000 0.040543187 -0.050105777 -0.0074943714 -0.0023124639 -0.0075457431 -0.0023389168 0.080243424 0.029802589
8540000000 0.044467587 -0.06028511 -0.00087052101 0.0081691686 -0.00087688706 0.008196963 0.07577832 -0.014416345
8560000000 0.056506466 -0.062692977 0.0082191825 -0.00068797672 0.008216681 -0.0006549448 0.054710813 -0.038428705
8580000000 0.019853739 -0.054669984 -0.0020304068 -0.0084183998 -0.0020268115 -0.0084643308 0.045683552 -0.060766276
8600000000 0.021876173 -0.036893249 -0.0080070645 0.0039794156 -0.0079995943 0.0040027318 0.012055263 -0.070451871
8620000000 0.044240613 -0.020089334 0.0053657521 0.0071529928 0.0053565577 0.0071214493 -0.012509217 -0.059075065
8640000000 0.016917573 -0.041364253 0.0063671395 -0.0068667266 0.006366638 -0.0068916446 -0.027485631 -0.047074113
8660000000 0.027915457 -0.030547041 -0.0086327381 -0.0045751869 -0.0086340886 -0.0046181669 -0.042924359 -0.033185016
8680000000 0.016195452 0.006766398 -0.002239801 0.0089423601 -0.0022539468 0.0089286305 -0.043473743 -0.002146903
8700000000 0.020062396 -0.0024772063 0.0088968677 0.00079788285 0.0088931182 0.00081016193 -0.038902216 0.0017465811
8720000000 0.048570536 -0.0081340875 -0.0009318766 -0.0091482615 -0.00097660255 -0.0091425981 -0.021428373 0.015116368
8740000000 -0.0065872562 0.016512519 -0.0083476612 0.0031762694 -0.0083774021 0.0031657598 -0.012472188 0.019723231
8760000000 0.016858436 0.010659978 0.0039002483 0.0069195605 0.0038978145 0.0069529768 0.017813623 0.029177586
8780000000 0.024741711 0.04399851 0.0066982871 -0.0046637794 0.0067366227 -0.0046099508 0.021274488 -0.0021801959
8800000000 0.018798603 0.034231689 -0.0061547328 -0.0058264364 -0.0061612017 -0.0058600581 0.015437669 -0.00074174168
8820000000 0.019145817 0.028380018 -0.0042390893 0.0068699121 -0.0042002373 0.0069172555 0.030766098 -0.016082892
8840000000 0.008006284 0.068251193 0.0071931197 0.0034837851 0.0071721124 0.0034897544 0.010287234 -0.044998374
8860000000 0.029410884 0.054909419 0.0022732744 -0.0082646525 0.0023489306 -0.0082756113 -0.013068559 -0.044308726
8880000000 0.033499446 0.073991716 -0.0085352845 -0.00037241585 -0.0085417479 -0.00039989236 -0.0071230219 -0.039986923
8900000000 0.02262504 0.076423086 0.0010981702 0.0082549686 0.0010645422 0.0082435952 -0.050221305 -0.041849662
8920000000 0.027144242 0.065183699 0.0081012743 -0.0026607206 0.0081078792 -0.002647029 -0.055246327 -0.0057691117
8940000000 0.035113595 0.10114354 -0.0044016186 -0.0071134982 -0.0044217864 -0.0071258633 -0.061658319 0.0076514939
8960000000 0.038814671 0.090891249 -0.0058419816 0.0051288325 -0.0057976134 0.0051072142 -0.056189597 0.032305509
8980000000 0.038869523 0.083344743 0.0058402158 0.0052640378 0.0058244085 0.005246181 -0.036396623 0.048312221
9000000000 0.046500269 0.10587436 0.0040080608 -0.0070826164 0.0040051825 -0.0070708282 0.00036080269 0.061078023
9020000000 0.033141878 0.10277829 -0.0071005886 -0.002158361 -0.0070595373 -0.0021915578 0.0084748603 0.059539624
9040000000 0.058669038 0.12366468 -0.0015753106 0.0067704264 -0.0015645787 0.0067744609 0.042485926 0.045642719
9060000000 0.065767907 0.10992227 0.0075603155 0.00073566224 0.0075580701 0.00073947222 0.046456169 0.036381088
9080000000 0.040825997 0.09895467 -0.0010794449 -0.0075650057 -0.0010472927 -0.0075542484 0.072134636 0.011497665
9100000000 0.076819159 0.13186225 -0.0067895609 0.001972425 -0.0068488447 0.0019384642 0.060042735 -0.01285743
9120000000 0.060049232 0.13261937 0.0026354662 0.0068953726 0.0026817564 0.0068863053 0.060485184 -0.042933628
9140000000 0.079618745 0.10975292 0.0066646929 -0.0043713297 0.0066501326 -0.0043958933 0.050085396 -0.04805094
9160000000 0.083648719 0.12994193 -0.0054298919 -0.0054347636 -0.0054221167 -0.0054024751 0.030856771 -0.084373824
9180000000 0.056190871 0.12468733 -0.0047686123 0.0062354412 -0.0047666528 0.0061441958 -0.011898843 -0.071421772
9200000000 0.091693014 0.13032056 0.0074083102 0.003679245 0.0074177287 0.0036337962 -0.019484064 -0.076870948
9220000000 0.10063016 0.14197195 0.0017095351 -0.0079008546 0.0016782205 -0.0078955777 -0.064071506 -0.064553395
9240000000 0.080764636 0.12600718 -0.0077252882 -0.00049478689 -0.0077586095 -0.00054474105 -0.074536122 -0.036104493
9260000000 0.086408772 0.13486437 0.00076624239 0.0081662321 0.00072319922 0.0081668627 -0.066386439 -0.01376775
9280000000 0.09659905 0.155237 0.0077917441 -0.0029525536 0.0077422219 -0.0029831356 -0.07593026 0.0089780418
9300000000 0.11046 0.13648675 -0.0039388249 -0.0061841686 -0.0039818846 -0.0062023792 -0.063041992 0.048504967
9320000000 0.12147941 0.14311469 -0.0057161143 0.0041820384 -0.0057603666 0.0041597756 -0.046832971 0.046570085
9340000000 0.093362488 0.12718697 0.0056686765 0.0052740648 0.0056534382 0.0052777124 -0.023873478 0.063013583
9360000000 0.11435547 0.1498704 0.003411334 -0.0063617583 0.0033901697 -0.0063779508 2.0526415e-005 0.056667421
9380000000 0.13747147 0.1653969 -0.0060442863 -0.0026906652 -0.006036506 -0.0026745938 0.015991542 0.054557789
9400000000 0.11672454 0.12899557 -0.002297255 0.0067450451 -0.0023256603 0.0067725424 0.041845527 0.037591167
9420000000 0.12270506 0.13240017 0.0074415011 0.00051672087 0.0074375137 0.00052632054 0.032241207 0.019182425
9440000000 0.1354101 0.16708925 -0.00046086358 -0.006611438 -0.00047471607 -0.0065938784 0.042066537 0.0089243641
9460000000 0.12378147 0.14844492 -0.0071257502 0.00074740744 -0.007182443 0.00077100354 0.033153638 -0.017087722
9480000000 0.16075796 0.13520062 0.0029105709 0.0076926751 0.0028918881 0.0077050864 0.02331787 -0.018057313
9500000000 0.12032503 0.14399719 0.0061115609 -0.0045621782 0.0061403955 -0.0045886617 0.0085324487 -0.014098481
9520000000 0.1446529 0.15030053 -0.0046956702 -0.0053822454 -0.0046603433 -0.0053707804 0.0058898153 -0.022202469
9540000000 0.16164877 0.15391903 -0.0052274116 0.0063059595 -0.0052338517 0.0063220761 -0.0049638995 -0.0081567485
9560000000 0.14295225 0.14653517 0.0074765794 0.0030478772 0.0074556675 0.0030055379 0.0011839465 0.004694839
9580000000 0.16501909 0.12134404 0.0016062623 -0.0068442011 0.0014977702 -0.0068939659 -1.1626725e-005 0.002844895
9600000000 0.1600481 0.15531273 -0.0072942907 -0.0012649589 -0.0072896564 -0.0013080192 0.011358917 -0.0024984297
9620000000 0.14633277 0.14159548 0.00070749334 0.0080821151 0.00069279788 0.0080751451 0.011635172 0.00086136494
9640000000 0.17358238 0.12385093 0.0069251219 -0.0023818263 0.0068948213 -0.0023792568 0.035100073 -0.016434118
9660000000 0.15560547 0.14341927 -0.002663593 -0.0063395188 -0.0027094998 -0.0063727302 0.018977176 -0.043136988
9680000000 0.15081997 0.11619925 -0.0067991284 0.0041488428 -0.0068174293 0.004132363 0.0080547985 -0.032668401
9700000000 0.16500767 0.12873016 0.0060221325 0.0049684211 0.0060238065 0.0049615381 -0.011337304 -0.058706827
9720000000 0.1704465 0.14220105 0.0037106285 -0.0058743581 0.0037242449 -0.0058360938 -0.044723414 -0.070100941
9740000000 0.17880237 0.098553993 -0.0064272014 -0.0032170319 -0.0064030709 -0.0032644582 -0.070155904 -0.049206723
9760000000 0.15720919 0.13817032 -0.0016934997 0.0078270566 -0.0017353185 0.0077837007 -0.087204322 -0.02389504
9780000000 0.17093518 0.10808478 0.0068155015 -0.00043616936 0.006761957 -0.00047325835 -0.10825702 0.011184635
9800000000 0.18258671 0.11442412 -0.00084123045 -0.0065800073 -0.00086528924 -0.006562728 -0.10116813 0.050986905
9820000000 0.18595068 0.11554112 -0.006836948 0.0020029137 -0.0068151718 0.0020001617 -0.082315929 0.10156024
9840000000 0.15148941 0.080746092 0.0038146651 0.0056289337 0.0037969828 0.005671951 -0.04305917 0.11392397
9860000000 0.18955013 0.10230342 0.0043942495 -0.00370852 0.004343153 -0.00372679 -0.0077164988 0.13695772
9880000000 0.1719666 0.1017998 -0.0042344509 -0.004231954 -0.0042062914 -0.0041952902 0.055531438 0.12325095
9900000000 0.18003033 0.0761583 -0.0031985799 0.0050837225 -0.0031350285 0.0050939103 0.096166663 0.087286003
9920000000 0.17473897 0.074587993 0.0046330374 0.0019524401 0.004658347 0.0019304276 0.11953647 0.046926267
9940000000 0.15732759 0.095244803 0.0023897919 -0.0046080407 0.0023864694 -0.0045867874 0.12817208 -0.0073748394
9960000000 0.19197392 0.073177829 -0.0058989683 -0.001709174 -0.005905088 -0.0016372867 0.1042484 -0.049785938
9980000000 0.17874651 0.07244271 -8.4084102e-005 0.0059621683 -5.3649426e-005 0.0058870306 0.069400527 -0.075636588
10000000000 0.15992902 0.062435891 0.0053000641 -0.00047857562 0.0053283256 -0.00046249721 0.041932508 -0.11393469
10020000000 0.18361044 0.052128617 -0.00068312028 -0.0059162034 -0.00064933213 -0.0059268782 -0.0019348178 -0.10740372
10040000000 0.16369855 0.062723003 -0.0061177798 0.0027358176 -0.0061313617 0.0026935351 -0.03932678 -0.099630617
10060000000 0.16478992 0.037259996 0.0035276162 0.0049566985 0.0035497721 0.0048261969 -0.067535184 -0.081807956
10080000000 0.18007722 0.031830829 0.0044451486 -0.0038278645 0.004388338 -0.0037931325 -0.10530705 -0.048901416
10100000000 0.14793311 0.042379752 -0.0050801751 -0.0041453307 -0.0050772522 -0.0041790716 -0.10730104 -0.021313189
10120000000 0.14814053 0.018632002 -0.002457283 0.0054238746 -0.0024905491 0.0054165781 -0.12227887 0.014509128
10140000000 0.15491907 0.038781829 0.0052608447 0.0022690024 0.0053427708 0.0023774696 -0.088095859 0.066587105
10160000000 0.14843509 0.016914142 0.0016880417 -0.0064009549 0.0016700467 -0.0064592538 -0.071291842 0.074897118
10180000000 0.12698209 0.016331516 -0.0068459981 0.00025664043 -0.006843993 0.00032742068 -0.055883434 0.095722109
10200000000 0.1474974 0.034130912 0.0010964072 0.0058422233 0.0010989034 0.0058315871 -0.0094124898 0.11861244
10220000000 0.1258046 0.013097252 0.0065281377 -0.0016174604 0.0065604541 -0.0015250498 0.029169327 0.08396963
10240000000 0.15122485 0.0031182773 -0.0037614317 -0.006507711 -0.0037537792 -0.006426713 0.024392445 0.089020699
10260000000 0.11218529 0.0051457142 -0.0045996876 0.0051088077 -0.004646332 0.0051355674 0.075684614 0.060306236
10280000000 0.090650707 0.0066545578 0.0048604351 0.0037930098 0.0048181578 0.0037655712 0.069450259 0.014077384
10300000000 0.12354356 0.0092025138 0.0032991997 -0.0062440792 0.0032984416 -0.006269081 0.060863394 0.013720688
10320000000 0.090804264 0.0047604339 -0.0065487353 -0.00088711386 -0.0065373867 -0.0007987495 0.061657161 -0.016827054
10340000000 0.08230029 -0.022866759 -3.5056943e-005 0.0053274063 3.7784761e-005 0.0053254324 0.033034887 -0.021068117
10360000000 0.08120507 0.0036480273 0.0054236422 0.00021089213 0.0053268508 0.00021424853 0.018267464 -0.033143464
10380000000 0.054897223 0.014619331 -0.0014141673 -0.0058000274 -0.0014545203 -0.0058125933 0.013696183 -0.034906615
10400000000 0.072179765 -0.0069116666 -0.0045332951 0.0019086254 -0.0045561153 0.0018575368 0.0021855575 -0.042033616
10420000000 0.062669545 0.0015680707 0.0018103909 0.0045407196 0.0018057687 0.0045845108 -0.0056620832 -0.036853757
10440000000 0.02320959 -0.0034262598 0.0051564355 -0.0027568697 0.0052197701 -0.002782139 -0.024468269 -0.035524227
10460000000 0.058163702 0.011753967 -0.0041277637 -0.0039482536 -0.0041117743 -0.0039094561 -0.043358237 -0.028893324
