!Keysight Technologies,N5242B,MY47200105,A.14.00.23
!Date: Friday, April 26, 2024 11:29:15
!Correction: S11(C  2-Port  ) 
!S21(C  2-Port  ) 
!S12(C  2-Port  ) 
!S22(C  2-Port  ) 
!S2P File: Measurement: :
# Hz S  RI   R 50
7000000000 0.051258385 0.057370592 -0.0030050741 -0.0055797985 -0.0029681355 -0.0055522146 -0.039113536 0.0038876245
7020000000 0.07222461 0.051067784 -0.0056813839 0.0053318786 -0.0056981626 0.0053288029 -0.051777001 0.007608158
7040000000 0.097176902 0.05390184 0.0066445749 0.0032704773 0.0066409837 0.0032816599 -0.055184659 0.048824307
7060000000 0.081687324 0.04023755 0.0021426489 -0.0067118458 0.0021641138 -0.0066941199 -0.013325533 0.07437209
7080000000 0.096425295 0.051226642 -0.0078033153 -0.001016386 -0.0078157559 -0.0010574495 0.012345416 0.080181092
7100000000 0.09967126 0.064706154 0.0019448617 0.0078627318 0.0019114183 0.0078593446 0.054434583 0.069263205
7120000000 0.11638552 0.042690773 0.0063011013 -0.0031835234 0.0062982803 -0.0031419259 0.092669353 0.046191756
7140000000 0.12597719 0.034901135 -0.0039426088 -0.0060059745 -0.0039549111 -0.0059901588 0.098126456 -0.0044610626
7160000000 0.11252675 0.044863079 -0.0050525158 0.0061266534 -0.0051013953 0.0060989321 0.078622028 -0.046770658
7180000000 0.12834063 0.037051305 0.0065944707 0.0022828383 0.0066156853 0.0023306699 0.045264967 -0.083444916
7200000000 0.14773232 0.053421162 0.0012682142 -0.0058468985 0.0012943328 -0.0058662202 0.010660148 -0.083399378
7220000000 0.13808271 0.025273684 -0.0062611406 -0.00048023136 -0.0062628412 -0.00044689339 -0.03762478 -0.077781677
7240000000 0.14440496 0.017949186 0.001367051 0.0058015818 0.0013202769 0.0058049695 -0.060716562 -0.031300887
7260000000 0.14894639 0.043996964 0.0046050125 -0.0017295957 0.0045860121 -0.0017499077 -0.063527256 -0.015584434
7280000000 0.15108483 0.024929879 -0.001851524 -0.0046087187 -0.0018109494 -0.0046330024 -0.072561949 0.033729836
7300000000 0.17078996 0.022298733 -0.0044410829 0.0031254794 -0.004447706 0.0031182796 -0.042116348 0.055086065
7320000000 0.15583017 0.024474721 0.0032387613 0.0033284379 0.0032635836 0.0032755218 -0.0054686363 0.064262576
7340000000 0.15243264 0.014689785 0.003687537 -0.0032790937 0.0036590425 -0.0032768792 0.0092918696 0.061590143
7360000000 0.17883591 0.033467125 -0.0051095053 -0.0036464212 -0.0051011466 -0.0036600274 0.039381411 0.06256371
7380000000 0.17382984 0.012271748 -0.0016801944 0.0059980019 -0.0017097308 0.0060351798 0.062702917 0.027312316
7400000000 0.18369606 0.0011551172 0.0060025426 0.00044187345 0.006035638 0.00044956605 0.059701543 0.0096685048
7420000000 0.18449058 0.009307255 -0.00079929479 -0.0063547608 -0.00078262534 -0.0063358983 0.053848594 -0.0085406778
7440000000 0.17577586 0.0051965229 -0.005657455 0.0029893084 -0.0056795101 0.002939828 0.05205467 -0.03433812
7460000000 0.20820008 -0.00057096855 0.0035828559 0.0040007671 0.0035932828 0.0040349169 0.024943944 -0.045802027
7480000000 0.18354201 -0.01329887 0.0033857531 -0.0036986272 0.0033713039 -0.0037206667 0.024475615 -0.036577996
7500000000 0.17988653 -0.01097012 -0.0045915479 -0.002507169 -0.0045799138 -0.0024883498 0.013064009 -0.056626104
7520000000 0.20494527 -0.0093731349 -0.00076683366 0.0042059994 -0.00074831839 0.0042143669 -0.011365851 -0.062579662
7540000000 0.18632078 -0.022160752 0.0031337261 0.00070387084 0.0031219614 0.00072534883 -0.045469984 -0.058895901
7560000000 0.20051196 -0.034366392 0.0011246123 -0.0034390634 0.0011556599 -0.0034448609 -0.079443209 -0.045844086
7580000000 0.19404995 -0.027813742 -0.0040364307 -0.00052454876 -0.0040508593 -0.00049595669 -0.10181188 0.0071656518
7600000000 0.18834037 -0.023065934 -6.6356595e-005 0.0038773611 -9.4196206e-005 0.0038803497 -0.083815798 0.072499946
7620000000 0.20706147 -0.04049689 0.0045529441 3.8475733e-005 0.0045586592 3.3200773e-005 -0.029620519 0.10976367
7640000000 0.20234805 -0.041606996 -0.0015822067 -0.005285426 -0.0015760538 -0.0053214543 0.015461397 0.10299251
7660000000 0.19406766 -0.047969613 -0.0044790045 0.0029874658 -0.0044709425 0.0029724191 0.068615541 0.089669235
7680000000 0.19797587 -0.048414998 0.0035122947 0.0039772983 0.0034984241 0.0039676176 0.096890159 0.039274052
7700000000 0.19697618 -0.046170752 0.0036970701 -0.0047829049 0.0036673106 -0.0047979481 0.10050099 -0.0099833803
7720000000 0.19116163 -0.068437353 -0.0058092591 -0.0018813489 -0.0057692104 -0.0018644779 0.088931024 -0.046427324
7740000000 0.2056033 -0.052392393 -0.00054222811 0.0055651674 -0.00058143161 0.0055644917 0.057260629 -0.074956641
7760000000 0.18745616 -0.06124701 0.0057530068 -0.00034820335 0.0057876958 -0.00034509785 0.017515587 -0.088532098
7780000000 0.1901467 -0.067738436 -0.0021863536 -0.0056716264 -0.002213415 -0.0057285586 -0.028479708 -0.088654079
7800000000 0.20524086 -0.056268502 -0.0039736028 0.0032129271 -0.0039802389 0.0031908171 -0.060076933 -0.052908216
7820000000 0.18300463 -0.073521554 0.0030002163 0.0034353824 0.0029864577 0.00339817 -0.064326212 -0.029349299
7840000000 0.19673258 -0.064299911 0.0031321745 -0.0038804044 0.0031634613 -0.0039254455 -0.080499291 0.0018680257
7860000000 0.18789026 -0.057800204 -0.0042683054 -0.0015972255 -0.0042237048 -0.0015876375 -0.044237696 0.047970746
7880000000 0.1903657 -0.075112395 -0.0010322065 0.0033809692 -0.0011164803 0.003390362 -0.016836695 0.053133961
7900000000 0.20998366 -0.091327585 0.0037839552 0.0014831104 0.0037594694 0.001454961 -0.0050515891 0.05151267
7920000000 0.17516728 -0.074035898 0.00051093742 -0.0044109165 0.00049847976 -0.0044206083 0.035330214 0.056386787
7940000000 0.19041891 -0.08729703 -0.0041746651 0.00011756062 -0.0041543427 9.6632597e-005 0.049120393 0.006981343
7960000000 0.18908009 -0.079463616 0.00029036377 0.004622912 0.00026371438 0.0045947507 0.044504855 0.0042468393
7980000000 0.18096939 -0.091950871 0.0052892803 -0.0018665699 0.0053144316 -0.0018822829 0.051424176 -0.027571021
8000000000 0.19095947 -0.10103074 -0.0032368558 -0.004253122 -0.0032579533 -0.0042249318 0.029370179 -0.039058805
8020000000 0.16869374 -0.07291621 -0.0037368149 0.003694593 -0.0037945542 0.0037215224 0.0073180557 -0.051595878
8040000000 0.17405 -0.095689043 0.0051077954 0.0030756223 0.0050558825 0.0031043661 -0.01161727 -0.050481107
8060000000 0.1793946 -0.11052518 0.00099319534 -0.0057701766 0.0010104091 -0.0057990667 -0.038435783 -0.050605904
8080000000 0.16518198 -0.086882718 -0.0049941749 0.00022297876 -0.0049647014 0.00022005074 -0.055201832 -0.025094638
8100000000 0.16570801 -0.1163309 0.00082720089 0.0048010303 0.00082998123 0.004768203 -0.072465777 -0.0023909737
8120000000 0.16137876 -0.10091112 0.0045615006 -0.002161575 0.0045769922 -0.0021735865 -0.047744956 0.041093517
8140000000 0.1593755 -0.10606648 -0.0028046106 -0.002998644 -0.0027726749 -0.0029946221 -0.043452818 0.061141092
8160000000 0.14305599 -0.1228392 -0.0025498318 0.0022527387 -0.002584016 0.0022462041 -0.00010622327 0.091758661
8180000000 0.14585859 -0.097855113 0.002835152 0.0026888875 0.002811091 0.0026673984 0.041601948 0.078258328
8200000000 0.12696025 -0.11964235 0.0016732879 -0.0032882886 0.0017059991 -0.0032381495 0.083405897 0.045019023
8220000000 0.13348629 -0.10690734 -0.0028146489 -0.0014625614 -0.0028286569 -0.0014852759 0.088178985 0.01270417
8240000000 0.12148714 -0.10198311 -0.0015557919 0.0033379132 -0.0015592173 0.0033301665 0.10877317 -0.031653207
8260000000 0.10804489 -0.1148194 0.0039014637 0.00081519922 0.0039305314 0.00077224476 0.078937247 -0.080321833
8280000000 0.12272315 -0.11170334 0.00018103526 -0.0040138653 0.00020365423 -0.0039887573 0.04147261 -0.095749371
8300000000 0.09708669 -0.096775487 -0.0043705725 0.000594276 -0.0043398077 0.00056488567 -0.00073154224 -0.10255197
8320000000 0.10054322 -0.1097457 0.0018378707 0.0042162724 0.0018303434 0.0042374716 -0.039111067 -0.10907559
8340000000 0.11443806 -0.10488965 0.003428482 -0.0026037407 0.0034062371 -0.0026103074 -0.075911604 -0.074288405
8360000000 0.072946854 -0.10262619 -0.0030661956 -0.0028344686 -0.0030507713 -0.0028348416 -0.092623077 -0.042362623
8380000000 0.084827974 -0.099945232 -0.0021330777 0.0036427695 -0.0021905648 0.003647485 -0.10039863 -0.0032056691
8400000000 0.071903504 -0.089250252 0.0038728861 0.00098952511 0.0039049971 0.00096379162 -0.087455392 0.03454192
8420000000 0.06746389 -0.08694496 0.00025026605 -0.0033461764 0.0002887006 -0.0033583143 -0.066958107 0.06982708
8440000000 0.068495266 -0.093309633 -0.0031399133 5.6182595e-005 -0.0031437187 3.2600834e-005 -0.029516215 0.075602494
8460000000 0.057700206 -0.070105948 0.00033304098 0.0030010231 0.00032829292 0.0029806979 -0.004103872 0.081610307
8480000000 0.056120135 -0.077834845 0.0027223453 -0.00059485785 0.0027335826 -0.00058559759 0.036013111 0.077734768
8500000000 0.06466841 -0.078512989 -0.00063606823 -0.0028206462 -0.00065368129 -0.0028479993 0.065878242 0.044332381
8520000000 0.042820629 -0.060225718 -0.0030041765 0.0010103487 -0.0030441713 0.0010267037 0.07209453 0.027506107
8540000000 0.033293705 -0.062985033 0.0014355427 0.0031752491 0.0014479631 0.0031594248 0.076193765 -0.0096644536
8560000000 0.053786442 -0.052004002 0.0031867779 -0.0022835406 0.0031757737 -0.0022586735 0.057055205 -0.045748897
8580000000 0.029266676 -0.05072568 -0.0032102922 -0.0028884443 -0.0032490592 -0.0028581216 0.035019316 -0.062749833
8600000000 0.027830625 -0.046021029 -0.0019018764 0.0038217008 -0.0019441332 0.0038465736 0.010428961 -0.062737018
8620000000 0.03463481 -0.026263587 0.0041882833 0.0013379945 0.0042226803 0.0013087537 -0.0083351852 -0.061849479
8640000000 0.010672208 -0.032300595 0.00045405974 -0.0046814973 0.00041136055 -0.0046884222 -0.037603095 -0.048796352
8660000000 0.03541157 -0.023607168 -0.0048178984 0.00096255442 -0.0048483564 0.00096904743 -0.043544512 -0.021814564
8680000000 0.024239717 -0.00026808286 0.0020761003 0.0041480092 0.0020725925 0.004153945 -0.037160277 -0.0023042734
8700000000 0.013798078 -0.010697089 0.0035208231 -0.0027690458 0.0035106309 -0.0027604327 -0.044480551 -0.00057698251
8720000000 0.039716724 -0.0026022585 -0.0033559781 -0.0025769873 -0.0033313523 -0.0025240721 -0.021156866 0.026813995
8740000000 -0.001726086 0.025922701 -0.0017284178 0.0033718157 -0.0017792907 0.0033819331 -0.0013414563 0.01956513
8760000000 0.025554011 0.0069648521 0.0034053833 0.0013089878 0.0034316513 0.0012737046 0.014596893 0.024287099
8780000000 0.023089789 0.034857612 0.00053309283 -0.0035514943 0.00056960055 -0.0035146826 0.021923471 0.0066083525
8800000000 0.0084625958 0.03521112 -0.0030772949 -5.2072366e-005 -0.0030910333 -5.3288255e-005 0.027387733 -0.0031112491
8820000000 0.020068401 0.038682941 -0.00010196571 0.0031587977 -0.00010133832 0.0031491432 0.029181255 -0.025359305
8840000000 0.017104836 0.068694048 0.0035446389 -0.00049232546 0.0035422512 -0.00046803869 0.0084166089 -0.039201483
8860000000 0.031845436 0.045871235 -0.001253441 -0.0033545552 -0.0012392666 -0.0033579869 -0.0033121684 -0.047930215
8880000000 0.023557929 0.070536017 -0.0032214168 0.001656762 -0.0032096049 0.0016421098 -0.01007369 -0.050653525
8900000000 0.018981524 0.086317457 0.0025070226 0.0031654348 0.0025394363 0.0031804692 -0.057234459 -0.039489221
8920000000 0.03586388 0.069479361 0.0023828074 -0.003429631 0.0024261163 -0.0033870316 -0.049070425 -0.0064723371
8940000000 0.041348074 0.093424231 -0.0036993783 -0.0012764554 -0.003703807 -0.0012631387 -0.065755345 -0.0019751491
8960000000 0.030662896 0.084080741 -0.00052306341 0.0035621913 -0.00047774555 0.0035603594 -0.066041589 0.034381256
8980000000 0.031342037 0.091170736 0.003571942 -0.00022605612 0.0035861714 -0.00024301045 -0.033553824 0.053325057
9000000000 0.053598721 0.11396149 -0.001015403 -0.0030563306 -0.0010294776 -0.0030656352 -0.0014493354 0.054656342
9020000000 0.041823249 0.096751906 -0.0024569323 0.0011668841 -0.0025096692 0.0011180001 -0.0019366589 0.062876239
9040000000 0.053601172 0.11479672 0.0013262493 0.0022102487 0.0013597547 0.0021835405 0.044807844 0.054793112
9060000000 0.055753272 0.11409802 0.0017854261 -0.0015009723 0.0017809854 -0.0014331558 0.048961405 0.032611493
9080000000 0.044916138 0.10965404 -0.0011733677 -0.0016061518 -0.0011430111 -0.0016150449 0.064850226 0.014146036
9100000000 0.086775817 0.12865084 -0.0019416094 0.0013251544 -0.0019253887 0.0012849048 0.063589886 -0.0027675217
9120000000 0.058414008 0.12286966 0.0017913202 0.0017919211 0.0017737106 0.0017824603 0.067701995 -0.0455289
9140000000 0.068801381 0.10995658 0.0016180699 -0.0019354571 0.0016026887 -0.0019705642 0.04553185 -0.048408728
9160000000 0.084021628 0.14177577 -0.0022605762 -0.001811514 -0.0022489715 -0.0018123054 0.034477286 -0.075298287
9180000000 0.066328302 0.12492207 -0.0013970367 0.0033743738 -0.0013991576 0.0033930168 -0.002206211 -0.076416902
9200000000 0.093880944 0.12108659 0.0035221048 0.00034254012 0.0035928118 0.00034585138 -0.022932058 -0.081070602
9220000000 0.090483002 0.13870858 -0.00012464172 -0.0035136361 -0.00014293237 -0.0035252844 -0.06194267 -0.059247933
9240000000 0.077642359 0.13586161 -0.0039745905 0.00097104016 -0.0039927578 0.0009862259 -0.064935125 -0.040766623
9260000000 0.095192805 0.13979515 0.0024751548 0.0033330363 0.0025140396 0.0033559129 -0.07129512 -0.021840829
9280000000 0.10211514 0.14651103 0.0022216151 -0.0027436924 0.0021933871 -0.0027556717 -0.07749252 0.013133135
9300000000 0.1028597 0.13081133 -0.00284993 -0.0017175389 -0.0028540413 -0.0017318622 -0.056656882 0.045096114
9320000000 0.11434312 0.14949787 -0.0009991799 0.003184261 -0.0010239589 0.003218719 -0.051582765 0.037187684
9340000000 0.099725336 0.13589673 0.0027577586 5.3420114e-005 0.0027607884 1.734443e-005 -0.030325364 0.066858321
9360000000 0.12248017 0.14337847 0.00019777568 -0.0020788223 0.00020196053 -0.0020948253 0.0046110088 0.057470873
9380000000 0.1330552 0.15777701 -0.0024470245 -0.00030357263 -0.0024108069 -0.00030136184 0.01207609 0.046043444
9400000000 0.10699353 0.13207465 0.00026973966 0.0024092461 0.00027223842 0.0023792544 0.032266147 0.04244731
9420000000 0.12603667 0.14297858 0.0021159854 -9.0701978e-005 0.0021484315 -4.868102e-005 0.035970468 0.023935866
9440000000 0.14497383 0.16435388 1.3939321e-005 -0.0029785838 -5.8279551e-005 -0.0030030911 0.04107064 0.0037603485
9460000000 0.12332279 0.13925235 -0.0033222556 0.0013009149 -0.0033311413 0.0012498805 0.024116812 -0.01303335
9480000000 0.15002277 0.13507347 0.0018379785 0.0028136724 0.001889433 0.0028712561 0.027212253 -0.009085604
9500000000 0.12020568 0.15457192 0.0029210502 -0.0024843724 0.0029244008 -0.0024581766 0.012212679 -0.017294802
9520000000 0.15400837 0.15210575 -0.0039566797 -0.002154513 -0.003900242 -0.0021873368 -0.00085341057 -0.019914312
9540000000 0.16514289 0.14393245 -0.00030387167 0.0039176373 -0.00034136637 0.0038937868 -0.00071437884 0.0016702965
9560000000 0.13282934 0.1431611 0.0031118584 -1.5665579e-005 0.0030848142 -1.7473554e-005 0.0089385919 0.0012303323
9580000000 0.16130868 0.13046166 -0.00024636724 -0.0033606263 -0.00025658257 -0.0033567278 -0.004041208 0.00057318073
9600000000 0.16813865 0.16156799 -0.0031510089 0.0016187646 -0.0031125192 0.0015832786 0.015708143 0.0068716132
9620000000 0.15307555 0.1320245 0.0015498684 0.0018502959 0.0014591267 0.0018671978 0.02218499 -0.0054194531
9640000000 0.16520895 0.11846481 0.0020820936 -0.00099628442 0.0020691392 -0.00091642694 0.030740749 -0.022208143
9660000000 0.14845504 0.14952412 -0.0016050851 -0.0023633263 -0.0015715441 -0.0023576166 0.020437896 -0.036855306
9680000000 0.15746459 0.12600887 -0.0018049083 0.0019418031 -0.0017979096 0.0019362434 0.017865404 -0.039852846
9700000000 0.17293203 0.12148797 0.0018479205 0.0019292923 0.0018273994 0.0019129744 -0.018444479 -0.068094768
9720000000 0.16598853 0.13506478 0.0019841022 -0.0028085739 0.0019678839 -0.0028136922 -0.047589388 -0.065095752
9740000000 0.16958688 0.1011942 -0.0032821093 -0.00096351607 -0.0032902644 -0.0010262781 -0.062825821 -0.054410502
9760000000 0.16087765 0.14888246 -0.00049850863 0.0032724408 -0.00051757792 0.0032868092 -0.095789395 -0.032694329
9780000000 0.17968105 0.10502621 0.0036718238 8.8086003e-005 0.0036875596 8.1174592e-005 -0.11646034 0.01743418
9800000000 0.18219216 0.10557768 -0.0014249089 -0.003792238 -0.0014718807 -0.0037631625 -0.095992714 0.050970118
9820000000 0.17535852 0.11555023 -0.0026728325 0.0019921926 -0.0026682594 0.0019384198 -0.089647733 0.094735712
9840000000 0.15110445 0.09031041 0.0020046274 0.0022832321 0.0019738539 0.0023149389 -0.050856851 0.12222066
9860000000 0.19807577 0.10449982 0.0021513137 -0.0026492118 0.002154822 -0.0026828807 -0.0027900487 0.14332806
9880000000 0.17581074 0.092391789 -0.0029206455 -0.0006369261 -0.0028893717 -0.0006551877 0.053538878 0.11945487
9900000000 0.17009507 0.073514 -0.00039343495 0.0019108019 -0.00039262266 0.0018706608 0.09027826 0.095034368
9920000000 0.17127253 0.082563177 0.0017409048 0.00091484573 0.0017418623 0.00085879816 0.12570952 0.053664483
9940000000 0.16444282 0.10181476 0.00075431576 -0.0023354772 0.00065976841 -0.0023104877 0.13269807 -0.010312554
9960000000 0.19937444 0.064563386 -0.0020461653 -0.0002602381 -0.0020005163 -0.00024200755 0.10150457 -0.047409967
9980000000 0.17068583 0.066536389 -0.00061529438 0.0022489284 -0.00063930324 0.0022488968 0.075139292 -0.069584876
10000000000 0.15336327 0.067598082 0.0030516896 0.00035836067 0.0029934151 0.00031006287 0.049823474 -0.11848045
10020000000 0.18865363 0.061951745 -0.00055629323 -0.0030940268 -0.00051831838 -0.0031737615 -0.0052703093 -0.11050597
10040000000 0.17252505 0.056008324 -0.0031851316 0.00087293645 -0.0031963452 0.0007928604 -0.035410769 -0.096007153
10060000000 0.16048166 0.029265584 0.0018001468 0.0036309476 0.0018099494 0.0036950195 -0.060449 -0.087783456
10080000000 0.17004813 0.034150086 0.002845576 -0.0030850021 0.0028651415 -0.003029671 -0.10968819 -0.056097079
10100000000 0.1512363 0.053421997 -0.0033042501 -0.0019008174 -0.0033337369 -0.0019238008 -0.1085378 -0.01766002
10120000000 0.15734413 0.016402937 -0.0017096652 0.0034377149 -0.0017021684 0.0034976488 -0.11690833 0.0099490751
10140000000 0.15481472 0.02929958 0.0045020375 0.00063150859 0.0045388942 0.00067835237 -0.095513888 0.058215622
10160000000 0.13714054 0.016798884 -0.00082208833 -0.0039181779 -0.00079437939 -0.0038911349 -0.076734915 0.079906754
10180000000 0.12758541 0.026651956 -0.0032599401 0.00092690316 -0.0032690614 0.0009781043 -0.051490687 0.09500666
10200000000 0.15653087 0.035903238 0.001404403 0.0034752614 0.0013641362 0.003503676 -0.014859286 0.11109404
10220000000 0.12975989 0.0029272102 0.0027255986 -0.0024601042 0.0026845015 -0.0024269798 0.020151928 0.091568872
10240000000 0.14065549 0.00020009339 -0.0020048064 -0.0019693985 -0.0020450323 -0.0019832435 0.030481635 0.092290886
10260000000 0.10899196 0.013820593 -0.0023956769 0.0021340763 -0.002383068 0.00215255 0.072681308 0.05485582
10280000000 0.098035149 0.012340424 0.0031257663 0.0019970771 0.0031302152 0.002058595 0.061850894 0.02047042
10300000000 0.13062175 0.0002210137 0.0010195326 -0.0030452232 0.0010080284 -0.0031043158 0.066826724 0.022124385
10320000000 0.081814863 -0.00047581646 -0.0030506698 -0.0011526945 -0.00302721 -0.001167485 0.064040467 -0.022312276
10340000000 0.076259062 -0.016894633 -0.00063381379 0.0040636258 -0.00060791586 0.0040396499 0.026344348 -0.016976504
10360000000 0.086758792 0.012782918 0.0037519685 -0.00085954572 0.003817701 -0.00090917211 0.025552513 -0.024936032
10380000000 0.063380569 0.0078789601 -0.001045696 -0.0031064532 -0.001046051 -0.0030784528 0.019910529 -0.040228263
10400000000 0.067152448 -0.014337287 -0.0035818464 0.0014475647 -0.0035525409 0.0013680389 -0.0027593854 -0.042418666
10420000000 0.053712066 0.004645098 0.0027699512 0.0029399407 0.002708941 0.0029548323 -0.00016625233 -0.029981233
10440000000 0.027217185 0.0072595482 0.0018747404 -0.0026072825 0.0018302256 -0.0026946254 -0.016540559 -0.042009726
