!Keysight Technologies,N5242B,MY47200105,A.14.00.23
!Date: Friday, April 26, 2024 10:52:29
!Correction: S11(C  2-Port  ) 
!S21(C  2-Port  ) 
!S12(C  2-Port  ) 
!S22(C  2-Port  ) 
!S2P File: Measurement: :
# Hz S  dB   R 50
7000000000 -27.940392 44.973091 -55.268208 68.321259 -55.336971 69.236397 -29.119205 -143.23518
7020000000 -27.317804 63.936493 -54.922943 -36.334068 -54.689831 -35.431114 -24.723108 179.18941
7040000000 -20.867662 48.904884 -54.577248 -144.12344 -54.631264 -144.25629 -23.981133 137.94308
7060000000 -22.034477 29.569456 -54.313557 109.11337 -54.288998 110.26762 -25.844309 103.96077
7080000000 -22.37623 21.273731 -53.954876 -1.6167979 -53.940365 -1.2190684 -23.292561 93.975273
7100000000 -22.645536 47.115604 -55.965134 -106.1912 -56.017387 -106.82913 -22.112736 53.399231
7120000000 -20.515234 34.155155 -55.353897 157.45868 -55.557323 157.47093 -20.848146 22.434015
7140000000 -18.827913 18.166887 -54.610195 46.056812 -54.646152 46.552139 -22.499666 -7.2121992
7160000000 -20.93622 16.137754 -56.610199 -67.955421 -56.714451 -66.777306 -22.113071 -27.635496
7180000000 -21.359411 17.861088 -58.107433 -153.92334 -58.012012 -152.85315 -21.500242 -65.328468
7200000000 -18.29838 29.052361 -57.297504 109.62166 -57.548641 110.28004 -22.062311 -90.530151
7220000000 -18.550089 13.213602 -56.950344 4.3987136 -56.800007 4.9222312 -22.764843 -125.83105
7240000000 -18.929886 1.7156479 -56.993294 -91.539185 -57.031879 -90.832123 -24.545179 -157.78696
7260000000 -19.225229 19.318146 -56.589237 165.16058 -56.647995 164.00966 -23.694967 -175.72832
7280000000 -18.741776 16.542917 -56.807178 67.157593 -57.030319 67.385971 -22.123068 145.01955
7300000000 -16.520494 9.3160162 -54.92485 -27.257092 -55.126148 -27.246807 -23.641943 115.21728
7320000000 -18.194569 6.4180222 -53.902401 -141.45369 -53.993095 -140.79823 -23.613586 87.53569
7340000000 -18.899633 5.6019573 -54.502808 117.69289 -54.617661 118.35265 -23.560532 72.068558
7360000000 -16.738432 14.868014 -52.188129 14.253882 -52.229931 14.322356 -22.223265 48.138451
7380000000 -16.502348 4.1653376 -50.941051 -107.74879 -50.91433 -107.75121 -22.50848 16.12215
7400000000 -16.639235 -4.1229887 -52.369152 132.08321 -52.412922 131.32585 -23.339447 -1.9109117
7420000000 -17.022707 3.355211 -55.474136 23.692778 -55.235935 22.653423 -24.289965 -19.260139
7440000000 -17.127712 5.5875449 -56.198677 -78.525917 -56.109074 -78.407074 -22.739031 -38.662651
7460000000 -14.674747 -0.35995716 -58.196877 173.10014 -57.866619 172.45255 -23.657001 -69.552971
7480000000 -16.465399 -8.5871582 -60.355721 80.064087 -60.369892 79.676331 -25.867525 -74.898857
7500000000 -17.31336 -4.9459395 -59.45863 -25.760458 -59.566574 -24.20846 -24.173658 -84.091835
7520000000 -15.419145 0.93106502 -62.836895 -154.01335 -63.153843 -153.37817 -22.623028 -105.07252
7540000000 -15.559609 -7.5033059 -74.741821 -148.2675 -72.905884 -160.73059 -21.263792 -132.89877
7560000000 -15.292459 -15.176057 -63.434246 98.995285 -63.92741 102.7457 -20.072882 -156.04332
7580000000 -16.514122 -9.9901457 -62.330357 -10.64728 -62.235714 -11.719608 -19.386805 175.007
7600000000 -15.946009 -3.1726127 -61.91238 -103.23265 -61.616798 -105.90818 -18.583555 142.86301
7620000000 -14.21355 -13.005879 -61.467918 150.06735 -61.494305 151.41992 -17.967712 108.90665
7640000000 -15.025133 -18.45236 -59.566574 60.061653 -59.664074 60.667614 -18.34289 81.642838
7660000000 -16.401239 -17.641563 -57.636177 -51.529331 -57.67387 -50.538361 -18.78541 52.332584
7680000000 -15.198045 -11.075983 -58.039597 -163.37296 -57.94006 -162.34863 -19.604761 28.962254
7700000000 -14.481316 -14.891324 -58.107063 100.85237 -57.90686 102.26747 -18.804806 3.3147457
7720000000 -14.958538 -28.840139 -56.474308 -7.2212954 -56.061649 -8.0424585 -18.765947 -24.791054
7740000000 -15.821168 -17.478966 -56.888092 -126.36784 -56.850109 -128.03027 -20.450842 -52.995705
7760000000 -15.52034 -14.073889 -60.764397 128.27818 -60.674767 129.3524 -21.500965 -68.803017
7780000000 -14.407898 -21.453096 -58.841434 57.317795 -58.946468 56.668098 -20.18029 -94.113846
7800000000 -14.474047 -23.5986 -56.446651 -70.52005 -56.3283 -69.141624 -21.336376 -132.06393
7820000000 -16.445126 -27.079288 -61.276028 164.09642 -61.167446 162.81926 -24.006134 -150.46173
7840000000 -14.807684 -14.506117 -62.761234 103.18516 -63.013519 104.42236 -23.973051 -169.76614
7860000000 -14.485021 -20.141888 -60.192829 -8.5595217 -60.019375 -9.1577845 -25.198877 157.17725
7880000000 -14.665373 -32.286777 -62.506256 -141.51717 -62.147186 -141.18434 -25.446764 116.06366
7900000000 -14.781333 -28.213013 -85.62458 -133.35872 -92.419434 -117.12586 -28.500372 90.867043
7920000000 -15.91494 -19.66247 -64.079231 120.67929 -64.023163 117.07431 -27.829651 62.155582
7940000000 -13.844436 -27.116598 -61.366863 7.6813869 -61.382023 8.1369162 -30.262564 28.28294
7960000000 -14.477807 -33.286674 -60.46603 -90.737549 -60.765018 -88.053802 -27.226742 -0.16623518
7980000000 -16.012224 -33.372337 -57.660587 166.32945 -57.957729 167.68912 -26.375765 -46.389229
8000000000 -14.737465 -25.430828 -55.619938 63.186687 -55.410851 63.484486 -30.632534 -65.547981
8020000000 -14.631903 -25.725271 -53.714493 -61.431664 -53.794037 -61.707401 -28.979628 -79.616432
8040000000 -14.466846 -40.141953 -55.109604 -179.03857 -55.183914 -179.59547 -26.364525 -106.35576
8060000000 -15.333527 -38.870865 -56.91967 81.842331 -56.962208 82.651863 -24.366693 -144.17209
8080000000 -15.932867 -26.208364 -54.88015 -22.039713 -54.593273 -23.353567 -27.158237 -176.99411
8100000000 -13.691489 -37.431763 -55.717831 -152.0639 -55.687363 -152.18945 -26.088726 176.06393
8120000000 -14.594521 -44.36731 -61.922375 81.131554 -61.516716 81.50325 -24.429226 140.18669
8140000000 -16.251852 -43.906754 -67.918007 56.652477 -67.671822 56.622284 -22.186996 111.94827
8160000000 -15.877226 -41.869667 -62.68652 -61.333809 -62.348679 -63.520145 -21.593939 74.138039
8180000000 -14.854857 -36.884857 -77.480774 -116.67526 -76.381569 -106.12079 -22.111254 54.263573
8200000000 -15.095466 -55.509899 -59.431992 174.28772 -59.427673 172.16423 -20.292221 28.228027
8220000000 -16.855635 -51.043537 -57.137409 48.235939 -57.357597 47.737759 -19.754499 2.9948039
8240000000 -17.132919 -40.464436 -57.112526 -52.68417 -56.830544 -52.015598 -18.452717 -23.606882
8260000000 -15.40274 -49.784138 -53.782372 -155.25278 -53.602589 -154.82068 -18.820629 -50.170464
8280000000 -15.410298 -56.047295 -52.540161 87.11927 -52.34407 87.158096 -19.034815 -65.886887
8300000000 -18.259022 -61.969612 -52.000908 -24.295776 -52.145126 -23.432812 -18.587811 -89.68763
8320000000 -17.448769 -50.347 -52.266315 -135.15205 -52.208603 -135.83359 -17.931717 -114.27599
8340000000 -15.805507 -48.541862 -51.731041 114.01393 -51.928574 114.25253 -18.987118 -136.47636
8360000000 -17.032482 -71.260712 -52.490681 1.6017075 -52.422821 2.0240963 -19.197638 -152.51405
8380000000 -18.426861 -66.963448 -53.528465 -113.19438 -53.565113 -113.20061 -18.900757 -176.71758
8400000000 -19.710878 -56.36541 -55.927975 141.6118 -55.984554 142.21516 -19.460815 157.255
8420000000 -18.173006 -58.895901 -58.447372 35.469673 -58.046677 36.732506 -19.500504 135.04303
8440000000 -17.41473 -72.653679 -61.35104 -67.241005 -61.411449 -64.846626 -20.826389 114.89243
8460000000 -21.409548 -75.910622 -71.891212 -150.47472 -71.969749 -148.81917 -20.434752 94.814362
8480000000 -21.067402 -60.09697 -61.295544 -172.26341 -61.741684 -171.70103 -19.985409 66.503204
8500000000 -18.517887 -59.700302 -57.298492 75.045944 -57.213867 74.442352 -20.900246 36.941307
8520000000 -19.928698 -82.801216 -56.188648 -38.260845 -56.165215 -36.883083 -21.260813 25.630383
8540000000 -22.63608 -92.644691 -55.139927 -137.12819 -55.196831 -137.1768 -20.953865 -1.1494973
8560000000 -23.446978 -54.117435 -52.812782 118.18577 -52.889622 117.61977 -21.218925 -30.426464
8580000000 -21.517252 -73.514084 -51.693665 0.028875818 -51.67041 0.18265936 -22.027615 -54.397423
8600000000 -21.108278 -91.735771 -52.858471 -114.60925 -52.663986 -115.47883 -23.214918 -69.922035
8620000000 -28.701374 -99.572594 -54.003227 146.69991 -53.981907 145.63391 -22.729137 -86.840988
8640000000 -27.946959 -96.116302 -52.69352 42.846653 -52.769062 42.690334 -23.2073 -116.62652
8660000000 -23.92561 -63.3256 -53.053703 -75.045166 -52.934536 -75.010391 -25.574711 -142.51115
8680000000 -27.090981 -104.55762 -56.052311 173.22144 -55.911945 173.77553 -28.880653 -159.2867
8700000000 -28.595705 -144.53043 -57.696907 91.517029 -57.533897 94.233032 -26.941427 -162.81546
8720000000 -32.332584 -25.898397 -56.922207 -11.805518 -56.762669 -11.138065 -29.641718 154.83806
8740000000 -37.873184 -111.47635 -58.890682 -119.52652 -58.747772 -119.53802 -34.505474 131.43489
8760000000 -28.33963 -107.41326 -60.376389 170.91655 -60.11359 172.02913 -34.219833 50.007015
8780000000 -30.446636 144.29749 -57.327499 68.934288 -57.281326 69.433418 -46.212685 -50.113903
8800000000 -31.252026 115.88821 -57.522514 -41.832542 -57.571774 -45.191078 -37.645485 50.120178
8820000000 -36.988625 1.6414341 -60.471394 -128.52742 -60.475296 -129.3853 -30.40093 -34.064106
8840000000 -29.739305 133.06517 -56.919903 142.5271 -56.726105 142.04498 -27.85886 -93.337349
8860000000 -29.646811 129.99863 -55.779194 31.182772 -55.880264 33.490482 -31.369276 -124.40709
8880000000 -24.196012 88.075256 -56.006866 -71.076111 -55.903027 -70.365814 -29.317425 -92.69622
8900000000 -26.312069 79.131622 -54.898823 -166.09322 -54.996964 -166.70755 -24.882605 -145.40492
8920000000 -31.296165 110.17995 -53.541393 85.410545 -53.654373 85.463013 -26.225147 174.21745
8940000000 -22.741199 98.734032 -53.479969 -27.92477 -53.296913 -27.812374 -26.619526 165.00813
8960000000 -22.180285 85.016861 -54.45763 -134.43147 -54.519882 -135.49467 -25.291883 144.7872
8980000000 -24.396917 67.407089 -55.054665 130.21715 -55.025566 131.81831 -25.489933 120.92462
9000000000 -23.627415 80.629677 -53.344261 21.948135 -53.236893 22.134281 -25.001663 84.795647
9020000000 -22.438406 98.947845 -53.884098 -98.300262 -53.873474 -98.378487 -24.476959 67.932083
9040000000 -19.174475 74.800583 -57.636967 147.07309 -58.032051 148.04399 -24.930222 35.249825
9060000000 -21.02647 62.226357 -60.146103 75.270035 -60.100624 72.850174 -24.857248 32.456512
9080000000 -24.465677 90.095985 -58.475521 -29.751024 -58.719051 -31.322227 -22.273884 1.6376897
9100000000 -18.842993 73.877167 -61.355797 -151.53455 -61.327515 -152.81799 -23.745394 -23.873442
9120000000 -18.296366 75.0867 -68.78714 173.3439 -69.623329 169.98262 -23.004959 -43.432793
9140000000 -20.84623 56.213726 -60.622143 79.966957 -60.898834 80.231026 -23.068443 -48.703568
9160000000 -19.769938 66.450607 -59.341526 -32.771629 -59.345764 -34.762489 -20.745787 -75.582756
9180000000 -18.937605 82.949234 -61.43858 -127.89846 -61.235439 -131.09184 -22.777502 -105.24678
9200000000 -17.548895 59.36198 -57.527264 139.35306 -57.283566 138.19762 -22.154884 -113.48119
9220000000 -17.895092 54.318878 -56.230709 23.122498 -56.155891 23.927872 -21.141005 -136.46051
9240000000 -20.118155 69.645828 -56.731102 -87.616508 -56.701042 -89.175446 -21.105515 -158.55907
9260000000 -17.357977 68.826004 -57.462002 172.08231 -57.610725 173.33876 -23.02342 -179.25262
9280000000 -16.386717 60.305824 -56.611053 67.770119 -56.619694 67.745117 -22.545897 164.86041
9300000000 -18.160103 50.022652 -56.847515 -37.740402 -56.880871 -37.386524 -22.104006 139.91388
9320000000 -17.743757 58.646477 -56.961163 -148.49271 -57.279465 -147.79393 -22.665895 128.00806
9340000000 -17.261646 66.614319 -58.656025 103.83777 -58.77726 103.41237 -22.744621 96.084061
9360000000 -15.876521 53.557827 -59.743053 -6.7647023 -59.700134 -5.9067941 -26.15086 80.619156
9380000000 -15.651481 49.087742 -63.396976 -120.31716 -63.104092 -118.53831 -24.153942 71.279686
9400000000 -18.339001 58.848515 -69.293037 145.58905 -69.356354 139.14481 -23.571527 38.328098
9420000000 -15.972977 57.021732 -71.097702 93.782524 -71.307854 92.355835 -26.357746 11.788965
9440000000 -14.416107 51.268219 -74.67131 24.672977 -74.249611 40.581268 -27.651371 4.5650954
9460000000 -16.583212 47.72015 -65.071953 -28.612446 -66.320213 -27.494261 -27.620878 -21.574211
9480000000 -16.437214 45.409939 -61.0755 -133.97443 -61.076496 -133.60849 -26.671877 -35.510239
9500000000 -15.502939 59.672527 -57.563648 107.64577 -57.422501 108.92373 -29.423199 -77.336281
9520000000 -14.475497 44.871315 -57.084663 -9.2408276 -57.157257 -8.7367325 -32.158924 -98.059715
9540000000 -15.219311 37.870396 -57.288864 -114.708 -57.08128 -115.33265 -37.35284 -82.916229
9560000000 -16.919096 53.1656 -55.750534 139.29814 -55.494736 138.57176 -35.410179 -112.87346
9580000000 -15.212789 45.456688 -55.591938 21.425762 -55.54739 18.923685 -33.529381 163.83228
9600000000 -13.494052 44.5952 -57.088627 -91.333572 -57.129719 -90.382683 -41.931614 40.707298
9620000000 -15.964863 38.524792 -58.593315 168.55913 -58.803574 168.54253 -41.119198 -3.7576423
9640000000 -16.29109 38.957706 -58.520538 62.358543 -58.610817 60.524082 -34.997574 -35.249737
9660000000 -14.379339 51.925167 -58.788727 -54.488827 -58.912746 -54.777943 -31.367739 -44.453453
9680000000 -14.535961 35.761189 -61.102779 170.67422 -61.061054 171.19777 -28.956383 -64.884094
9700000000 -15.358224 29.318901 -72.918785 38.708843 -72.685791 37.248882 -25.282406 -107.43066
9720000000 -15.720936 41.048492 -73.702469 175.61043 -73.263367 -177.38138 -23.850256 -129.42755
9740000000 -15.322016 35.945728 -72.525673 49.166409 -73.317436 71.53698 -23.222628 -139.82649
9760000000 -13.883376 38.75914 -60.448486 -52.917397 -60.752872 -55.31168 -21.170656 -165.25861
9780000000 -15.611041 22.762655 -58.604656 169.3956 -58.471931 170.92569 -20.560177 166.74097
9800000000 -15.991056 31.669621 -59.088848 55.42345 -58.64854 56.354633 -20.135992 151.09248
9820000000 -14.566692 39.873672 -60.202045 -47.144596 -60.052303 -47.985439 -18.907225 129.69214
9840000000 -15.340242 27.25598 -57.45137 -145.30702 -57.569065 -142.7018 -18.689142 110.15533
9860000000 -14.382474 20.464676 -57.18964 97.713852 -57.32008 96.984566 -17.71596 87.12812
9880000000 -16.236982 27.509142 -58.14315 -14.868929 -58.557144 -16.720287 -18.403019 63.514271
9900000000 -15.764476 27.250603 -62.865974 -120.71492 -62.612026 -124.47842 -18.337376 42.872578
9920000000 -14.488611 21.470808 -62.272381 147.02669 -62.511379 154.9931 -17.713963 20.128305
9940000000 -15.549896 21.072191 -64.034454 46.691387 -64.477135 47.212044 -17.92309 -8.765357
9960000000 -15.625759 13.030162 -66.45224 -51.708412 -67.018982 -51.310284 -19.495707 -29.188534
9980000000 -15.942017 23.074614 -68.007378 -80.825081 -68.051788 -79.421082 -19.952858 -48.840252
10000000000 -15.575057 19.582846 -62.345566 -171.82896 -61.269344 -170.64198 -18.485151 -74.972694
10020000000 -14.79145 6.7742968 -59.071533 76.269447 -59.389519 76.414337 -19.334404 -94.899834
10040000000 -17.254526 10.311444 -59.554436 -19.797634 -59.281979 -18.460058 -19.787436 -120.03371
10060000000 -17.339228 13.157454 -55.345619 -111.73914 -55.414726 -110.2338 -20.240189 -135.19449
10080000000 -14.917148 10.529103 -52.561028 131.92137 -52.683685 132.16875 -19.126751 -159.63998
10100000000 -16.158846 4.5844598 -52.494621 12.05984 -52.351704 12.783122 -19.294392 -173.43277
10120000000 -17.888447 -6.6049638 -53.818192 -93.10025 -53.95409 -91.933853 -18.616167 166.62489
10140000000 -17.139921 11.614889 -53.197643 172.62181 -53.166264 171.75072 -19.889175 139.58456
10160000000 -16.380795 2.5691762 -51.442581 65.201721 -51.291782 65.790222 -19.503185 131.15286
10180000000 -17.555271 -8.1866808 -51.598785 -54.439159 -51.559109 -54.658989 -18.8193 113.28004
10200000000 -17.855959 -1.9278487 -54.67141 -159.75565 -54.679379 -159.07628 -18.324261 88.100563
10220000000 -19.159307 -1.0609086 -54.699768 120.4622 -54.868061 119.43638 -21.07855 61.506409
10240000000 -16.778269 -4.7343092 -52.339279 8.0708246 -52.184052 8.2375298 -20.833832 67.714539
10260000000 -18.622662 -14.050064 -55.568764 -113.89478 -55.712856 -113.88712 -20.218325 32.218933
10280000000 -21.747078 -17.241831 -59.625916 -175.33032 -59.415649 -174.21347 -23.299498 4.9973536
10300000000 -19.011581 -6.2907805 -54.645763 96.764091 -54.805264 98.0364 -24.540852 1.3121858
10320000000 -20.965933 -7.790535 -54.463291 -17.7995 -54.477566 -16.862711 -25.248795 -21.561012
10340000000 -19.693762 -31.903179 -54.558094 -97.773438 -54.346584 -97.584099 -28.038372 -26.741196
10360000000 -21.98353 -20.548027 -51.404484 156.77826 -51.472675 156.58852 -27.484594 -66.25351
10380000000 -26.24646 -15.795421 -50.066097 41.591496 -49.998543 42.064465 -28.745947 -86.936531
10400000000 -21.894503 -20.93848 -52.18071 -69.034332 -51.988991 -68.505112 -28.545116 -91.165756
10420000000 -21.931601 -29.737835 -51.905361 -163.39529 -51.627956 -161.96751 -27.476807 -100.4501
10440000000 -26.890438 -66.607437 -51.715637 95.671562 -51.613346 95.604721 -26.270906 -137.62082
10460000000 -25.867975 -23.213297 -51.927597 -10.067401 -51.978294 -10.846536 -25.590357 -160.24123
10480000000 -26.870827 -11.523543 -52.792881 -103.74511 -52.840954 -103.68719 -23.7101 -170.16692
10500000000 -21.982771 -66.566765 -53.164562 157.69873 -53.198311 156.88818 -24.135231 167.95528
10520000000 -30.66622 -102.59445 -51.921371 67.216019 -51.994095 67.30407 -22.697155 155.66841
10540000000 -37.7103 -101.68063 -51.459293 -36.867027 -51.486465 -37.649349 -21.808331 127.2244
10560000000 -26.214634 -65.560219 -50.819847 -131.08737 -50.87624 -130.73233 -21.956257 107.03513
10580000000 -29.272203 -108.25732 -49.415775 129.8669 -49.517982 130.99104 -22.191582 95.62323
10600000000 -25.392159 -144.06245 -47.659428 23.249556 -47.700356 23.367085 -22.639679 69.188599
10620000000 -38.184029 -150.53963 -47.823494 -86.474808 -47.735409 -86.652893 -24.984077 52.204365
10640000000 -33.68668 -113.98673 -47.930016 173.08092 -47.802616 172.33636 -26.836443 50.637745
10660000000 -25.735905 -136.6162 -46.836716 70.86972 -46.82069 72.185493 -26.365932 6.0467939
10680000000 -27.132042 -165.45934 -45.735245 -42.48584 -45.828056 -42.725277 -31.663353 -29.280317
10700000000 -27.577339 -171.29581 -47.216694 -153.01292 -47.17749 -154.13655 -37.019058 6.7446251
10720000000 -26.839052 -145.67213 -47.749512 107.16368 -47.750835 106.72105 -49.868179 61.613274
10740000000 -25.513147 -153.33936 -47.173744 1.9217412 -47.294861 2.2853582 -39.942558 -111.05547
10760000000 -21.598375 -176.44118 -48.307941 -112.1921 -48.172894 -112.7843 -31.897251 164.17854
10780000000 -25.385014 -170.74927 -50.270294 147.82965 -50.193466 147.32634 -34.434521 125.86917
10800000000 -24.384834 178.67754 -51.022221 48.285774 -51.155529 48.345966 -32.315269 96.083015
10820000000 -21.605913 -178.72774 -51.021523 -52.989788 -51.337467 -53.105949 -33.134224 76.233727
10840000000 -22.993708 -164.87453 -51.820061 -164.57655 -52.029758 -166.5009 -30.768925 81.24646
10860000000 -20.152252 157.9668 -54.590637 74.496544 -54.526287 74.824753 -33.973816 28.992327
10880000000 -22.923893 173.00986 -70.531807 -53.915688 -71.370354 -37.881897 -32.617611 -47.40966
10900000000 -22.001789 -178.80754 -60.282768 -42.806122 -60.280746 -43.401497 -31.246241 -120.30566
10920000000 -19.16433 175.36713 -70.487778 -93.196922 -72.30851 -91.96759 -38.847782 -146.92436
10940000000 -20.663744 168.9633 -53.768726 -171.95761 -53.985149 -171.23689 -27.268572 -144.77707
10960000000 -20.762497 161.60771 -49.875664 52.835018 -50.114868 54.227592 -23.174343 173.15178
10980000000 -18.909649 -176.33716 -52.345985 -64.263176 -52.451618 -65.596123 -22.053282 152.17812
11000000000 -17.689829 172.5591 -50.976837 -138.36176 -50.981884 -138.29533 -21.549585 130.92845
11020000000 -17.085424 150.55197 -47.572186 109.17011 -47.584759 109.506 -21.176006 114.09865
11040000000 -17.83177 163.7536 -48.219246 -9.271452 -48.314537 -9.8489532 -21.148962 97.484985
11060000000 -17.388296 170.88409 -49.786716 -92.575775 -49.646671 -92.225853 -20.416801 84.650459
11080000000 -15.092702 159.82054 -46.561829 164.02747 -46.570652 164.84201 -19.171925 46.916904
