!Keysight Technologies,N5242B,MY47200105,A.14.00.23
!Date: Friday, April 26, 2024 10:52:10
!Correction: S11(C  2-Port  ) 
!S21(C  2-Port  ) 
!S12(C  2-Port  ) 
!S22(C  2-Port  ) 
!S2P File: Measurement: :
# Hz S  RI   R 50
7000000000 0.028092416 0.027705057 0.00065497338 0.0016008349 0.00063721463 0.0016346161 -0.029281106 -0.021180646
7020000000 0.017229747 0.038863949 0.0014852562 -0.0010582254 0.0014813235 -0.0010624089 -0.057239413 -0.00038323045
7040000000 0.061097924 0.066416577 -0.0015300738 -0.0011112532 -0.0014993913 -0.0011124305 -0.04775954 0.042361554
7060000000 0.066710882 0.040510885 -0.00067270483 0.001832267 -0.00065665354 0.0017789651 -0.011591231 0.049717035
7080000000 0.072333783 0.02764656 0.0020319663 -3.6314465e-005 0.0020412151 -4.1909443e-005 -0.0062656915 0.068074532
7100000000 0.047543235 0.054066934 -0.00044205648 -0.0015272329 -0.00044588631 -0.0015236193 0.048620403 0.063524887
7120000000 0.077491052 0.051953912 -0.0015629397 0.00061819644 -0.0015802584 0.00061432814 0.082558222 0.034509722
7140000000 0.10825255 0.036535643 0.0012609635 0.0013380185 0.0012566344 0.0013484319 0.075018868 -0.0086005805
7160000000 0.085768446 0.025144344 0.00058851286 -0.0013600229 0.00060236553 -0.0013682318 0.069385968 -0.035945434
7180000000 0.080391891 0.024680188 -0.0011482341 -0.00057920063 -0.0011021369 -0.00054934836 0.035727579 -0.077973597
7200000000 0.10752127 0.05865014 -0.00044554667 0.0012906796 -0.00047615741 0.0012678382 -0.0011882519 -0.076694734
7220000000 0.11403404 0.028606689 0.0014225368 0.00010914882 0.0014312511 0.00012363646 -0.041390076 -0.06087476
7240000000 0.11393598 0.001826411 -3.7259637e-005 -0.0014187169 -1.5379404e-005 -0.0014106425 -0.056572996 -0.022057891
7260000000 0.10270066 0.036405731 -0.0013868741 0.00037647891 -0.0014022799 0.00037857494 -0.063272379 -0.0048947632
7280000000 0.11168072 0.033896279 0.00051459501 0.001332766 0.00049569091 0.0013146533 -0.065357208 0.044530232
7300000000 0.1463258 0.024396874 0.0015553968 -0.00079502963 0.0015377982 -0.00079237082 -0.028380293 0.060364336
7320000000 0.12184823 0.015114427 -0.0015786785 -0.0012609124 -0.001544398 -0.001245808 0.0035738943 0.065389626
7340000000 0.11248709 0.0094021903 -0.00087702152 0.0016218423 -0.00087681413 0.0016439089 0.019371675 0.062320977
7360000000 0.14107645 0.039663669 0.0023970867 0.00066663395 0.0023682544 0.00066558993 0.052152019 0.059275672
7380000000 0.14839053 0.010995524 -0.00087880087 -0.0027120039 -0.00082164444 -0.0027363522 0.072147436 0.019381048
7400000000 0.14507067 -0.010152785 -0.0015549676 0.0018137763 -0.0015564784 0.0018184863 0.067277044 -0.0018932549
7420000000 0.14263421 0.0085019125 0.0016304083 0.00068670377 0.0016307471 0.00067650696 0.059019975 -0.019620599
7440000000 0.13760507 0.015989587 0.00032813961 -0.0015268127 0.00034429267 -0.0014898238 0.056225333 -0.045635734
7460000000 0.18471403 -0.0010764271 -0.0012675045 0.00018288566 -0.0012491669 0.00017436426 0.022998592 -0.06113258
7480000000 0.1472643 -0.021826949 0.00020478951 0.00093819312 0.00017013133 0.00092690793 0.014966842 -0.049208887
7500000000 0.13603276 -0.010580576 0.00097660662 -0.00038692672 0.00094274845 -0.00040423061 0.0052380511 -0.061683111
7520000000 0.16824864 0.0039265547 -0.00061476318 -0.00030941391 -0.00059167546 -0.00031931288 -0.017763499 -0.070687555
7540000000 0.16439573 -0.021488983 -0.00022286235 -0.00011092414 -0.00017521504 -8.6559092e-005 -0.059154462 -0.064221248
7560000000 0.16561805 -0.045281526 -0.0001297468 0.00065533002 -0.00011571291 0.00061865797 -0.090388305 -0.040380638
7580000000 0.14750732 -0.025161015 0.00076671969 -0.00019905927 0.00077729317 -0.00015862857 -0.1066214 0.0098078065
7600000000 0.15712917 -0.0065036453 -0.00023027285 -0.00077232503 -0.00021063221 -0.00080835493 -0.094111219 0.070760377
7620000000 0.19032842 -0.044106007 -0.00073592912 0.00042366708 -0.00074626494 0.0004063769 -0.042099863 0.12000022
7640000000 0.16821948 -0.055025674 0.00050936738 0.00090460206 0.00052042434 0.00090792024 0.018173007 0.11916167
7660000000 0.1436968 -0.043917876 0.00079776358 -0.0010136304 0.00082252984 -0.0010281847 0.06948898 0.091490321
7680000000 0.16898084 -0.032747295 -0.0011889332 -0.00038873419 -0.0011935678 -0.00036996711 0.092545182 0.050736897
7700000000 0.18300875 -0.04765629 -0.00020044694 0.0012475024 -0.00024374793 0.0012466218 0.11306886 0.0071993424
7720000000 0.15587626 -0.086453803 0.001513046 -0.00018902542 0.0014980212 -0.00018444279 0.10523079 -0.049189705
7740000000 0.15227298 -0.046904277 -0.00082874711 -0.001140009 -0.00085224269 -0.0011745619 0.057176523 -0.074898183
7760000000 0.16298634 -0.04238759 -0.00060875516 0.00073446654 -0.00056927756 0.00071408355 0.030238541 -0.078655846
7780000000 0.17790009 -0.069945298 0.0006464725 0.00091956719 0.00064310856 0.00093444128 -0.0072803791 -0.097548664
7800000000 0.17281175 -0.074054949 0.00052060263 -0.0014239541 0.00051351893 -0.0014172945 -0.057342153 -0.063979663
7820000000 0.13301013 -0.068333 -0.00085726386 0.00023433832 -0.00086009514 0.00024960726 -0.05388597 -0.030520352
7840000000 0.17642368 -0.04612169 -0.00019835518 0.00071672793 -0.00016713803 0.00071307039 -0.062976263 -0.012013501
7860000000 0.17739058 -0.063352264 0.00093884056 -0.00014362695 0.00095947162 -0.00014959137 -0.050366756 0.021942066
7880000000 0.15466581 -0.097606935 -0.00057859282 -0.0004699071 -0.00059327058 -0.00045408795 -0.023485757 0.047048036
7900000000 0.16069461 -0.087087482 -2.6430747e-005 -5.9162379e-005 -3.079059e-005 -3.6886497e-005 -0.0006431439 0.037766196
7920000000 0.15084554 -0.055065181 -0.00029762113 0.00053021387 -0.00033963748 0.00051454088 0.019314732 0.036134198
7940000000 0.18205579 -0.091095693 0.00079996767 0.00015903654 0.00085935171 0.00017299493 0.027724063 0.013184826
7960000000 0.15656409 -0.10213646 2.7359665e-005 -0.00094545778 1.2839941e-005 -0.00090261898 0.04337249 0.0021956551
7980000000 0.13410448 -0.089021012 -0.0012946121 0.00026312665 -0.0012470172 0.00030426658 0.034443531 -0.035305358
8000000000 0.16764103 -0.078870013 0.0007706625 0.0014990477 0.00077444728 0.0014995186 0.010097003 -0.026579445
8020000000 0.16566136 -0.077249832 0.001060892 -0.001804776 0.0010135804 -0.0018306817 0.0077285599 -0.034996599
8040000000 0.14439751 -0.12218415 -0.0017784181 -1.4116458e-005 -0.0017533303 7.2857995e-007 -0.013411906 -0.046821058
8060000000 0.1353327 -0.10825333 0.00020782523 0.001427697 0.00019518349 0.0013946135 -0.049422033 -0.035538737
8080000000 0.1424661 -0.068157718 0.0016826676 -0.00069371925 0.0016819264 -0.00065420527 -0.043056037 -0.0010430746
8100000000 0.16396244 -0.12547547 -0.0014628596 -0.00077528501 -0.0014950809 -0.0007505875 -0.050315995 0.0012407907
8120000000 0.13420591 -0.12955166 0.00010530288 0.00079856964 0.00013939488 0.00087019155 -0.045152716 0.040592242
8140000000 0.1129843 -0.10675003 0.00021904246 0.00036776363 0.00025084958 0.00037574806 -0.029140146 0.070998013
8160000000 0.11915257 -0.1052129 0.00040217215 -0.00064695015 0.00036033135 -0.00066110911 0.021337591 0.081443354
8180000000 0.14591005 -0.10675552 -2.9632643e-005 -9.6624521e-005 -1.0138049e-005 -9.6728356e-005 0.046746299 0.063165732
8200000000 0.099459067 -0.14659762 -0.0010320343 0.00016702131 -0.0010823642 0.00013496258 0.084282704 0.045229826
8220000000 0.091912888 -0.10791609 0.00094962359 0.0010020502 0.00090463884 0.0010021008 0.10348192 0.0059577608
8240000000 0.10436654 -0.088488743 0.00080371893 -0.0010935761 0.00086783845 -0.0011154085 0.10945164 -0.04831383
8260000000 0.10592458 -0.13037741 -0.0018802667 -0.00089799793 -0.0018795189 -0.00087798713 0.0732636 -0.087630987
8280000000 0.099241555 -0.14111932 0.00011638829 0.0023530682 0.00011391997 0.0024124831 0.046636414 -0.10162815
8300000000 0.054515433 -0.10327358 0.0023056606 -0.0010387924 0.0022736019 -0.00099851063 -9.8751319e-005 -0.11807139
8320000000 0.084632806 -0.1032417 -0.0017381369 -0.0017543372 -0.0017098296 -0.0017461283 -0.050592676 -0.11556921
8340000000 0.11007582 -0.12200954 -0.001052641 0.0023065477 -0.0010669244 0.0023318138 -0.081234284 -0.077534661
8360000000 0.045264482 -0.13157795 0.0024121059 7.9019672e-005 0.0024230666 6.0820887e-005 -0.097905703 -0.049777303
8380000000 0.046777405 -0.10858953 -0.00083553669 -0.0019154493 -0.00079668296 -0.0019365646 -0.1131249 -0.0073532104
8400000000 0.056580704 -0.088270597 -0.001237647 0.0010104807 -0.0012407077 0.0010082207 -0.099063866 0.041094534
8420000000 0.061476782 -0.10470655 0.0010118217 0.00070972857 0.00097162713 0.00073039136 -0.073497884 0.073981509
8440000000 0.041848466 -0.12952672 0.00039014203 -0.00079107872 0.00037855559 -0.0007655716 -0.039279107 0.082893446
8460000000 0.016962377 -0.079445921 -0.00020685264 -0.00010804198 -0.00020671274 -0.00016132448 -0.0072616721 0.095802687
8480000000 0.043887116 -0.078965217 -0.00085363135 -0.00012045591 -0.00084471738 -0.00011115609 0.038999148 0.090997055
8500000000 0.059825029 -0.10305329 0.00032270199 0.0013267049 0.00034702622 0.0013095479 0.072793946 0.055522002
8520000000 0.013435914 -0.097651109 0.0012826566 -0.00093166128 0.0012515492 -0.00096219563 0.077135473 0.036733828
8540000000 -0.0087876851 -0.07549116 -0.0012869233 -0.0012124104 -0.0012739678 -0.0011777576 0.090199336 -0.00099087018
8560000000 0.044037662 -0.055075012 -0.0010629919 0.0020100023 -0.0010751914 0.001989258 0.074134998 -0.045174003
8580000000 0.022449836 -0.079404056 0.0025804627 -5.5799642e-006 0.0026213997 2.0392667e-005 0.046724904 -0.063681506
8600000000 -0.004893647 -0.088649869 -0.00097272603 -0.0020946146 -0.00095550739 -0.002092032 0.024150304 -0.065262467
8620000000 -0.0067921174 -0.039233748 -0.0016596994 0.0010716086 -0.0016416659 0.0011106849 0.0039845104 -0.072096296
8640000000 -0.0051569976 -0.038948979 0.0017102615 0.0015658318 0.001736989 0.001580469 -0.031397499 -0.062139008
8660000000 0.028836329 -0.058581054 0.0006116826 -0.0021774622 0.00059714267 -0.0021498506 -0.040253259 -0.032766752
8680000000 -0.012170796 -0.042222962 -0.0015449435 0.00012487177 -0.0015592667 0.00017824071 -0.035773192 -0.012025395
8700000000 -0.031009657 -0.024968462 -7.3493466e-005 0.0013158153 -6.0870054e-005 0.0013337365 -0.040102135 -0.013894476
8720000000 0.023465585 -0.0084915012 0.0014412059 -0.00025057051 0.001428495 -0.0002911948 -0.03193659 0.013225839
8740000000 -0.0045219441 -0.011511396 -0.00055788219 -0.0010411444 -0.0005628941 -0.0010527457 -0.010742743 0.015730342
8760000000 -0.014568535 -0.038021684 -0.00096062018 0.0001171827 -0.00093573442 0.00013941327 0.012114643 0.014600229
8780000000 -0.020961368 0.016749147 0.00049478258 0.0012835346 0.00052716228 0.0012829888 0.0016525626 -0.0035324914
8800000000 -0.013379715 0.026767962 0.00096798589 -0.00093487219 0.00093824783 -0.00089852937 0.0097777285 0.0097202696
8820000000 0.012737492 -0.00078972679 -0.00059399096 -0.00077740022 -0.00059496367 -0.00073294045 0.025302207 -0.017313318
8840000000 -0.024583407 0.022303322 -0.0011332341 0.00090430258 -0.0011143583 0.00091102422 -0.0030747668 -0.03832465
8860000000 -0.017010508 0.025487533 0.0013648164 0.00087912648 0.0013441446 0.00085928087 -0.014249272 -0.025105095
8880000000 -0.0020472552 0.061925333 0.00054540456 -0.0015017713 0.00050837087 -0.0014889183 -0.0026820258 -0.031390596
8900000000 0.010465363 0.047415048 -0.0017299366 -0.00039416767 -0.0017649528 -0.00041843273 -0.04600646 -0.033387247
8920000000 -0.0088277133 0.023437174 0.00016363969 0.0020710933 0.00018340605 0.0020424742 -0.049062882 0.0054698181
8940000000 -0.011400885 0.074499898 0.0018736665 -0.00098863733 0.0019266455 -0.00094450568 -0.045756858 0.0123023
8960000000 0.0057563107 0.077888452 -0.0013304758 -0.0013010477 -0.0012997417 -0.0013341053 -0.04303088 0.030819425
8980000000 0.019704655 0.056874938 -0.0011453391 0.0013691541 -0.0011470687 0.0013383963 -0.027843792 0.046093732
9000000000 0.013942383 0.065392032 0.0020203521 0.00083869701 0.0020123951 0.00083636743 0.0065223924 0.057096437
9020000000 -0.014123955 0.075576141 -0.00027496001 -0.0020108798 -0.000291862 -0.0020422346 0.019959463 0.054414276
9040000000 0.028110595 0.10748117 -0.0010460162 0.00067982759 -0.0010316563 0.0007159189 0.048096787 0.033592317
9060000000 0.039596554 0.077001996 0.00026160578 0.00089189841 0.00026677031 0.00091074064 0.047147747 0.029555755
9080000000 0.0019714572 0.060801577 0.0010263624 -0.00059818861 0.0010110866 -0.00062982569 0.077806413 0.0042967144
9100000000 0.029830096 0.10909883 -0.00076210208 -0.00042418824 -0.0007553277 -0.00043034847 0.059358809 -0.027205564
9120000000 0.028797762 0.1183165 -0.0003304994 5.4394e-005 -0.0003208475 6.1939936e-005 0.051504932 -0.047506645
9140000000 0.050576039 0.076041244 0.00015400529 0.00083593302 0.00020576398 0.00085560657 0.046466477 -0.052788138
9160000000 0.040598035 0.095113896 0.00093729334 -0.00057869864 0.00089844386 -0.00053937 0.022874953 -0.088053018
9180000000 0.0091486126 0.11286347 -0.00058444234 -0.00068215246 -0.00052247714 -0.00066164142 -0.019723097 -0.07149101
9200000000 0.069339827 0.11433613 -0.0010457927 0.00088564563 -0.0010567495 0.00092316046 -0.030053474 -0.071314007
9220000000 0.070169777 0.10363325 0.0014015541 0.000622336 0.0014233389 0.00060525612 -0.063916393 -0.060977377
9240000000 0.034388375 0.094255194 2.4708594e-005 -0.0014677551 6.429015e-005 -0.0014686385 -0.08195617 -0.033012919
9260000000 0.044690743 0.12441382 -0.0013480774 0.00014268594 -0.0013385713 0.00015350057 -0.071325377 -1.4675862e-005
9280000000 0.07564605 0.13409911 0.00052817131 0.0013552044 0.00053900102 0.0013317511 -0.070650689 0.018773483
9300000000 0.078762539 0.092842825 0.0011147682 -0.00088070484 0.0011545424 -0.00087317982 -0.062254425 0.050821535
9320000000 0.065409936 0.11378817 -0.00122152 -0.00072323455 -0.0011842365 -0.00073415216 -0.04417162 0.058974851
9340000000 0.051856037 0.12443721 -0.00023553052 0.0011166502 -0.00029774345 0.001074105 -0.0081658587 0.070425257
9360000000 0.095242538 0.13033034 0.001023137 -8.5056228e-005 0.0010461486 -0.00013352883 0.0086889453 0.050673973
9380000000 0.10731795 0.12481005 -0.00033345266 -0.00059159321 -0.00033229048 -0.00061465532 0.019007146 0.057795718
9400000000 0.058108646 0.10600246 -0.00023893583 0.00020889408 -0.00024002604 0.00016836447 0.051723186 0.041640352
9420000000 0.08731544 0.13032341 -5.7902671e-005 0.00027148082 -4.3760432e-005 0.00025177872 0.046631057 0.0095637655
9440000000 0.11763164 0.15075465 0.00016352089 0.00014551691 0.00016951736 8.9801251e-005 0.041062824 0.0031221886
9460000000 0.098383851 0.10829055 0.00045588208 -0.00025857342 0.00037954911 -0.00030082825 0.039894227 -0.014775053
9480000000 0.10426545 0.10981554 -0.00063171465 -0.000613596 -0.00061948149 -0.00067844719 0.036699165 -0.025761405
9500000000 0.085295267 0.14296351 -0.00041854254 0.0012028012 -0.000403407 0.0012482501 0.0082693519 -0.03323457
9520000000 0.13110484 0.13475512 0.0014095685 -0.00021054923 0.0014125303 -0.00021221714 -0.0036954551 -0.023961261
9540000000 0.13869235 0.11009543 -0.00054962659 -0.0012320874 -0.00055064406 -0.0012529 0.00036509879 -0.012822222
9560000000 0.079349518 0.11570466 -0.0012517483 0.0011319269 -0.0012486053 0.0010926747 -0.0055165514 -0.015806753
9580000000 0.12378979 0.12379419 0.0015366127 0.00059145421 0.0015442783 0.0006027713 -0.021739529 0.0045340401
9600000000 0.14846547 0.15068938 -4.0618233e-005 -0.0014371442 -9.3351926e-005 -0.0014358457 0.0073854919 0.0077155954
9620000000 0.12547114 0.10126584 -0.0011147334 0.0002241176 -0.0011846183 0.00025902898 0.0079671107 -0.0040847943
9640000000 0.116192 0.095100179 0.0006309009 0.0010777819 0.00056554424 0.001077803 0.014986479 -0.0072075357
9660000000 0.11897217 0.15330955 0.00069132639 -0.00089864084 0.00062774849 -0.00092795421 0.021256935 -0.021048922
9680000000 0.15072623 0.1110445 -0.00084150879 0.00013474457 -0.00087101822 9.1979426e-005 0.013766901 -0.030547159
9700000000 0.14676142 0.083799735 0.00020428245 0.00014170457 0.00018282759 0.00018754305 -0.01592236 -0.05168036
9720000000 0.12012099 0.10858009 -0.00019461614 4.8770868e-005 -0.00015687013 4.3783464e-005 -0.039624594 -0.051733185
9740000000 0.13828276 0.10193011 0.00015486554 0.00023243073 0.00016166604 0.00019150361 -0.054593898 -0.044112355
9760000000 0.15490705 0.12961406 0.00055444206 -0.00072622288 0.00053300563 -0.00070834399 -0.082887709 -0.021640697
9780000000 0.15014434 0.064742424 -0.0011738793 0.00020295678 -0.0011195581 0.00018759843 -0.094276533 0.020707281
9800000000 0.13243841 0.082361452 0.00056457828 0.00096827408 0.00061566633 0.00094569661 -0.08422751 0.047599588
9820000000 0.14435115 0.12410706 0.00066053052 -0.00073292019 0.00068716222 -0.00069960073 -0.073530868 0.087499164
9840000000 0.14774434 0.076139458 -0.0010586539 -0.00077248155 -0.001078635 -0.00076744071 -0.039437119 0.11064784
9860000000 0.17833273 0.06779936 -0.00017526351 0.0013405569 -0.00014782396 0.0013084935 0.0045612892 0.12996165
9880000000 0.13746221 0.072060823 0.0011964352 -0.0003016874 0.0012147356 -0.00028953503 0.053571448 0.10745315
9900000000 0.14339769 0.076180153 -0.0003910356 -0.00059886265 -0.000442149 -0.00064272084 0.088816635 0.084122188
9920000000 0.1712711 0.069377191 -0.00069311127 0.00033675256 -0.00071432622 0.00037224521 0.12013829 0.043417122
9940000000 0.1527268 0.060180053 0.00043141822 0.00045477485 0.00042907445 0.00045212609 0.12704091 -0.016780464
9960000000 0.16160111 0.037399296 0.00028504719 -0.00030743043 0.00028775921 -0.00032695758 0.092489943 -0.054517914
9980000000 0.14408238 0.063592292 0.00012927143 -0.00038515727 7.8918289e-005 -0.00037643273 0.065313399 -0.074073389
10000000000 0.15157898 0.055284705 -0.00078350498 -0.00014549497 -0.00076060585 -0.00013809104 0.03337827 -0.11522347
10020000000 0.18397108 0.020926878 0.00026116872 0.0010761432 0.00020559522 0.001080801 -0.011120554 -0.10717438
10040000000 0.13295227 0.024666987 0.0010484796 -0.00030604863 0.00099865568 -0.00037731184 -0.050413027 -0.08984939
10060000000 0.12959935 0.029647477 -0.00060414796 -0.0015817001 -0.00062688475 -0.0015761248 -0.068924725 -0.067839921
10080000000 0.1753903 0.031648267 -0.0015684224 0.00180311 -0.0016100951 0.0017107575 -0.10330929 -0.040078152
10100000000 0.15815656 0.015060444 0.0023755527 0.00055042026 0.0023387417 0.00051824085 -0.10785245 -0.011506298
10120000000 0.12262281 -0.017654808 -6.7821951e-005 -0.0020680472 -4.882042e-005 -0.0020570047 -0.11337418 0.027089374
10140000000 0.13637958 0.029263575 -0.002127277 0.0003077639 -0.0021383655 0.00032086091 -0.077461317 0.066975854
10160000000 0.1511545 0.0044841277 0.0011581287 0.002499572 0.0011497113 0.0024620034 -0.070157453 0.079289041
10180000000 0.1335021 -0.017930523 0.0015828047 -0.0021554388 0.0015438403 -0.0021451968 -0.045372486 0.1059422
10200000000 0.12893128 -0.0064063733 -0.0017926793 -0.00066659931 -0.0017479452 -0.00060239789 0.0033419463 0.12025217
10220000000 0.10880911 -0.0026469948 -0.0009122144 0.0016035236 -0.00089275412 0.0015793458 0.04165709 0.080223195
10240000000 0.15075353 -0.013914382 0.002403381 0.00031143404 0.002369337 0.00028118197 0.033871025 0.08096794
10260000000 0.11278269 -0.02465494 -0.00064875948 -0.0014660653 -0.00060207385 -0.0014985881 0.080071881 0.054284748
10280000000 0.07662721 -0.027157564 -0.0010825156 -8.9792054e-005 -0.0010629712 -5.2361178e-005 0.071978576 0.0041056974
10300000000 0.11264259 -0.010479515 -0.00026773813 0.0018080927 -0.00020005697 0.0017592194 0.055926077 0.0014366232
10320000000 0.089011505 -0.010190129 0.0017898573 -0.00053164852 0.0017073926 -0.00059187127 0.052199394 -0.018113777
10340000000 0.084920332 -0.054814663 -0.00025344716 -0.0018969479 -0.00030785936 -0.0019040803 0.03584218 -0.020434167
10360000000 0.079738267 -0.030276863 -0.002416546 0.001055677 -0.0024593459 0.0010414909 0.014791641 -0.038331669
10380000000 0.046161108 -0.01020173 0.0023395419 0.0021147011 0.0023389163 0.0021337371 0.0057061501 -0.034812033
