!Keysight Technologies,N5242B,MY47200105,A.14.00.23
!Date: Friday, April 26, 2024 10:55:41
!Correction: S11(C  2-Port  ) 
!S21(C  2-Port  ) 
!S12(C  2-Port  ) 
!S22(C  2-Port  ) 
!S2P File: Measurement: :
# Hz S  RI   R 50
7000000000 0.045153383 0.060792349 0.0036812825 -0.012498614 0.0037077744 -0.012483953 -0.029767437 -0.021107171
7020000000 0.053801596 0.05752496 -0.01323534 -0.0010343412 -0.013296787 -0.0010605277 -0.046556063 -0.0086688064
7040000000 0.07412371 0.061789043 0.0018607894 0.013401533 0.0018958263 0.013342528 -0.049197506 0.023790294
7060000000 0.066804685 0.061259903 0.012719429 -0.004658795 0.012751258 -0.0046699657 -0.024198344 0.046382505
7080000000 0.09011244 0.059128314 -0.0071465028 -0.011219866 -0.0071681938 -0.01120783 -0.0031261225 0.063138433
7100000000 0.085670926 0.071472928 -0.0098885447 0.0091077406 -0.0098866429 0.009101917 0.038774319 0.05063697
7120000000 0.091518849 0.048373908 0.011129869 0.0075026699 0.011132012 0.0075493208 0.064651132 0.034465417
7140000000 0.11232232 0.057086829 0.0051681213 -0.01226119 0.0052028405 -0.012203618 0.069513097 0.00052490295
7160000000 0.10455294 0.055154752 -0.012991334 -0.0025376149 -0.013003762 -0.0025795971 0.063286386 -0.038761307
7180000000 0.11835539 0.040383145 0.00030068136 0.013299027 0.00030768971 0.013250449 0.021226624 -0.070523068
7200000000 0.12169197 0.057647992 0.01232126 -0.0031035172 0.012328159 -0.0030823278 -0.0018903258 -0.060248014
7220000000 0.12073803 0.045181561 -0.0050922995 -0.011242133 -0.0050709071 -0.011252705 -0.036743902 -0.055649251
7240000000 0.13226064 0.033197541 -0.0098542608 0.0067747668 -0.0098381173 0.0067883478 -0.059359565 -0.015315693
7260000000 0.13946152 0.049613409 0.0084292488 0.0084813014 0.0084177162 0.0084694112 -0.059884805 0.0091177952
7280000000 0.12888406 0.034337755 0.0065830564 -0.0097180521 0.0065756901 -0.0097123692 -0.051034093 0.049007036
7300000000 0.15292872 0.038477041 -0.01055688 -0.0044338466 -0.010578053 -0.0044525689 -0.024035959 0.058125496
7320000000 0.14275829 0.045411956 -0.0024942055 0.010564641 -0.0025294963 0.010587895 0.0076697567 0.070450373
7340000000 0.14774331 0.022034161 0.010766938 0.0008445456 0.010787957 0.00085172878 0.035148069 0.063561447
7360000000 0.16267578 0.040015627 -0.00063217111 -0.01062027 -0.00061061775 -0.010601168 0.056856688 0.046265297
7380000000 0.15408301 0.021705598 -0.010775101 0.0023475464 -0.01075852 0.0023506454 0.073220499 0.018700074
7400000000 0.16675477 0.02076246 0.0043969238 0.010507424 0.0044222656 0.010501397 0.076296814 -0.0066088517
7420000000 0.17717382 0.018981718 0.0093305176 -0.0066523715 0.0093904296 -0.006639604 0.060506396 -0.032841612
7440000000 0.16141175 0.015380315 -0.0082005989 -0.0078868074 -0.0081818057 -0.0078575835 0.050567109 -0.053274278
7460000000 0.18788505 0.0075050956 -0.0062429919 0.0095708789 -0.0062400582 0.0095566111 0.020634562 -0.064760327
7480000000 0.16959536 0.0083879475 0.010527437 0.004079368 0.010537218 0.0040979073 0.013418197 -0.057338122
7500000000 0.17044973 0.000290656 0.0019833271 -0.011056418 0.0019583092 -0.011062196 -0.0057969843 -0.069796987
7520000000 0.19407119 0.00074907677 -0.010868319 0.00047641582 -0.010872338 0.00043932183 -0.028170601 -0.066102557
7540000000 0.16528893 -0.012649185 0.0022404739 0.0097654248 0.002229254 0.0097476402 -0.061375882 -0.063556828
7560000000 0.18867476 -0.015649432 0.0089447536 -0.0030597395 0.0089694029 -0.0030924133 -0.099285029 -0.041860688
7580000000 0.18293178 -0.013736618 -0.0040282817 -0.008720885 -0.0040342165 -0.0087414691 -0.11568731 0.017830018
7600000000 0.18164293 -0.014261011 -0.0084573943 0.0054918458 -0.0084496578 0.0054924386 -0.093835153 0.079308555
7620000000 0.19074282 -0.033109065 0.0071483925 0.0075314599 0.0071877497 0.0075226771 -0.04220755 0.12196273
7640000000 0.19000827 -0.028430318 0.0062848656 -0.0085500618 0.0063387263 -0.0085293073 0.010736316 0.12491834
7660000000 0.17930776 -0.032806572 -0.0096057467 -0.0046393424 -0.0096004149 -0.004632649 0.073580198 0.10519627
7680000000 0.19144057 -0.041095007 -0.0030290058 0.010463507 -0.0030718001 0.010464508 0.099505894 0.053521249
7700000000 0.1831605 -0.037381068 0.01098431 0.0011292144 0.010997303 0.0011295298 0.1138491 0.010071721
7720000000 0.17612137 -0.059011087 -0.00086293271 -0.011137493 -0.00088765653 -0.011139198 0.11089336 -0.037723877
7740000000 0.19010074 -0.036086123 -0.011128809 0.0027904918 -0.011117869 0.0027895712 0.072403371 -0.075314738
7760000000 0.1816745 -0.051129296 0.0052844314 0.010693542 0.0052817725 0.010713663 0.036455739 -0.085633524
7780000000 0.17888291 -0.057994459 0.0093602454 -0.0073046391 0.0093593849 -0.0072935997 -0.0034571004 -0.095742531
7800000000 0.19087799 -0.048578959 -0.00913205 -0.0079260366 -0.0091405483 -0.0079336576 -0.042595282 -0.068926163
7820000000 0.17162937 -0.056216456 -0.0056467815 0.010441378 -0.0056167492 0.01044773 -0.052358538 -0.045692384
7840000000 0.19282752 -0.056719176 0.011089233 0.003653384 0.01104398 0.0036597892 -0.066413842 -0.018247599
7860000000 0.17918023 -0.052234773 0.0016001378 -0.011722287 0.0015730611 -0.011701521 -0.046205275 0.016857484
7880000000 0.17123367 -0.070951313 -0.011536149 0.00096831151 -0.01156097 0.0010044309 -0.027763244 0.031547997
7900000000 0.20031822 -0.076559365 0.0028387939 0.010968816 0.0027829465 0.010977425 -0.014041193 0.032500792
7920000000 0.16486464 -0.065331623 0.010020375 -0.0047692782 0.0099746408 -0.0047076019 0.01361018 0.036642291
7940000000 0.18150567 -0.080985203 -0.0061284131 -0.0089545054 -0.0060874964 -0.0089634638 0.021019546 0.0071120868
7960000000 0.17283919 -0.073376447 -0.0078200949 0.0072624781 -0.0078156311 0.0072064227 0.027937317 0.0024698027
7980000000 0.17197238 -0.080196992 0.0084384922 0.0069717332 0.0084499158 0.0069838455 0.025392698 -0.023815714
8000000000 0.17943138 -0.088654839 0.0053231996 -0.0098045385 0.005412715 -0.0097775431 0.0099078882 -0.020875266
8020000000 0.16383554 -0.067777276 -0.010909025 -0.0038704551 -0.010901612 -0.0038208151 -0.00071138883 -0.029765975
8040000000 0.16205628 -0.090858907 -0.001788795 0.011689431 -0.0017652715 0.011678882 -0.016730422 -0.032323703
8060000000 0.17196274 -0.10236045 0.01239939 -0.00072042085 0.012397422 -0.00069805636 -0.039644454 -0.023853948
8080000000 0.15371627 -0.078678235 -0.0031761613 -0.011950768 -0.0031675571 -0.011948312 -0.038643178 -0.0015007827
8100000000 0.16035874 -0.11401187 -0.011264586 0.0060347803 -0.011299874 0.0059957295 -0.04895113 0.011329365
8120000000 0.15175001 -0.097883962 0.008226498 0.0092554213 0.0082497476 0.0092436932 -0.030307982 0.04683236
8140000000 0.14735806 -0.10366404 0.0071264738 -0.0097451461 0.0071326368 -0.0097092045 -0.018265493 0.064375475
8160000000 0.12833937 -0.11431219 -0.010536217 -0.0047546588 -0.010491764 -0.0047445889 0.023319837 0.079254046
8180000000 0.1383203 -0.094350129 -0.0023225294 0.010612519 -0.0023020275 0.010593849 0.055681847 0.06458015
8200000000 0.12034973 -0.11350493 0.0099943113 0.00080699642 0.010013355 0.00086620508 0.094976328 0.033394925
8220000000 0.1217488 -0.10704647 -0.00082828436 -0.0099049313 -0.00083700503 -0.0099346871 0.099633366 -0.0049791383
8240000000 0.1136648 -0.095810667 -0.009100155 0.0020739047 -0.0090627158 0.002062171 0.10992189 -0.050646648
8260000000 0.10007934 -0.11344136 0.0029693178 0.008642205 0.0029397563 0.0086695105 0.075728893 -0.096213542
8280000000 0.11754362 -0.11087454 0.0084961532 -0.0039290721 0.0085191494 -0.0039469204 0.039774179 -0.11249093
8300000000 0.085373662 -0.098993987 -0.0054975585 -0.0082001705 -0.005485543 -0.0082339002 -0.010076286 -0.11960948
8320000000 0.092460245 -0.11083868 -0.0073234374 0.0071017863 -0.0072711292 0.0070935492 -0.053753469 -0.11530095
8340000000 0.10140072 -0.10302668 0.0084169721 0.006023434 0.0084074084 0.0060469531 -0.086625949 -0.082980938
8360000000 0.064618759 -0.10237882 0.0045430642 -0.009632322 0.0045349277 -0.0096052904 -0.11059269 -0.04939004
8380000000 0.074994355 -0.10279167 -0.010336048 -0.0023655912 -0.010295616 -0.0023946047 -0.1175961 0.002220849
8400000000 0.062807508 -0.091686942 -0.00059490063 0.010582397 -0.0005781721 0.01062174 -0.098903611 0.039927885
8420000000 0.056175254 -0.086383618 0.010333173 -0.001536365 0.010343352 -0.0015161374 -0.084610544 0.078732051
8440000000 0.057550706 -0.096991055 -0.0032602937 -0.0097021628 -0.0032549056 -0.0097015407 -0.040770639 0.095296033
8460000000 0.049047299 -0.073010109 -0.0086569889 0.0046757343 -0.0086484393 0.0046544727 -0.0028732282 0.10137852
8480000000 0.048348226 -0.081974931 0.0057441373 0.0076790391 0.0057396572 0.0076765269 0.037959173 0.093997464
8500000000 0.053274065 -0.082186989 0.0068539456 -0.0064447029 0.0068298476 -0.006452892 0.073767044 0.066220194
8520000000 0.02996039 -0.065613255 -0.0076674935 -0.0061340486 -0.007648374 -0.0061302888 0.089772649 0.043067679
8540000000 0.023774209 -0.06633196 -0.005016048 0.0084778536 -0.0050166347 0.0084813572 0.097024173 -0.0037872789
8560000000 0.04574421 -0.057534218 0.0095422408 0.0040115719 0.009546414 0.0040178201 0.076587066 -0.040858101
8580000000 0.015612124 -0.057213504 0.0024437325 -0.010752892 0.0024241572 -0.010727283 0.059793897 -0.062123127
8600000000 0.014496228 -0.053885225 -0.011407774 -0.00028607645 -0.011378788 -0.00029283416 0.033741221 -0.075342521
8620000000 0.023470331 -0.029493421 0.0018317546 0.011632624 0.0018300895 0.011653844 0.0025984768 -0.078796186
8640000000 -0.0020239812 -0.040214639 0.01137018 -0.0043546874 0.011332542 -0.0043999972 -0.024101753 -0.062749147
8660000000 0.022012789 -0.03379241 -0.006654093 -0.010336727 -0.006655253 -0.010364101 -0.035638254 -0.046644084
8680000000 0.0079488559 -0.0072972816 -0.008679877 0.0087584509 -0.0086857229 0.0087487688 -0.042091675 -0.025072906
8700000000 -0.0022790032 -0.014140729 0.0099865571 0.0067614866 0.009996539 0.0067656469 -0.047020253 -0.014281682
8720000000 0.02675054 -0.0091690784 0.0047978559 -0.011143435 0.0047606779 -0.011119644 -0.030759793 0.0043654647
8740000000 -0.012499436 0.014465279 -0.011741196 -0.0027037798 -0.0117489 -0.0027140691 -0.024921328 0.0069714361
8760000000 0.0095424093 -0.00061443541 -0.00036429579 0.011941009 -0.00037179823 0.011955965 -0.0025405753 0.017852632
8780000000 0.0050138463 0.026143394 0.011941718 -0.0016735322 0.011941466 -0.0016482149 -0.00045743576 0.0020708859
8800000000 -0.007032909 0.027395729 -0.004075252 -0.011285286 -0.0040283143 -0.011293056 0.001704358 0.0071612266
8820000000 0.0057870476 0.027028235 -0.010200791 0.0060925442 -0.010238014 0.0060558422 0.011082326 -0.0073463442
8840000000 0.0010301707 0.059182189 0.0074840705 0.0085897092 0.007503421 0.0085249394 -0.00090861582 -0.022212138
8860000000 0.0087803695 0.035583872 0.0071736309 -0.0088930568 0.0071923328 -0.0088839754 -0.010712297 -0.022703791
8880000000 0.006283096 0.062251352 -0.0097215474 -0.0053974548 -0.0096394727 -0.0054365429 -0.007781649 -0.023787564
8900000000 0.0031883896 0.076483622 -0.0037904819 0.010414707 -0.0038061645 0.010446895 -0.03848568 -0.016259184
8920000000 0.016108347 0.060385808 0.010798099 0.0020953007 0.01073372 0.0021145546 -0.034058504 0.0054780701
8940000000 0.017543666 0.08300966 0.00019945785 -0.011078317 0.00023233322 -0.011043624 -0.043677364 0.012946308
8960000000 0.01221429 0.078619584 -0.011110964 0.0015151107 -0.011078082 0.0015261561 -0.03369588 0.035876285
8980000000 0.016065698 0.08565513 0.0037192332 0.010620641 0.0037444474 0.010630808 -0.013572602 0.043027673
9000000000 0.037688311 0.10191108 0.0098979082 -0.0054014479 0.0099137081 -0.005447566 0.012730645 0.04691714
9020000000 0.018769864 0.083422266 -0.0073696561 -0.0086519262 -0.0073792972 -0.0086957375 0.021757582 0.049000971
9040000000 0.031891454 0.10699496 -0.0070684063 0.0086326022 -0.0070834914 0.0086081605 0.052188024 0.029233612
9060000000 0.037437983 0.10890687 0.0095961792 0.005323119 0.0095724929 0.005309158 0.052845463 0.014662355
9080000000 0.027096268 0.09557087 0.0036069008 -0.010406219 0.0036474897 -0.010441822 0.066651061 -0.0073633045
9100000000 0.063633695 0.1157615 -0.010495127 -0.0015369339 -0.010510923 -0.0015341928 0.056655623 -0.025782762
9120000000 0.031501923 0.11838067 2.6511236e-005 0.010590819 1.6751506e-005 0.0106177 0.050147962 -0.060269013
9140000000 0.049150363 0.10715633 0.010246528 -0.0019156103 0.010235995 -0.0018872486 0.028713895 -0.057739757
9160000000 0.067916423 0.12918448 -0.0035278418 -0.0097675705 -0.0035304977 -0.0097488258 0.016608315 -0.081907012
9180000000 0.044450853 0.11620146 -0.0088223377 0.0049249637 -0.0088452771 0.0048914747 -0.024458561 -0.071970515
9200000000 0.067740545 0.11644609 0.0063160229 0.0080830427 0.0063004922 0.0080603268 -0.040928598 -0.068160489
9220000000 0.073326796 0.13486053 0.0068113226 -0.0074787983 0.006763251 -0.0074918484 -0.070760332 -0.049762711
9240000000 0.062990725 0.12684432 -0.0086142914 -0.0054701664 -0.00858978 -0.0054696389 -0.08068601 -0.025107611
9260000000 0.076922856 0.1261439 -0.0040169666 0.0091363136 -0.0040523172 0.009111044 -0.070886083 0.0045751398
9280000000 0.076095462 0.13774009 0.01001938 0.0026031202 0.010018434 0.0026497652 -0.073341183 0.027410829
9300000000 0.079809316 0.12283849 0.00081414694 -0.01034634 0.00084894249 -0.010346917 -0.054473348 0.062711678
9320000000 0.096429288 0.14516778 -0.01042597 0.0012669741 -0.010441647 0.0012300997 -0.035631433 0.059442081
9340000000 0.081044175 0.12438441 0.0029114285 0.009799582 0.002907875 0.0098351678 -0.00755858 0.072640024
9360000000 0.096259646 0.1351008 0.0091199838 -0.0048216889 0.0091001121 -0.0047522606 0.018146867 0.059394632
9380000000 0.10848282 0.15402801 -0.0060924152 -0.007860248 -0.0061229109 -0.0078993412 0.032837581 0.052905161
9400000000 0.091607958 0.13460486 -0.006449915 0.0071451534 -0.0064340951 0.0071878559 0.05453489 0.035298172
9420000000 0.11117594 0.13116805 0.0077725472 0.0054368102 0.0077635222 0.0053992937 0.051051941 0.0092903161
9440000000 0.1211658 0.15447573 0.003898436 -0.0085829142 0.0039013275 -0.0085045714 0.051526275 -0.005181788
9460000000 0.098378561 0.13695356 -0.008725916 -0.0026548817 -0.0087659238 -0.0026807273 0.03853821 -0.027080858
9480000000 0.13656084 0.13729756 -0.0014279657 0.0089050187 -0.0014270486 0.0088822693 0.033037849 -0.032899365
9500000000 0.10729033 0.14270039 0.0092540998 0.00039353062 0.0093083829 0.00043181115 0.0067923586 -0.035968158
9520000000 0.13477162 0.13858651 -0.0011075544 -0.0093664518 -0.0010651574 -0.009345348 -0.0041666753 -0.035781868
9540000000 0.1372114 0.1372472 -0.0095341448 0.0025037182 -0.0094842482 0.0025351443 -0.010596445 -0.020862779
9560000000 0.11327001 0.14099585 0.0041346638 0.0093003837 0.0041195326 0.0092688669 -0.014247011 -0.011239859
9580000000 0.14413065 0.12345245 0.0087557519 -0.0062156371 0.008773569 -0.0062509109 -0.023048054 0.0013389493
9600000000 0.15061216 0.15265113 -0.0078155668 -0.0073806648 -0.0077635581 -0.0073684696 -0.0073886202 0.0038889502
9620000000 0.12548876 0.12963797 -0.0059473263 0.0093758088 -0.0059892894 0.0093837958 -0.0039753737 0.008900458
9640000000 0.14626697 0.11909353 0.010341913 0.0039216205 0.010351505 0.0039683045 0.017381739 -0.00068546738
9660000000 0.13996775 0.15130548 0.001653394 -0.011154924 0.0017218647 -0.011153534 0.013023719 -0.017075337
9680000000 0.1487354 0.1132118 -0.010967084 0.00061359239 -0.010929471 0.00059211085 0.011041621 -0.015437153
9700000000 0.1504081 0.11270408 0.0029831512 0.010169941 0.0029647015 0.010165076 -0.0081998669 -0.040330019
9720000000 0.14641373 0.13022333 0.0089937169 -0.0041222787 0.0089460062 -0.0041179978 -0.033570465 -0.047879554
9740000000 0.16078217 0.10097276 -0.0056234463 -0.0078067067 -0.0056141531 -0.0078208642 -0.048332948 -0.036398232
9760000000 0.15014221 0.1308146 -0.0067081973 0.0061733979 -0.0066888761 0.006171945 -0.072850585 -0.016656602
9780000000 0.15561366 0.093649335 0.0070231026 0.0055795996 0.0070247035 0.0056251772 -0.081094526 0.019384133
9800000000 0.15682366 0.10372543 0.0044912468 -0.0076638423 0.0045120008 -0.0077273096 -0.078061618 0.040361624
9820000000 0.16521969 0.12074702 -0.0080794841 -0.0032632509 -0.0080586029 -0.0032398563 -0.067689076 0.084872581
9840000000 0.14117385 0.081371062 -0.0022575706 0.0085359933 -0.0022067267 0.0085208509 -0.028404633 0.10203136
9860000000 0.18393956 0.096095569 0.0085984152 0.00081958156 0.0085814539 0.00086518179 0.0053085508 0.1149646
9880000000 0.15856896 0.090916544 -0.00025480107 -0.0089637944 -0.0002624474 -0.0089154998 0.049074121 0.10204352
9900000000 0.16240001 0.075043753 -0.0088001285 0.0017992995 -0.0087369252 0.0018239149 0.090230204 0.073376797
9920000000 0.16558748 0.073588572 0.003220639 0.0085841734 0.0031992937 0.0086082621 0.11253171 0.032145608
9940000000 0.15839171 0.087498009 0.0079926969 -0.0046799364 0.0079515725 -0.004656706 0.11381015 -0.019748159
9960000000 0.18102978 0.055691145 -0.0060813557 -0.0071198032 -0.0060451594 -0.0071173618 0.087450132 -0.052600089
9980000000 0.16045758 0.062272087 -0.0060010669 0.0070667402 -0.0060846731 0.0070376061 0.0552276 -0.076129802
10000000000 0.146152 0.061219875 0.0082369009 0.0046898481 0.008229061 0.0046275915 0.024117844 -0.11075494
10020000000 0.18363495 0.046942323 0.0029666547 -0.0083889794 0.0029665008 -0.0083551873 -0.018352045 -0.099213175
10040000000 0.15243685 0.045812666 -0.0087108454 -0.0018174835 -0.008703162 -0.0018270254 -0.050848614 -0.080032147
10060000000 0.14495486 0.030268541 -0.00066946342 0.0085904524 -0.00066196109 0.0085948519 -0.071947038 -0.064116336
10080000000 0.1695295 0.037459213 0.0088762678 -0.00046168061 0.0088885371 -0.00040347414 -0.10828268 -0.02835086
10100000000 0.15312938 0.040975079 -0.0016386039 -0.0091685308 -0.0015908735 -0.0091232685 -0.098505758 0.0002956221
10120000000 0.14752652 0.0058603799 -0.0090108374 0.0034205641 -0.0089969262 0.0033756234 -0.10668343 0.0270022
10140000000 0.14609995 0.023709221 0.0046666879 0.0088435477 0.0047273338 0.0088381171 -0.077907287 0.07394588
10160000000 0.14229186 0.014191511 0.008063484 -0.0068202941 0.0080634141 -0.0068430882 -0.056140661 0.08712396
10180000000 0.12943889 0.0083980355 -0.008360981 -0.0068854759 -0.0083192308 -0.0068708863 -0.035210665 0.097725049
10200000000 0.14840704 0.014885017 -0.0050640046 0.0099355644 -0.0050110263 0.0099747637 0.0059532458 0.1170954
10220000000 0.11545604 -0.0052556414 0.01088746 0.0029753787 0.010832191 0.0030151638 0.049449429 0.079171322
10240000000 0.1383168 -0.00021709964 0.00038498829 -0.011099204 0.00037602946 -0.011115087 0.043111451 0.072468385
10260000000 0.11076203 0.00010356329 -0.010881705 0.001726237 -0.010931107 0.0017300014 0.080090836 0.042825136
10280000000 0.094503552 -0.0063709663 0.003944932 0.0097345263 0.0040310179 0.009749433 0.068056382 -0.0011792845
10300000000 0.11737244 -0.0082720052 0.0084955832 -0.0053111836 0.0084941983 -0.0052916971 0.059014075 -0.0036556558
10320000000 0.083017103 -0.00036344209 -0.0063289185 -0.006982205 -0.0062650708 -0.0069819125 0.048889671 -0.02946314
10340000000 0.081467934 -0.029981412 -0.0058439006 0.0069835852 -0.0058085327 0.0070175636 0.023758158 -0.024989149
10360000000 0.091966681 -0.0082791541 0.0073402589 0.0046158615 0.0073322509 0.0045909374 0.0099253273 -0.036686033
10380000000 0.055322088 -0.005638977 0.0038058511 -0.0077527491 0.0038076832 -0.0077865436 -2.7921064e-006 -0.041175988
10400000000 0.067022808 -0.025242986 -0.0081939492 -0.0027243646 -0.0082025677 -0.0026570603 -0.015132225 -0.037235364
10420000000 0.060282473 -0.0086350515 -0.0016022573 0.0088690473 -0.0015788709 0.0088610034 -0.014569661 -0.030151887
10440000000 0.033498023 -0.01964609 0.0090345545 0.00029686911 0.0089582428 0.00023318212 -0.035946995 -0.028723838
10460000000 0.056156609 -0.013693366 -0.0013699725 -0.0093521355 -0.0013557639 -0.009364469 -0.05811407 -0.013707465
10480000000 0.028566489 -0.0020126791 -0.0090250764 0.0030574729 -0.0090159699 0.0029976384 -0.0647339 -2.855509e-005
