!Keysight Technologies,N5242B,MY47200105,A.14.00.23
!Date: Friday, April 26, 2024 10:55:26
!Correction: S11(C  2-Port  ) 
!S21(C  2-Port  ) 
!S12(C  2-Port  ) 
!S22(C  2-Port  ) 
!S2P File: Measurement: :
# Hz S  dB   R 50
7000000000 -22.414053 53.411911 -37.69281 -73.520561 -37.708733 -73.415184 -28.739208 -144.59369
7020000000 -22.084911 46.893448 -37.508083 -175.44203 -37.507191 -175.37331 -26.493679 -169.54074
7040000000 -20.30884 39.842552 -37.383465 81.866852 -37.412109 81.973412 -25.253643 154.15575
7060000000 -20.857002 42.581398 -37.343376 -20.19817 -37.355553 -20.123844 -25.643127 117.61636
7080000000 -19.342798 33.298393 -37.550991 -122.482 -37.532516 -122.42142 -23.978819 92.733681
7100000000 -19.049397 39.850929 -37.429653 137.28719 -37.435738 137.27161 -23.914543 52.579121
7120000000 -19.697641 27.852646 -37.40955 34.028664 -37.398125 33.973637 -22.703325 28.019667
7140000000 -17.990942 26.942871 -37.519966 -66.904121 -37.530445 -67.099205 -23.167545 0.44955584
7160000000 -18.542704 27.798878 -37.56366 -168.76071 -37.570705 -168.86302 -22.599363 -31.524565
7180000000 -18.059034 18.790071 -37.542347 88.574608 -37.531353 88.769669 -22.66544 -73.264076
7200000000 -17.417091 25.33639 -37.907738 -14.149816 -37.911026 -14.080911 -24.378319 -91.723877
7220000000 -17.795702 20.55209 -38.174961 -114.49983 -38.201305 -114.25861 -23.525703 -123.48633
7240000000 -17.303375 14.074294 -38.450035 145.41058 -38.470333 145.4534 -24.254791 -165.51025
7260000000 -16.598293 19.592323 -38.418629 45.184128 -38.467064 45.229645 -24.33106 171.41444
7280000000 -17.495821 14.974996 -38.604168 -56.030605 -38.634926 -55.84338 -23.021584 136.06293
7300000000 -16.043034 14.139566 -38.793716 -157.21481 -38.809368 -157.02179 -24.024694 112.43224
7320000000 -16.486156 17.6593 -39.27483 103.40713 -39.269264 103.41518 -22.98214 83.769798
7340000000 -16.512964 8.4735003 -39.318859 4.3373227 -39.338707 4.4481435 -22.778374 60.968216
7360000000 -15.515934 13.82273 -39.493458 -93.286598 -39.495087 -93.221786 -22.710535 39.17347
7380000000 -16.155867 8.0031948 -39.155811 167.71245 -39.159805 167.7668 -22.427418 14.347246
7400000000 -15.495852 7.0916004 -38.840939 67.158691 -38.880215 67.181007 -22.311773 -4.9808187
7420000000 -14.981428 6.1405878 -38.792309 -35.377155 -38.80175 -35.367149 -23.245281 -28.558104
7440000000 -15.801485 5.4476814 -38.916805 -136.20911 -38.880119 -136.19205 -22.697727 -46.554874
7460000000 -14.516613 2.2857468 -38.853439 123.14324 -38.838974 123.10513 -23.370869 -72.290085
7480000000 -15.401976 2.842968 -38.960846 21.33922 -38.941681 21.342783 -24.605452 -76.850754
7500000000 -15.366511 0.10196424 -38.993465 -79.925194 -38.99971 -79.799095 -23.082771 -94.696457
7520000000 -14.244841 0.2197759 -39.25148 177.43452 -39.247841 177.4671 -22.875275 -113.1346
7540000000 -15.611222 -4.3819404 -40.021545 76.816696 -40.010895 77.154785 -21.081215 -133.9895
7560000000 -14.458832 -4.7146616 -40.45359 -19.060253 -40.456532 -19.129858 -19.34551 -157.13322
7580000000 -14.728208 -4.2593827 -40.356728 -114.86372 -40.356632 -115.06155 -18.631403 171.21976
7600000000 -14.791085 -4.4858603 -39.889103 146.85393 -39.921402 146.99556 -18.215101 139.75635
7620000000 -14.261379 -9.8396654 -39.665527 46.399651 -39.668415 46.490467 -17.785984 109.06281
7640000000 -14.330595 -8.5251312 -39.47871 -53.818604 -39.468266 -53.632645 -18.030788 85.073204
7660000000 -14.784597 -10.385856 -39.467751 -154.23764 -39.425068 -154.04691 -17.83444 54.99897
7680000000 -14.163177 -12.112972 -39.253193 106.17764 -39.284515 106.157 -18.939066 28.280993
7700000000 -14.567657 -11.549799 -39.144188 5.8805003 -39.155106 5.8948703 -18.831398 4.9849262
7720000000 -14.624544 -18.516146 -39.036423 -94.654808 -39.028088 -94.424347 -18.637491 -18.840408
7740000000 -14.267862 -10.756009 -38.830605 165.73352 -38.801884 165.92778 -19.623037 -46.147369
7760000000 -14.48236 -15.714162 -38.444122 63.804993 -38.433205 63.816734 -20.630154 -66.937126
7780000000 -14.515677 -17.955294 -38.543457 -37.982185 -38.532162 -37.952869 -20.374641 -92.06028
7800000000 -14.115171 -14.276772 -38.368893 -139.19923 -38.363739 -139.07275 -21.838224 -121.72168
7820000000 -14.864647 -18.121887 -38.501411 118.35873 -38.486034 118.52573 -23.162533 -138.89778
7840000000 -13.936377 -16.377356 -38.656452 18.435715 -38.69239 18.308693 -23.237934 -164.62599
7860000000 -14.577892 -16.268585 -38.546101 -82.395149 -38.53627 -82.246536 -26.177332 160.10768
7880000000 -14.641669 -22.507715 -38.694763 175.1451 -38.698452 175.19533 -27.519354 131.41267
7900000000 -13.37156 -20.899 -38.919506 75.667267 -38.920128 75.68055 -29.003679 113.27412
7920000000 -15.020026 -21.61631 -39.137009 -25.474836 -39.118382 -25.228357 -28.152266 69.641861
7940000000 -14.03441 -24.046427 -39.289234 -124.3045 -39.318832 -124.21043 -33.110012 19.132982
7960000000 -14.529192 -23.001505 -39.461845 137.03517 -39.464901 137.04413 -31.039516 5.1566281
7980000000 -14.432678 -24.976988 -39.206757 39.491837 -39.186424 39.767811 -29.135925 -43.185871
8000000000 -13.971427 -26.309231 -39.01944 -61.200089 -39.039597 -61.386368 -32.720158 -64.626617
8020000000 -15.032949 -22.467152 -38.745052 -160.45251 -38.735321 -160.46289 -30.533413 -91.547676
8040000000 -14.619112 -29.251074 -38.566689 98.652039 -38.570065 98.699654 -28.77528 -117.50186
8060000000 -13.969803 -30.745916 -38.138344 -3.1908207 -38.145908 -3.3979392 -26.686539 -149.09146
8080000000 -15.257844 -27.145496 -38.14481 -104.83073 -38.147526 -104.88606 -28.264603 -177.51782
8100000000 -14.123819 -35.404602 -37.866257 151.94359 -37.864906 151.92587 -25.993835 166.85217
8120000000 -14.864428 -32.817627 -38.141399 48.49078 -38.118839 48.404629 -25.099443 122.98621
8140000000 -14.886921 -35.143356 -38.37265 -53.781952 -38.386269 -53.709137 -23.499985 105.82968
8160000000 -15.299908 -41.688683 -38.74017 -155.68335 -38.723022 -155.79648 -21.680065 73.517166
8180000000 -15.526168 -34.269852 -39.29678 102.49893 -39.281933 102.41348 -21.392229 49.325081
8200000000 -15.625368 -43.325905 -39.954353 4.8661065 -39.979256 4.6288157 -19.944584 19.405205
8220000000 -15.807286 -41.299156 -40.041958 -94.928139 -40.022503 -94.713547 -20.031351 -2.8547273
8240000000 -16.559217 -40.111568 -40.640133 167.19141 -40.647869 167.46397 -18.343025 -24.751949
8260000000 -16.403845 -48.618446 -40.768604 71.162804 -40.750942 71.113586 -18.240564 -51.762001
8280000000 -15.82777 -43.318871 -40.608345 -24.706526 -40.601845 -24.547016 -18.460835 -70.543823
8300000000 -17.678558 -49.203117 -40.080986 -123.91593 -40.094822 -123.8598 -18.40807 -94.765228
8320000000 -16.810011 -50.157616 -39.837208 135.72205 -39.816048 135.78041 -17.894804 -114.99272
8340000000 -16.800858 -45.430893 -39.710087 35.519608 -39.709049 35.73275 -18.416491 -136.26128
8360000000 -18.344408 -57.749538 -39.424404 -64.824913 -39.446419 -64.684105 -18.338921 -155.88921
8380000000 -17.906107 -53.862198 -39.479076 -166.99059 -39.493122 -166.97084 -18.583458 178.92725
8400000000 -19.077816 -55.568161 -39.459072 93.233658 -39.48975 93.177994 -19.440285 157.99442
8420000000 -19.737553 -56.972065 -39.589634 -8.3926992 -39.614727 -8.4692993 -18.729656 137.08604
8440000000 -18.952103 -59.296303 -39.814472 -108.60434 -39.803543 -108.51981 -19.680841 113.15762
8460000000 -21.113405 -56.140491 -40.093441 151.5405 -40.113403 151.71446 -19.887829 91.596039
8480000000 -20.428541 -59.501316 -40.341057 53.149261 -40.354675 53.432968 -19.870344 67.945831
8500000000 -20.183153 -57.011822 -40.508327 -43.296421 -40.536594 -43.209236 -20.07361 41.984531
8520000000 -22.845995 -65.442123 -40.146133 -141.05275 -40.177189 -141.27327 -20.038692 25.549669
8540000000 -23.031517 -70.347679 -40.119663 120.63417 -40.161411 120.5153 -20.265656 -2.2848239
8560000000 -22.677937 -51.462246 -39.689392 22.741625 -39.715176 22.671278 -21.217915 -28.033569
8580000000 -24.549505 -74.756699 -39.200493 -77.115768 -39.213356 -77.100204 -21.277521 -46.064426
8600000000 -25.072237 -74.912071 -38.887051 -178.69795 -38.848957 -178.51358 -21.681404 -65.887894
8620000000 -28.467545 -51.507019 -38.565979 80.941704 -38.585316 81.18071 -22.060202 -88.191185
8640000000 -27.890808 -92.851242 -38.322346 -21.001585 -38.294952 -21.186876 -23.44973 -111.01954
8660000000 -27.890829 -56.850163 -38.208035 -122.85721 -38.204945 -122.75546 -24.617743 -127.36337
8680000000 -39.346603 -42.662674 -38.205982 134.69475 -38.189751 134.78419 -26.219913 -149.07021
8700000000 -36.835728 -99.234955 -38.331532 33.983253 -38.348896 34.154114 -26.118618 -163.2003
8720000000 -30.985943 -18.826824 -38.313168 -66.681084 -38.362984 -66.64077 -30.147093 171.74767
8740000000 -34.350254 130.76463 -38.384411 -167.14307 -38.391132 -167.08928 -31.746796 164.7341
8760000000 -40.387012 -3.854619 -38.443546 91.793633 -38.435444 91.811653 -34.883518 98.00605
8780000000 -31.489201 79.053932 -38.391434 -7.9624348 -38.376877 -7.8692102 -53.422539 101.72034
8800000000 -30.95009 104.23574 -38.426826 -109.7981 -38.44622 -109.77187 -42.478367 77.682083
8820000000 -31.191122 77.896393 -38.483219 149.30138 -38.481438 149.28764 -37.501572 -33.749889
8840000000 -24.565765 89.038017 -38.833549 48.618999 -38.863457 48.580578 -32.993744 -92.177101
8860000000 -28.708668 76.080833 -38.841511 -51.008114 -38.83672 -50.890236 -32.064957 -115.62965
8880000000 -24.063837 84.248253 -39.114395 -150.73511 -39.095814 -150.79456 -32.044407 -107.74931
8900000000 -22.327347 87.612831 -39.086914 110.08698 -39.092903 110.11423 -27.564022 -157.23553
8920000000 -24.080082 75.067856 -39.208557 11.068382 -39.199856 10.945459 -29.224398 170.95627
8940000000 -21.420378 78.040054 -39.109203 -88.787048 -39.090878 -88.792595 -26.838293 163.40904
8960000000 -21.982201 81.207222 -39.012947 172.2175 -39.037895 172.21364 -26.154139 133.18224
8980000000 -21.201307 79.498283 -38.972946 70.671333 -38.971954 70.778305 -26.90449 107.56258
9000000000 -19.270378 69.653099 -38.956944 -28.721727 -38.929478 -28.560238 -26.258595 74.822067
9020000000 -21.352461 77.299133 -38.870193 -130.38548 -38.90313 -130.47343 -25.417898 65.846031
9040000000 -19.040333 73.453209 -39.034298 129.21715 -39.076164 129.46391 -24.489819 29.268669
9060000000 -18.777517 71.014915 -39.185757 28.929792 -39.221481 29.102142 -25.19693 15.555556
9080000000 -20.053682 74.070396 -39.171013 -70.876892 -39.160175 -70.832382 -23.480497 -6.3366685
9100000000 -17.585243 61.232803 -39.501732 -171.58949 -39.496647 -171.49806 -24.121862 -24.40349
9120000000 -18.236994 75.156303 -39.491604 89.46286 -39.513985 89.748924 -22.104889 -50.295681
9140000000 -18.568834 65.321732 -39.653809 -10.53361 -39.645996 -10.385482 -23.805668 -63.512352
9160000000 -16.714775 62.285656 -39.656704 -109.86259 -39.64579 -109.73687 -21.545834 -78.516266
9180000000 -18.10465 69.122398 -39.907719 150.79002 -39.925274 150.70279 -22.390263 -108.686
9200000000 -17.406652 59.806133 -39.833282 51.963879 -39.809246 52.142162 -21.95932 -121.13006
9220000000 -16.281771 61.444294 -39.905697 -47.632236 -39.914455 -47.690838 -21.25371 -144.96681
9240000000 -16.977503 63.615849 -39.860634 -147.40039 -39.83968 -147.22519 -21.458435 -162.66154
9260000000 -16.61758 58.68148 -39.989571 114.0027 -40.013546 114.14207 -22.991785 176.29724
9280000000 -16.06386 61.091896 -39.690056 14.857311 -39.708744 14.784035 -22.102436 159.42012
9300000000 -16.681751 56.986366 -39.689613 -85.543175 -39.651546 -85.527763 -21.60907 130.88213
9320000000 -15.175252 56.489552 -39.587681 173.13138 -39.576 173.46666 -23.202814 120.95328
9340000000 -16.561712 56.923748 -39.785988 73.564072 -39.788143 73.62484 -22.740686 95.803711
9360000000 -15.605935 54.476128 -39.726593 -27.638058 -39.732967 -27.623003 -24.171318 72.953697
9380000000 -14.496861 54.874428 -40.048481 -127.68778 -39.956562 -127.61154 -24.093674 58.317986
9400000000 -15.765817 55.811302 -40.344425 131.97466 -40.359318 132.08682 -23.737488 32.992771
9420000000 -15.290532 49.636719 -40.521786 34.855843 -40.476135 35.037113 -25.686918 10.298546
9440000000 -14.139724 51.905235 -40.523518 -65.323349 -40.514042 -65.383148 -25.710201 -5.7871575
9460000000 -15.468031 54.362366 -40.770157 -162.80536 -40.803066 -162.76033 -26.542658 -34.959892
9480000000 -14.254915 45.172104 -40.913712 99.106499 -40.904942 98.92025 -26.596006 -44.878803
9500000000 -14.963034 53.002403 -40.643314 2.444325 -40.63393 2.9572146 -28.729727 -79.331039
9520000000 -14.274688 45.835747 -40.52533 -96.965965 -40.525871 -96.858597 -28.803986 -96.743256
9540000000 -14.237679 45.067043 -40.169109 165.16815 -40.120899 165.08134 -32.62162 -116.52449
9560000000 -14.857155 51.213402 -39.832664 65.843109 -39.851463 66.041107 -34.795414 -142.48611
9580000000 -14.433525 40.562675 -39.37616 -35.089783 -39.391743 -35.318996 -32.743542 176.34459
9600000000 -13.378201 45.467834 -39.422009 -136.52205 -39.421726 -136.45482 -41.716064 153.864
9620000000 -14.868373 45.95359 -39.116238 122.45776 -39.064289 122.83993 -40.179298 113.01099
9640000000 -14.494224 39.120907 -39.142197 21.070169 -39.116371 21.053408 -35.180717 -2.2685297
9660000000 -13.711681 47.320915 -38.951618 -81.639626 -38.960209 -81.185738 -33.457794 -52.358253
9680000000 -14.562936 37.318554 -39.222477 176.61771 -39.196056 176.96352 -34.374893 -54.976833
9700000000 -14.519296 36.758957 -39.537415 73.772491 -39.524567 73.740051 -27.683182 -101.60117
9720000000 -14.159541 41.668079 -40.062824 -24.935793 -40.076092 -24.685926 -24.691813 -125.37112
9740000000 -14.427905 32.165478 -40.344479 -125.86472 -40.358574 -125.787 -24.395473 -143.02301
9760000000 -14.021335 41.112541 -40.824352 137.38976 -40.839165 137.63034 -22.514652 -167.17593
9780000000 -14.822242 31.010725 -40.910709 38.426723 -40.887325 38.518021 -21.603172 166.52229
9800000000 -14.522139 33.526951 -40.950809 -59.371052 -40.959858 -59.79966 -21.117243 152.63124
9820000000 -13.775147 36.238342 -41.242188 -158.24475 -41.24744 -158.16263 -19.296104 128.46385
9840000000 -15.772552 29.901787 -41.089832 104.63621 -41.104359 104.90434 -19.528362 105.55592
9860000000 -13.651817 27.62373 -41.302551 5.6881599 -41.285011 5.335495 -18.786106 87.366928
9880000000 -14.75775 29.885801 -41.014484 -91.882629 -40.961319 -91.818542 -18.91025 64.350075
9900000000 -14.947939 24.786915 -41.021145 168.2702 -40.89444 168.41879 -18.704258 39.008327
9920000000 -14.843147 23.963791 -40.7267 69.585175 -40.716068 69.823639 -18.640587 15.943323
9940000000 -14.849977 28.974609 -40.668549 -30.665329 -40.735027 -30.275291 -18.748833 -9.7906942
9960000000 -14.450303 17.117172 -40.599022 -130.5761 -40.581001 -130.35237 -19.8291 -30.906996
9980000000 -15.283394 21.180513 -40.638325 130.49066 -40.723301 130.71408 -20.530491 -54.151276
10000000000 -16.006773 22.748154 -40.493149 29.398085 -40.494663 29.057421 -18.905779 -77.722107
10020000000 -14.436111 14.371804 -41.037609 -70.644676 -41.042374 -70.51973 -19.921688 -100.37934
10040000000 -15.972906 16.679222 -40.98629 -167.94913 -40.995205 -168.05698 -20.4804 -122.51285
10060000000 -16.597261 11.775938 -41.213428 94.205742 -41.258575 94.17218 -20.314749 -138.27615
10080000000 -15.207307 12.484522 -40.99781 -2.6372983 -40.947304 -2.6530797 -19.009953 -165.39529
10100000000 -15.999413 15.029651 -40.657833 -99.839699 -40.715607 -99.64312 -20.13641 179.85194
10120000000 -16.622801 2.1942496 -40.35598 159.42632 -40.308182 159.18544 -19.178844 165.80336
10140000000 -16.593317 9.2742176 -40.016476 61.678802 -40.067772 62.159489 -19.376207 136.80507
10160000000 -16.892971 5.733768 -39.48666 -40.427925 -39.508804 -40.234627 -19.662004 122.73747
10180000000 -17.737871 3.6599495 -39.295338 -140.45885 -39.31554 -140.39476 -19.677769 109.73063
10200000000 -16.522963 5.7365541 -39.029373 116.5507 -39.034107 116.88493 -18.614813 87.054977
10220000000 -18.738306 -2.5981977 -38.973885 15.398599 -38.962898 15.529339 -20.612329 58.085297
10240000000 -17.179476 -0.085171513 -39.092812 -87.826599 -39.106651 -88.187859 -21.48064 59.293797
10260000000 -19.105362 0.077628784 -39.085041 170.68791 -39.146378 171.09724 -20.839579 27.970787
10280000000 -20.474712 -3.9177389 -39.553463 68.023445 -39.566521 67.934258 -23.364191 -0.8391484
10300000000 -18.590244 -3.924777 -39.958561 -32.375607 -40.013462 -31.972021 -24.532919 -3.5611048
10320000000 -21.610149 -0.27814937 -40.468567 -132.05983 -40.502525 -131.9789 -24.855831 -31.050631
10340000000 -21.221659 -20.285709 -40.870022 129.98978 -40.858852 130.03571 -29.231531 -46.501858
10360000000 -20.689501 -5.1335311 -41.273823 32.349686 -41.289433 32.41946 -28.419764 -74.981674
10380000000 -25.1054 -5.7053823 -41.23772 -63.67004 -41.194 -63.740475 -27.687023 -90.160294
10400000000 -22.889416 -20.703566 -41.271183 -161.81407 -41.290806 -161.60355 -27.911907 -112.13921
10420000000 -24.307446 -8.1047134 -40.868462 100.14875 -40.908302 100.17784 -29.480127 -115.8166
10440000000 -28.242046 -30.22938 -40.924126 1.332901 -40.927738 1.6327162 -26.724604 -141.61293
10460000000 -24.757769 -13.609183 -40.53405 -98.527908 -40.500832 -98.27401 -24.497946 -166.73256
10480000000 -30.84766 -3.9503608 -40.424034 161.65987 -40.451462 161.33524 -23.760824 179.95218
10500000000 -27.443413 -58.471481 -40.312691 59.940102 -40.268986 60.256031 -24.067533 158.65295
10520000000 -35.616268 -30.412552 -40.453144 -40.312355 -40.4911 -40.203247 -23.14929 150.15941
10540000000 -40.994755 -89.674576 -40.47858 -140.19052 -40.50013 -139.9469 -21.34276 124.95834
10560000000 -29.656532 -84.48555 -40.596329 120.52022 -40.618553 120.53542 -21.509951 99.565636
10580000000 -39.282093 157.97856 -40.699028 19.445536 -40.709446 19.455662 -22.465441 87.456688
10600000000 -29.762396 -150.84064 -40.812469 -78.096603 -40.849495 -78.489594 -22.945526 66.42878
10620000000 -38.769836 176.61853 -40.825714 -178.52704 -40.849018 -178.60394 -24.0154 49.565685
10640000000 -33.615993 -171.62267 -40.845238 82.271019 -40.918526 82.11747 -26.632479 31.074072
10660000000 -28.022974 -175.2122 -41.147289 -18.137001 -41.192574 -18.195532 -26.771147 -6.2391872
10680000000 -28.646725 167.26408 -41.135315 -115.54379 -41.199242 -115.70367 -30.605888 -24.489822
10700000000 -28.561855 176.92009 -41.190495 144.87434 -41.199814 145.23863 -33.828667 -24.112598
10720000000 -25.866171 -166.67067 -41.037609 45.879192 -40.992756 45.939491 -39.792965 -128.84796
10740000000 -25.696642 173.38551 -41.146576 -54.211433 -41.104416 -54.205719 -36.88879 -122.61971
10760000000 -22.345963 165.25912 -41.118507 -154.24156 -41.121975 -153.86302 -31.323601 178.7252
10780000000 -26.500536 -177.76259 -41.332916 106.57622 -41.317303 106.48106 -32.993034 153.98224
10800000000 -23.178267 168.20178 -41.217579 6.9675798 -41.273602 7.0889168 -30.682188 118.69883
10820000000 -20.144869 163.56285 -41.356499 -91.235886 -41.356216 -91.248627 -31.687746 97.080597
10840000000 -24.700451 170.03534 -41.179813 167.96655 -41.23719 168.2681 -29.608141 93.635956
10860000000 -20.984655 154.82861 -41.3965 68.797188 -41.402008 68.775925 -34.148293 54.973469
10880000000 -21.095469 165.68616 -41.584099 -31.772501 -41.559475 -31.81366 -38.633965 -24.325579
10900000000 -20.143 162.46312 -41.696346 -130.27946 -41.691334 -130.59114 -35.794796 -125.99109
10920000000 -20.577885 157.11032 -41.838478 129.50894 -41.762051 129.692 -41.295776 -175.43651
10940000000 -21.261837 171.19348 -41.92078 31.00573 -41.992264 30.927927 -28.412449 -151.61833
10960000000 -18.655165 155.80774 -42.272453 -67.912361 -42.278316 -68.295807 -24.14287 163.72122
10980000000 -18.065109 165.96109 -42.259941 -165.75162 -42.281582 -165.63211 -23.498096 147.56989
11000000000 -19.207775 157.44882 -42.523602 95.639343 -42.563919 95.749428 -22.156683 130.56572
11020000000 -16.96221 151.68939 -42.466438 -0.74802947 -42.478012 -0.96985424 -21.225134 109.21056
11040000000 -16.213814 158.34261 -42.297737 -99.609184 -42.332146 -99.476898 -22.052767 87.321777
11060000000 -16.753183 154.14737 -42.115669 160.87701 -42.129292 161.03793 -21.955118 82.946213
11080000000 -15.97681 152.18176 -42.09853 62.369751 -42.133934 62.108707 -19.311678 47.984215
